94833 2015 IHC EPA 13 Cummins ISX, Eaton Auto Shift - Key on engine off

Msg#,Time Diff, ID,DLC, Data
Extended ID: 0x18EF2117  DLC: 8  Data: 0x02 0x00 0x00 0x00 0xFF 0xFF 0x57 0xAE
Extended ID: 0x18EEFF17  DLC: 8  Data: 0x43 0x47 0x60 0x05 0x00 0x13 0x00 0x00
Extended ID: 0x18D0FF17  DLC: 8  Data: 0x00 0xFF 0xFF 0xFF 0xFF 0xFF 0xFF 0xFF
Extended ID: 0x18FF2617  DLC: 8  Data: 0x00 0x00 0x00 0x00 0xA7 0x01 0xA8 0x03
Extended ID: 0x18FF1F17  DLC: 8  Data: 0x00 0x00 0xFF 0x03 0x00 0x00 0x00 0x00
Extended ID: 0x18F0010B  DLC: 8  Data: 0xC0 0xFF 0xC0 0xFF 0xFF 0x5C 0xFF 0x3F
Extended ID: 0x18FEBF0B  DLC: 8  Data: 0x00 0x00 0x7D 0x7D 0x7D 0x7D 0x7D 0x7D
Extended ID: 0x18FDC40B  DLC: 8  Data: 0x1F 0xFF 0xFF 0xFF 0xFF 0xFF 0xFF 0xFF
Extended ID: 0x18EAFFFE  DLC: 3  Data: 0x00 0xEE 0x00
Extended ID: 0x18EA1C17  DLC: 3  Data: 0xE8 0xFE 0x00
Extended ID: 0x18FEF10B  DLC: 8  Data: 0xFF 0x00 0x00 0xFF 0xFF 0xFF 0xFF 0xFF
Extended ID: 0x18FECA0B  DLC: 8  Data: 0x04 0xFF 0x00 0x00 0x00 0x00 0xFF 0xFF
Extended ID: 0x18EAFF00  DLC: 3  Data: 0xEB 0xFE 0x00
Extended ID: 0x18F0010B  DLC: 8  Data: 0xC0 0xFF 0xC0 0xFF 0xFF 0x5C 0xFF 0x3F
Extended ID: 0x18ECFF17  DLC: 8  Data: 0x20 0x23 0x00 0x05 0xFF 0xEB 0xFE 0x00
Extended ID: 0x18FDC40B  DLC: 8  Data: 0x1F 0xFF 0xFF 0xFF 0xFF 0xFF 0xFF 0xFF
Extended ID: 0x18FEDF00  DLC: 8  Data: 0x7D 0xA0 0x28 0x7D 0x7D 0xFF 0xFF 0xFC
Extended ID: 0x1CECFF0B  DLC: 8  Data: 0x20 0x1B 0x00 0x04 0xFF 0xEB 0xFE 0x00
Extended ID: 0x18FEE900  DLC: 8  Data: 0x77 0x68 0x03 0x00 0x82 0x68 0x03 0x00
Extended ID: 0x0CF00300  DLC: 8  Data: 0xC1 0x00 0x00 0xFF 0xFF 0x0C 0x66 0x7D
Extended ID: 0x18FEDF00  DLC: 8  Data: 0x7D 0xA0 0x28 0x7D 0x7D 0xFF 0xFF 0xF0
Extended ID: 0x18FEDF00  DLC: 8  Data: 0x7D 0xA0 0x28 0x7D 0x7D 0xFF 0xFF 0xF0
Extended ID: 0x18FDC40B  DLC: 8  Data: 0x1F 0xFF 0xFF 0xFF 0xFF 0xFF 0xFF 0xFF
Extended ID: 0x0CF00400  DLC: 8  Data: 0x4E 0x7D 0x7D 0x00 0x00 0x00 0x00 0x7D
Extended ID: 0x0CF00300  DLC: 8  Data: 0xC1 0x00 0x01 0xFF 0xFF 0x0C 0x66 0x7D
Extended ID: 0x18F00E00  DLC: 8  Data: 0xFF 0xFF 0xFF 0xFF 0xFF 0xFF 0xFF 0xFF
Extended ID: 0x18EBFF17  DLC: 8  Data: 0x03 0x2A 0x30 0x31 0x34 0x30 0x35 0x39
Extended ID: 0x0CF00A00  DLC: 8  Data: 0x00 0x00 0x00 0x00 0xFF 0xFF 0xFF 0xFF
Extended ID: 0x18FEDF00  DLC: 8  Data: 0x7D 0xA0 0x28 0x7D 0x7D 0xFF 0xFF 0xF0
Extended ID: 0x18FDC40B  DLC: 8  Data: 0x1F 0xFF 0xFF 0xFF 0xFF 0xFF 0xFF 0xFF
Extended ID: 0x18FE4A03  DLC: 8  Data: 0xFF 0xFF 0xFF 0xFF 0xFF 0xF7 0xFF 0xFF
Extended ID: 0x1CEBFF00  DLC: 8  Data: 0x01 0x00 0x00 0x7D 0x00 0x00 0x7D 0x00
Extended ID: 0x18F00E00  DLC: 8  Data: 0xFF 0xFF 0xFF 0xFF 0xFF 0xFF 0xFF 0xFF
Extended ID: 0x0CF00203  DLC: 8  Data: 0xCE 0x00 0x00 0xFF 0xF0 0x00 0x00 0xFF
Extended ID: 0x0CF00300  DLC: 8  Data: 0xC1 0x00 0x00 0xFF 0xFF 0x0C 0x66 0x7D
Extended ID: 0x0CF00203  DLC: 8  Data: 0xCE 0x00 0x00 0xFF 0xF0 0x00 0x00 0xFF
Extended ID: 0x0CF00400  DLC: 8  Data: 0x4E 0x7D 0x7D 0x00 0x00 0x00 0x0F 0x7D
Extended ID: 0x18FEE000  DLC: 8  Data: 0xB2 0x25 0x2A 0x00 0x9F 0x25 0x2A 0x00
Extended ID: 0x18F00F00  DLC: 8  Data: 0xFF 0xFF 0xFF 0xFF 0xFF 0xFF 0xFF 0xFF
Extended ID: 0x1CEBFF00  DLC: 8  Data: 0x03 0x7D 0xFF 0xFF 0xFF 0xFF 0x0D 0x0C
Extended ID: 0x0CF00203  DLC: 8  Data: 0xCE 0x00 0x00 0xFF 0xF0 0x00 0x00 0xFF
Extended ID: 0x18FEDF00  DLC: 8  Data: 0x7D 0xA0 0x28 0x7D 0x7D 0xFF 0xFF 0xF0
Extended ID: 0x18F0010B  DLC: 8  Data: 0xC0 0xFF 0xC0 0xFF 0xFF 0x5C 0xFF 0x3F
Extended ID: 0x1CEBFF00  DLC: 8  Data: 0x04 0x20 0x4E 0x3C 0x3C 0xFF 0x7D 0x7D
Extended ID: 0x18FEDF00  DLC: 8  Data: 0x7D 0xA0 0x28 0x7D 0x7D 0xFF 0xFF 0xF0
Extended ID: 0x0CF00400  DLC: 8  Data: 0x4E 0x7D 0x7D 0x00 0x00 0x00 0x0F 0x7D
Extended ID: 0x0CF00203  DLC: 8  Data: 0xCE 0x00 0x00 0xFF 0xF0 0x00 0x00 0xFF
Extended ID: 0x18EAFF05  DLC: 3  Data: 0x00 0xEE 0x00
Extended ID: 0x0CF00203  DLC: 8  Data: 0xCE 0x00 0x00 0xFF 0xF0 0x00 0x00 0xFF
Extended ID: 0x18FD9400  DLC: 8  Data: 0x23 0x2B 0xFF 0xFF 0xFF 0xFF 0xFF 0xFF
Extended ID: 0x18FEDF00  DLC: 8  Data: 0x7D 0xA0 0x28 0x7D 0x7D 0xFF 0xFF 0xF0
Extended ID: 0x0CF00203  DLC: 8  Data: 0xCE 0x00 0x00 0xFF 0xF0 0x00 0x00 0xFF
Extended ID: 0x0CF00400  DLC: 8  Data: 0x4E 0x7D 0x7D 0x00 0x00 0x00 0x0F 0x7D
Extended ID: 0x0CF00300  DLC: 8  Data: 0xC1 0x00 0x00 0xFF 0xFF 0x0C 0x66 0x7D
Extended ID: 0x18FEDF00  DLC: 8  Data: 0x7D 0xA0 0x28 0x7D 0x7D 0xFF 0xFF 0xF0
Extended ID: 0x18EAFF03  DLC: 3  Data: 0xEB 0xFE 0x00
Extended ID: 0x0CF00203  DLC: 8  Data: 0xCE 0x00 0x00 0xFF 0xF0 0x00 0x00 0xFF
Extended ID: 0x0CF00203  DLC: 8  Data: 0xCE 0x00 0x00 0xFF 0xF0 0x00 0x00 0xFF
Extended ID: 0x0CF00400  DLC: 8  Data: 0x4E 0x7D 0x7D 0x00 0x00 0x00 0x0F 0x7D
Extended ID: 0x18FEF200  DLC: 8  Data: 0x00 0x00 0x00 0x00 0x2E 0x06 0x00 0xFF
Extended ID: 0x18FEDF00  DLC: 8  Data: 0x7D 0xA0 0x28 0x7D 0x7D 0xFF 0xFF 0xF0
Extended ID: 0x18F00E00  DLC: 8  Data: 0xFF 0xFF 0xFF 0xFF 0xFF 0xFF 0xFF 0xFF
Extended ID: 0x0CF00203  DLC: 8  Data: 0xCE 0x00 0x00 0xFF 0xF0 0x00 0x00 0xFF
Extended ID: 0x1CEBFF00  DLC: 8  Data: 0x02 0x58 0x31 0x75 0x31 0x33 0x44 0x31
Extended ID: 0x18FDB200  DLC: 8  Data: 0xFF 0xFF 0xFF 0xFF 0x00 0x00 0xFF 0xFF
Extended ID: 0x18FEBF0B  DLC: 8  Data: 0x00 0x00 0x7D 0x7D 0x7D 0x7D 0x7D 0x7D
Extended ID: 0x18FEDF00  DLC: 8  Data: 0x7D 0xA0 0x28 0x7D 0x7D 0xFF 0xFF 0xF0
Extended ID: 0x1CEBFF00  DLC: 8  Data: 0x03 0x35 0x30 0x30 0x30 0x30 0x30 0x30
Extended ID: 0x0CF00400  DLC: 8  Data: 0x4E 0x7D 0x7D 0x00 0x00 0x00 0x0F 0x7D
Extended ID: 0x0CF00300  DLC: 8  Data: 0xC1 0x00 0x00 0xFF 0xFF 0x0C 0x66 0x7D
Extended ID: 0x0CF00203  DLC: 8  Data: 0xCE 0x00 0x00 0xFF 0xF0 0x00 0x00 0xFF
Extended ID: 0x1CEBFF00  DLC: 8  Data: 0x04 0x30 0x30 0x2A 0x37 0x39 0x37 0x32
Extended ID: 0x18FEF517  DLC: 8  Data: 0xFF 0xFF 0xFF 0x20 0x1D 0xFF 0xFF 0xFF
Extended ID: 0x18FEDF00  DLC: 8  Data: 0x7D 0xA0 0x28 0x7D 0x7D 0xFF 0xFF 0xF0
Extended ID: 0x18FEE600  DLC: 8  Data: 0x3C 0x1C 0x06 0x03 0x2E 0x88 0xFF 0xFF
Extended ID: 0x1CEBFF0B  DLC: 8  Data: 0x02 0x43 0x36 0x30 0x2D 0x70 0x72 0x65
Extended ID: 0x18FEF100  DLC: 8  Data: 0xFF 0x00 0x00 0xFC 0x33 0x00 0x1F 0xCF
Extended ID: 0x18FEF700  DLC: 8  Data: 0xFF 0xFF 0xFF 0xFF 0xFD 0x00 0xFF 0xFF
Extended ID: 0x0CF00203  DLC: 8  Data: 0xCE 0x00 0x00 0xFF 0xF0 0x00 0x00 0xFF
Extended ID: 0x0CF00300  DLC: 8  Data: 0xC1 0x00 0x00 0xFF 0xFF 0x0C 0x66 0x7D
Extended ID: 0x18FEDF00  DLC: 8  Data: 0x7D 0xA0 0x28 0x7D 0x7D 0xFF 0xFF 0xF0
Extended ID: 0x0CF00400  DLC: 8  Data: 0x4E 0x7D 0x7D 0x00 0x00 0x00 0x0F 0x7D
Extended ID: 0x0CF00203  DLC: 8  Data: 0xCE 0x00 0x00 0xFF 0xF0 0x00 0x00 0xFF
Extended ID: 0x18FEDF00  DLC: 8  Data: 0x7D 0xA0 0x28 0x7D 0x7D 0xFF 0xFF 0xF0
Extended ID: 0x0CF00400  DLC: 8  Data: 0x4E 0x7D 0x7D 0x00 0x00 0x00 0x0F 0x7D
Extended ID: 0x18F00F00  DLC: 8  Data: 0xFF 0xFF 0xFF 0xFF 0xFF 0xFF 0xFF 0xFF
Extended ID: 0x18FEDF00  DLC: 8  Data: 0x7D 0xA0 0x28 0x7D 0x7D 0xFF 0xFF 0xF0
Extended ID: 0x0CF00203  DLC: 8  Data: 0xCE 0x00 0x00 0xFF 0xF0 0x00 0x00 0xFF
Extended ID: 0x18FECA03  DLC: 8  Data: 0x00 0xFF 0x00 0x00 0x00 0x00 0xFF 0xFF
Extended ID: 0x18FEDF00  DLC: 8  Data: 0x7D 0xA0 0x28 0x7D 0x7D 0xFF 0xFF 0xF0
Extended ID: 0x0CF00203  DLC: 8  Data: 0xCE 0x00 0x00 0xFF 0xF0 0x00 0x00 0xFF
Extended ID: 0x10FDA300  DLC: 8  Data: 0xFF 0xFF 0x7D 0xFF 0xFF 0xFF 0xFF 0xFF
Extended ID: 0x0CF00203  DLC: 8  Data: 0xCE 0x00 0x00 0xFF 0xF0 0x00 0x00 0xFF
Extended ID: 0x18FEDF00  DLC: 8  Data: 0x7D 0xA0 0x28 0x7D 0x7D 0xFF 0xFF 0xF0
Extended ID: 0x0CF00400  DLC: 8  Data: 0x4E 0x7D 0x7D 0x00 0x00 0x00 0x0F 0x7D
Extended ID: 0x0CF00203  DLC: 8  Data: 0xCE 0x00 0x00 0xFF 0xF0 0x00 0x00 0xFF
Extended ID: 0x18FEDF00  DLC: 8  Data: 0x7D 0xA0 0x28 0x7D 0x7D 0xFF 0xFF 0xF0
Extended ID: 0x0CF00400  DLC: 8  Data: 0x4E 0x7D 0x7D 0x00 0x00 0x00 0x0F 0x7D
Extended ID: 0x0CF00203  DLC: 8  Data: 0xCE 0x00 0x00 0xFF 0xF0 0x00 0x00 0xFF
Extended ID: 0x18FF4003  DLC: 8  Data: 0xC1 0xFF 0xFF 0xFB 0xE8 0x03 0xFF 0xFF
Extended ID: 0x18FDB200  DLC: 8  Data: 0xFF 0xFF 0xFF 0xFF 0x00 0x00 0xFF 0xFF
Extended ID: 0x0CF00203  DLC: 8  Data: 0xCE 0x00 0x00 0xFF 0xF0 0x00 0x00 0xFF
Extended ID: 0x18FF4003  DLC: 8  Data: 0xC1 0xFF 0xFF 0xFB 0xE8 0x03 0xFF 0xFF
Extended ID: 0x18FEF000  DLC: 8  Data: 0xFF 0xFF 0xFF 0xFF 0xFF 0xFF 0xFF 0xFF
Extended ID: 0x0CF00203  DLC: 8  Data: 0xCE 0x00 0x00 0xFF 0xF0 0x00 0x00 0xFF
Extended ID: 0x14FD3E00  DLC: 8  Data: 0xA6 0x27 0xFF 0x23 0x25 0xFF 0xFF 0xFF
Extended ID: 0x0CF00203  DLC: 8  Data: 0xCE 0x00 0x00 0xFF 0xF0 0x00 0x00 0xFF
Extended ID: 0x0CF00400  DLC: 8  Data: 0x4E 0x7D 0x7D 0x00 0x00 0x00 0x0F 0x7D
Extended ID: 0x18FF2617  DLC: 8  Data: 0x01 0x00 0x00 0x00 0xFE 0x03 0xAD 0x03
Extended ID: 0x18FEDF00  DLC: 8  Data: 0x7D 0xA0 0x28 0x7D 0x7D 0xFF 0xFF 0xF0
Extended ID: 0x0CF00400  DLC: 8  Data: 0x4E 0x7D 0x7D 0x00 0x00 0x00 0x0F 0x7D
Extended ID: 0x0CF00203  DLC: 8  Data: 0xCE 0x00 0x00 0xFF 0xF0 0x00 0x00 0xFF
Extended ID: 0x18FEF10B  DLC: 8  Data: 0xFF 0x00 0x00 0xFF 0xFF 0xFF 0xFF 0xFF
Extended ID: 0x18FEF600  DLC: 8  Data: 0xFF 0x00 0x50 0xFF 0xFF 0xFF 0xFF 0xFF
Extended ID: 0x18F00F00  DLC: 8  Data: 0xFF 0xFF 0xFF 0xFF 0xFF 0xFF 0xFF 0xFF
Extended ID: 0x1CEBFF0F  DLC: 8  Data: 0x01 0x03 0x00 0xC0 0x12 0x61 0x80 0x25
Extended ID: 0x18F0000F  DLC: 8  Data: 0xF0 0x7D 0x7D 0xFF 0x0F 0xFF 0xFF 0x7D
Extended ID: 0x0CF00C03  DLC: 8  Data: 0xFF 0xFF 0x00 0x00 0xFF 0xFF 0xFF 0xFF
Extended ID: 0x0CF00300  DLC: 8  Data: 0xD1 0x00 0x00 0xFF 0xFF 0x0C 0x66 0x7D
Extended ID: 0x0CF00203  DLC: 8  Data: 0xCE 0x00 0x00 0xFF 0xF0 0x00 0x00 0xFF
Extended ID: 0x0CF00400  DLC: 8  Data: 0x4E 0x7D 0x7D 0x00 0x00 0x00 0x0F 0x7D
Extended ID: 0x1CFE9200  DLC: 8  Data: 0xFF 0xA4 0x7D 0xFF 0xFF 0xFF 0x00 0x00
Extended ID: 0x0CF00203  DLC: 8  Data: 0xCE 0x00 0x00 0xFF 0xF0 0x00 0x00 0xFF
Extended ID: 0x18FEBF0B  DLC: 8  Data: 0x00 0x00 0x7D 0x7D 0x7D 0x7D 0x7D 0x7D
Extended ID: 0x18FE4A03  DLC: 8  Data: 0xFF 0xFF 0xFF 0x7D 0xFF 0xF3 0xFF 0xFF
Extended ID: 0x18FF4003  DLC: 8  Data: 0xC1 0xFF 0xFF 0xFB 0xE8 0x03 0xFF 0xFF
Extended ID: 0x18F00E00  DLC: 8  Data: 0xFF 0xFF 0xFF 0xFF 0xFF 0xFF 0xFF 0xFF
Extended ID: 0x0CF00203  DLC: 8  Data: 0xCE 0x00 0x00 0xFF 0xF0 0x00 0x00 0xFF
Extended ID: 0x18FF4003  DLC: 8  Data: 0xC1 0xFF 0xFF 0xFB 0xE8 0x03 0xFF 0xFF
Extended ID: 0x18FD0517  DLC: 8  Data: 0xFF 0xFF 0xFF 0xFF 0xFF 0xFF 0xFF 0xFF
Extended ID: 0x18F00E00  DLC: 8  Data: 0xFF 0xFF 0xFF 0xFF 0xFF 0xFF 0xFF 0xFF
Extended ID: 0x18FEE000  DLC: 8  Data: 0xB2 0x25 0x2A 0x00 0x9F 0x25 0x2A 0x00
Extended ID: 0x18F00F00  DLC: 8  Data: 0xFF 0xFF 0xFF 0xFF 0xFF 0xFF 0xFF 0xFF
Extended ID: 0x0CF00400  DLC: 8  Data: 0x4E 0x7D 0x7D 0x00 0x00 0x00 0x0F 0x7D
Extended ID: 0x0CF00300  DLC: 8  Data: 0xD1 0x00 0x00 0xFF 0xFF 0x0C 0x66 0x7D
Extended ID: 0x0CF00203  DLC: 8  Data: 0xCE 0x00 0x00 0xFF 0xF0 0x00 0x00 0xFF
Extended ID: 0x0CF00400  DLC: 8  Data: 0x4E 0x7D 0x7D 0x00 0x00 0x00 0x0F 0x7D
Extended ID: 0x0CF00203  DLC: 8  Data: 0xCE 0x00 0x00 0xFF 0xF0 0x00 0x00 0xFF
Extended ID: 0x18FEDF00  DLC: 8  Data: 0x7D 0xA0 0x28 0x7D 0x7D 0xFF 0xFF 0xF0
Extended ID: 0x0CF00203  DLC: 8  Data: 0xCE 0x00 0x00 0xFF 0xF0 0x00 0x00 0xFF
Extended ID: 0x18F00100  DLC: 8  Data: 0xFF 0xFF 0xFF 0xFF 0xFF 0xFF 0xFF 0xFF
Extended ID: 0x18FEF100  DLC: 8  Data: 0xFF 0x00 0x00 0xFC 0x33 0x00 0x1F 0xCF
Extended ID: 0x0CF00203  DLC: 8  Data: 0xCE 0x00 0x00 0xFF 0xF0 0x00 0x00 0xFF
Extended ID: 0x0CF00400  DLC: 8  Data: 0x4E 0x7D 0x7D 0x00 0x00 0x00 0x0F 0x7D
Extended ID: 0x18FC9600  DLC: 8  Data: 0x0B 0x00 0xFF 0xFF 0xFF 0xFF 0xFF 0xFF
Extended ID: 0x18FEDF00  DLC: 8  Data: 0x7D 0xA0 0x28 0x7D 0x7D 0xFF 0xFF 0xF0
Extended ID: 0x0CF00400  DLC: 8  Data: 0x4E 0x7D 0x7D 0x00 0x00 0x00 0x0F 0x7D
Extended ID: 0x0CF00203  DLC: 8  Data: 0xCE 0x00 0x00 0xFF 0xF0 0x00 0x00 0xFF
Extended ID: 0x10F03300  DLC: 8  Data: 0xD0 0x07 0xFF 0xFF 0xFF 0xFF 0xFF 0xFF
Extended ID: 0x0CF00400  DLC: 8  Data: 0x4E 0x7D 0x7D 0x00 0x00 0x00 0x0F 0x7D
Extended ID: 0x18F00F00  DLC: 8  Data: 0xFF 0xFF 0xFF 0xFF 0xFF 0xFF 0xFF 0xFF
Extended ID: 0x18FF4003  DLC: 8  Data: 0xC1 0xFF 0xFF 0xFB 0xE8 0x03 0xFF 0xFF
Extended ID: 0x18FEBF0B  DLC: 8  Data: 0x00 0x00 0x7D 0x7D 0x7D 0x7D 0x7D 0x7D
Extended ID: 0x18FE4A03  DLC: 8  Data: 0xFF 0xFF 0xFF 0x7D 0xFF 0xF3 0xFF 0xFF
Extended ID: 0x18FF4003  DLC: 8  Data: 0xC1 0xFF 0xFF 0xFB 0xE8 0x03 0xFF 0xFF
Extended ID: 0x18F00E00  DLC: 8  Data: 0xFF 0xFF 0xFF 0xFF 0xFF 0xFF 0xFF 0xFF
Extended ID: 0x0CF00400  DLC: 8  Data: 0x4E 0x7D 0x7D 0x00 0x00 0x00 0x0F 0x7D
Extended ID: 0x0CF00300  DLC: 8  Data: 0xD1 0x00 0x01 0xFF 0xFF 0x0C 0x66 0x7D
Extended ID: 0x0CF00203  DLC: 8  Data: 0xCE 0x00 0x00 0xFF 0xF0 0x00 0x00 0xFF
Extended ID: 0x18FEEE00  DLC: 8  Data: 0x5D 0x28 0xA3 0x28 0xFF 0xFF 0xFF 0xFF
Extended ID: 0x18FF4003  DLC: 8  Data: 0xC1 0xFF 0xFF 0xFB 0xE8 0x03 0xFF 0xFF
Extended ID: 0x18F00F00  DLC: 8  Data: 0xFF 0xFF 0xFF 0xFF 0xFF 0xFF 0xFF 0xFF
Extended ID: 0x18F00100  DLC: 8  Data: 0xFF 0xFF 0xFF 0xFF 0xFF 0xFF 0xFF 0xFF
Extended ID: 0x18FEF10B  DLC: 8  Data: 0xFF 0x00 0x00 0xFF 0xFF 0xFF 0xFF 0xFF
Extended ID: 0x18FEDF00  DLC: 8  Data: 0x7D 0xA0 0x28 0x7D 0x7D 0xFF 0xFF 0xF0
Extended ID: 0x0CF00400  DLC: 8  Data: 0x4E 0x7D 0x7D 0x00 0x00 0x00 0x0F 0x7D
Extended ID: 0x18F0010B  DLC: 8  Data: 0xC0 0xFF 0xC0 0xFF 0xFF 0x5C 0xFF 0x3F
Extended ID: 0x18FEDF00  DLC: 8  Data: 0x7D 0xA0 0x28 0x7D 0x7D 0xFF 0xFF 0xF0
Extended ID: 0x0CF00A00  DLC: 8  Data: 0x00 0x00 0x00 0x00 0xFF 0xFF 0xFF 0xFF
Extended ID: 0x0CF00400  DLC: 8  Data: 0x4E 0x7D 0x7D 0x00 0x00 0x00 0x0F 0x7D
Extended ID: 0x0CF00300  DLC: 8  Data: 0xD1 0x00 0x00 0xFF 0xFF 0x0C 0x66 0x7D
Extended ID: 0x0C000F03  DLC: 8  Data: 0xC2 0xFF 0xFF 0x7D 0xFF 0xFF 0xFF 0x40
Extended ID: 0x0CF00400  DLC: 8  Data: 0x4E 0x7D 0x7D 0x00 0x00 0x03 0x0F 0x7D
Extended ID: 0x18FC9600  DLC: 8  Data: 0x0A 0x00 0xFF 0xFF 0xFF 0xFF 0xFF 0xFF
Extended ID: 0x18FEBF0B  DLC: 8  Data: 0x00 0x00 0x7D 0x7D 0x7D 0x7D 0x7D 0x7D
Extended ID: 0x0CF00A00  DLC: 8  Data: 0x00 0x00 0x00 0x00 0xFF 0xFF 0xFF 0xFF
Extended ID: 0x0CF00203  DLC: 8  Data: 0xDF 0x00 0x00 0xFF 0xF0 0x00 0x00 0xFF
Extended ID: 0x18FF4003  DLC: 8  Data: 0xC1 0xFF 0xFF 0xFB 0xE8 0x03 0xFF 0xFF
Extended ID: 0x0CF00400  DLC: 8  Data: 0x4E 0x7D 0x7D 0x00 0x00 0x03 0x0F 0x7D
Extended ID: 0x18F00F00  DLC: 8  Data: 0xFF 0xFF 0xFF 0xFF 0xFF 0xFF 0xFF 0xFF
Extended ID: 0x18FF4003  DLC: 8  Data: 0xC1 0xFF 0xFF 0xFB 0xE8 0x03 0xFF 0xFF
Extended ID: 0x10FCFD00  DLC: 8  Data: 0xFF 0xFF 0xFF 0xFF 0xC3 0x40 0xFF 0xFF
Extended ID: 0x0CF00400  DLC: 8  Data: 0x4E 0x7D 0x7D 0x00 0x00 0x03 0x0F 0x7D
Extended ID: 0x0CF00300  DLC: 8  Data: 0xD1 0x00 0x00 0xFF 0xFF 0x0C 0x66 0x7D
Extended ID: 0x0CF00203  DLC: 8  Data: 0xDF 0x00 0x00 0xFF 0xF0 0x00 0x00 0xFF
Extended ID: 0x18FCF200  DLC: 8  Data: 0x00 0xFF 0xFF 0xFF 0xFF 0xFF 0xFF 0xFF
Extended ID: 0x18FF4003  DLC: 8  Data: 0xC1 0xFF 0xFF 0xFB 0xE8 0x03 0xFF 0xFF
Extended ID: 0x0CF00203  DLC: 8  Data: 0xDF 0x00 0x00 0xFF 0xF0 0x00 0x00 0xFF
Extended ID: 0x1CEBFF00  DLC: 8  Data: 0x02 0x0D 0x04 0x01 0x18 0x11 0x03 0x02
Extended ID: 0x0C000F03  DLC: 8  Data: 0xC2 0xFF 0xFF 0x7D 0xFF 0xFF 0xFF 0x15
Extended ID: 0x18FEDF00  DLC: 8  Data: 0x7D 0xA0 0x28 0x7D 0x7D 0xFF 0xFF 0xF0
Extended ID: 0x0CF00400  DLC: 8  Data: 0x4E 0x7D 0x7D 0x00 0x00 0x03 0x0F 0x7D
Extended ID: 0x1CEBFF00  DLC: 8  Data: 0x03 0x21 0x0D 0x02 0x01 0x60 0x00 0x09
Extended ID: 0x18FEDF00  DLC: 8  Data: 0x7D 0xA0 0x28 0x7D 0x7D 0xFF 0xFF 0xF0
Extended ID: 0x0C010305  DLC: 8  Data: 0xFF 0xFF 0x7D 0xFF 0xFF 0xFF 0xFF 0xFF
Extended ID: 0x10F03300  DLC: 8  Data: 0xD0 0x07 0xFF 0xFF 0xFF 0xFF 0xFF 0xFF
Extended ID: 0x18FEF200  DLC: 8  Data: 0x00 0x00 0x00 0x00 0x2E 0x06 0x00 0xFF
Extended ID: 0x0CF00203  DLC: 8  Data: 0xDF 0x00 0x00 0xFF 0xF0 0x00 0x00 0xFF
Extended ID: 0x0CF00400  DLC: 8  Data: 0x4E 0x7D 0x7D 0x00 0x00 0x03 0x0F 0x7D
Extended ID: 0x0CF00300  DLC: 8  Data: 0xD1 0x00 0x00 0xFF 0xFF 0x0C 0x66 0x7D
Extended ID: 0x0C000F03  DLC: 8  Data: 0xC2 0xFF 0xFF 0x7D 0xFF 0xFF 0xFF 0x40
Extended ID: 0x18FD0517  DLC: 8  Data: 0xFF 0xFF 0xFF 0xFF 0xFF 0xFF 0xFF 0xFF
Extended ID: 0x0CF00203  DLC: 8  Data: 0xDF 0x00 0x00 0xFF 0xF0 0x00 0x00 0xFF
Extended ID: 0x18FF4003  DLC: 8  Data: 0xC1 0xFF 0xFF 0xFB 0xE8 0x03 0xFF 0xFF
Extended ID: 0x14FC9800  DLC: 8  Data: 0xFF 0x00 0x00 0x00 0x00 0x00 0x00 0xFF
Extended ID: 0x0CF00203  DLC: 8  Data: 0xDF 0x00 0x00 0xFF 0xF0 0x00 0x00 0xFF
Extended ID: 0x18FF4003  DLC: 8  Data: 0xC1 0xFF 0xFF 0xFB 0xE8 0x03 0xFF 0xFF
Extended ID: 0x0C000F03  DLC: 8  Data: 0xC2 0xFF 0xFF 0x7D 0xFF 0xFF 0xFF 0x62
Extended ID: 0x18FD9400  DLC: 8  Data: 0x00 0x00 0xFF 0xFF 0xFF 0xFF 0xFF 0xFF
Extended ID: 0x18FF4003  DLC: 8  Data: 0xC1 0xFF 0xFF 0xFB 0xE8 0x03 0xFF 0xFF
Extended ID: 0x0CF00203  DLC: 8  Data: 0xCF 0x00 0x00 0xFF 0xF0 0x00 0x00 0xFF
Extended ID: 0x18FF5400  DLC: 8  Data: 0x64 0x7D 0xFF 0xFF 0xFF 0xFF 0xFF 0xFF
Extended ID: 0x18FF4003  DLC: 8  Data: 0xC1 0xFF 0xFF 0xFB 0xE8 0x03 0xFF 0xFF
Extended ID: 0x0CF00203  DLC: 8  Data: 0xCF 0x00 0x00 0xFF 0xF0 0x00 0x00 0xFF
Extended ID: 0x0CF00400  DLC: 8  Data: 0x4E 0x7D 0x7D 0x00 0x00 0x00 0x0F 0x7D
Extended ID: 0x0CF00203  DLC: 8  Data: 0xCF 0x00 0x00 0xFF 0xF0 0x00 0x00 0xFF
Extended ID: 0x18FEDF00  DLC: 8  Data: 0x7D 0xA0 0x28 0x7D 0x7D 0xFF 0xFF 0xF0
Extended ID: 0x18F0010B  DLC: 8  Data: 0xC0 0xFF 0xC0 0xFF 0xFF 0x5C 0xFF 0x3F
Extended ID: 0x0CF00203  DLC: 8  Data: 0xCF 0x00 0x00 0xFF 0xF0 0x00 0x00 0xFF
Extended ID: 0x18FEDF00  DLC: 8  Data: 0x7D 0xA0 0x28 0x7D 0x7D 0xFF 0xFF 0xF0
Extended ID: 0x0CF00203  DLC: 8  Data: 0xCF 0x00 0x00 0xFF 0xF0 0x00 0x00 0xFF
Extended ID: 0x10FDA300  DLC: 8  Data: 0xFF 0xFF 0x3F 0xFF 0xFF 0xFF 0xFF 0xFF
Extended ID: 0x18FEDF00  DLC: 8  Data: 0x7D 0xA0 0x28 0x7D 0x7D 0xFF 0xFF 0xF0
Extended ID: 0x0CF00203  DLC: 8  Data: 0xCF 0x00 0x00 0xFF 0xF0 0x00 0x00 0xFF
Extended ID: 0x10F03300  DLC: 8  Data: 0xD0 0x07 0xFF 0xFF 0xFF 0xFF 0xFF 0xFF
Extended ID: 0x18FEE000  DLC: 8  Data: 0xB2 0x25 0x2A 0x00 0x9F 0x25 0x2A 0x00
Extended ID: 0x18F00F00  DLC: 8  Data: 0xFF 0xFF 0xFF 0xFF 0xFF 0xFF 0xFF 0xFF
Extended ID: 0x0CF00400  DLC: 8  Data: 0x4E 0x7D 0x7D 0x00 0x00 0x00 0x0F 0x7D
Extended ID: 0x0CF00203  DLC: 8  Data: 0xCF 0x00 0x00 0xFF 0xF0 0x00 0x00 0xFF
Extended ID: 0x18FF4003  DLC: 8  Data: 0xC1 0xFF 0xFF 0xFB 0xE8 0x03 0xFF 0xFF
Extended ID: 0x0C010305  DLC: 8  Data: 0xFF 0xFF 0x7D 0xFF 0xFF 0xFF 0xFF 0xFF
Extended ID: 0x18F00E00  DLC: 8  Data: 0xFF 0xFF 0xFF 0xFF 0xFF 0xFF 0xFF 0xFF
Extended ID: 0x18FF4003  DLC: 8  Data: 0xC1 0xFF 0xFF 0xFB 0xE8 0x03 0xFF 0xFF
Extended ID: 0x18F00F00  DLC: 8  Data: 0xFF 0xFF 0xFF 0xFF 0xFF 0xFF 0xFF 0xFF
Extended ID: 0x0CF00400  DLC: 8  Data: 0x4E 0x7D 0x7D 0x00 0x00 0x00 0x0F 0x7D
Extended ID: 0x18FF4003  DLC: 8  Data: 0xC1 0xFF 0xFF 0xFB 0xE8 0x03 0xFF 0xFF
Extended ID: 0x0CF00203  DLC: 8  Data: 0xCF 0x00 0x00 0xFF 0xF0 0x00 0x00 0xFF
Extended ID: 0x0CF00400  DLC: 8  Data: 0x4E 0x7D 0x7D 0x00 0x00 0x00 0x0F 0x7D
Extended ID: 0x18FF4003  DLC: 8  Data: 0xC1 0xFF 0xFF 0xFB 0xE8 0x03 0xFF 0xFF
Extended ID: 0x18FEDF00  DLC: 8  Data: 0x7D 0xA0 0x28 0x7D 0x7D 0xFF 0xFF 0xF0
Extended ID: 0x18FDC40B  DLC: 8  Data: 0x1F 0xFF 0xFF 0xFF 0xFF 0xFF 0xFF 0xFF
Extended ID: 0x0CF00203  DLC: 8  Data: 0xCF 0x00 0x00 0xFF 0xF0 0x00 0x00 0xFF
Extended ID: 0x18FEDF00  DLC: 8  Data: 0x7D 0xA0 0x28 0x7D 0x7D 0xFF 0xFF 0xF0
Extended ID: 0x18FEF10B  DLC: 8  Data: 0xFF 0x00 0x00 0xCF 0xFF 0xFF 0xFF 0xFF
Extended ID: 0x18F00F00  DLC: 8  Data: 0xFF 0xFF 0xFF 0xFF 0xFF 0xFF 0xFF 0xFF
Extended ID: 0x18FEDF00  DLC: 8  Data: 0x7D 0xA0 0x28 0x7D 0x7D 0xFF 0xFF 0xF0
Extended ID: 0x18F0000F  DLC: 8  Data: 0xF0 0x7D 0x7D 0xFF 0x0F 0xFF 0xFF 0x7D
Extended ID: 0x0CF00C03  DLC: 8  Data: 0xFF 0xFF 0x00 0x00 0xFF 0xFF 0xFF 0xFF
Extended ID: 0x18FEDF00  DLC: 8  Data: 0x7D 0xA0 0x28 0x7D 0x7D 0xFF 0xFF 0xF0
Extended ID: 0x0CF00203  DLC: 8  Data: 0xCF 0x00 0x00 0xFF 0xF0 0x00 0x00 0xFF
Extended ID: 0x18FCF200  DLC: 8  Data: 0x00 0xFF 0xFF 0xFF 0xFF 0xFF 0xFF 0xFF
Extended ID: 0x18FEDF00  DLC: 8  Data: 0x7D 0xA0 0x28 0x7D 0x7D 0xFF 0xFF 0xF0
Extended ID: 0x18FEDF00  DLC: 8  Data: 0x7D 0xA0 0x28 0x7D 0x7D 0xFF 0xFF 0xF0
Extended ID: 0x0CF00400  DLC: 8  Data: 0x4E 0x7D 0x7D 0x00 0x00 0x00 0x0F 0x7D
Extended ID: 0x18FE4A03  DLC: 8  Data: 0xFF 0xDD 0xFF 0x7D 0xFF 0xF3 0xFF 0xFF
Extended ID: 0x18FF4003  DLC: 8  Data: 0xC1 0xFF 0xFF 0xFB 0xE8 0x03 0xFF 0xFF
Extended ID: 0x18FEDB00  DLC: 8  Data: 0xFF 0xFF 0x26 0x2D 0xFF 0xFF 0xFF 0xFF
Extended ID: 0x0CF00203  DLC: 8  Data: 0xCF 0x00 0x00 0xFF 0xF0 0x00 0x00 0xFF
Extended ID: 0x18FF4003  DLC: 8  Data: 0xC1 0xFF 0xFF 0xFB 0xE8 0x03 0xFF 0xFF
Extended ID: 0x0CF00203  DLC: 8  Data: 0xCF 0x00 0x00 0xFF 0xF0 0x00 0x00 0xFF
Extended ID: 0x10F03300  DLC: 8  Data: 0xD0 0x07 0xFF 0xFF 0xFF 0xFF 0xFF 0xFF
Extended ID: 0x18FF4003  DLC: 8  Data: 0xC1 0xFF 0xFF 0xFB 0xE8 0x03 0xFF 0xFF
Extended ID: 0x18F00F00  DLC: 8  Data: 0xFF 0xFF 0xFF 0xFF 0xFF 0xFF 0xFF 0xFF
Extended ID: 0x18FF5400  DLC: 8  Data: 0x64 0x7D 0xFF 0xFF 0xFF 0xFF 0xFF 0xFF
Extended ID: 0x18FF4003  DLC: 8  Data: 0xC1 0xFF 0xFF 0xFB 0xE8 0x03 0xFF 0xFF
Extended ID: 0x18FEDF00  DLC: 8  Data: 0x7D 0xA0 0x28 0x7D 0x7D 0xFF 0xFF 0xF0
Extended ID: 0x0CF00400  DLC: 8  Data: 0x4E 0x7D 0x7D 0x00 0x00 0x00 0x0F 0x7D
Extended ID: 0x18F00E00  DLC: 8  Data: 0xFF 0xFF 0xFF 0xFF 0xFF 0xFF 0xFF 0xFF
Extended ID: 0x18F0010B  DLC: 8  Data: 0xC0 0xFF 0xC0 0xFF 0xFF 0x4D 0xFF 0x3F
Extended ID: 0x0CF00400  DLC: 8  Data: 0x4E 0x7D 0x7D 0x00 0x00 0x00 0x0F 0x7D
Extended ID: 0x0CF00203  DLC: 8  Data: 0xCF 0x00 0x00 0xFF 0xF0 0x00 0x00 0xFF
Extended ID: 0x18FEF100  DLC: 8  Data: 0xFF 0x00 0x00 0xFC 0x33 0x00 0x1F 0xCF
Extended ID: 0x0CF00203  DLC: 8  Data: 0xCF 0x00 0x00 0xFF 0xF0 0x00 0x00 0xFF
Extended ID: 0x18F00F00  DLC: 8  Data: 0xFF 0xFF 0xFF 0xFF 0xFF 0xFF 0xFF 0xFF
Extended ID: 0x18FEDF00  DLC: 8  Data: 0x7D 0xA0 0x28 0x7D 0x7D 0xFF 0xFF 0xF0
Extended ID: 0x0CF00203  DLC: 8  Data: 0xCF 0x00 0x00 0xFF 0xF0 0x00 0x00 0xFF
Extended ID: 0x0CF00C03  DLC: 8  Data: 0xFF 0xFF 0x00 0x00 0xFF 0xFF 0xFF 0xFF
Extended ID: 0x18FEDF00  DLC: 8  Data: 0x7D 0xA0 0x28 0x7D 0x7D 0xFF 0xFF 0xF0
Extended ID: 0x0CF00203  DLC: 8  Data: 0xCF 0x00 0x00 0xFF 0xF0 0x00 0x00 0xFF
Extended ID: 0x0CF00400  DLC: 8  Data: 0x4E 0x7D 0x7D 0x00 0x00 0x00 0x0F 0x7D
Extended ID: 0x0CF00203  DLC: 8  Data: 0xCF 0x00 0x00 0xFF 0xF0 0x00 0x00 0xFF
Extended ID: 0x18EA0017  DLC: 3  Data: 0xDC 0xFE 0x00
Extended ID: 0x0CF00400  DLC: 8  Data: 0x4E 0x7D 0x7D 0x00 0x00 0x00 0x0F 0x7D
Extended ID: 0x18FEF200  DLC: 8  Data: 0x00 0x00 0x00 0x00 0x2F 0x06 0x00 0xFF
Extended ID: 0x18FD2000  DLC: 8  Data: 0x86 0x25 0xFF 0xFF 0xFF 0xFF 0xFF 0xFF
Extended ID: 0x0CF00203  DLC: 8  Data: 0xCF 0x00 0x00 0xFF 0xF0 0x00 0x00 0xFF
Extended ID: 0x18FF5400  DLC: 8  Data: 0x64 0x7D 0xFF 0xFF 0xFF 0xFF 0xFF 0xFF
Extended ID: 0x18FF4003  DLC: 8  Data: 0xC1 0xFF 0xFF 0xFB 0xE8 0x03 0xFF 0xFF
Extended ID: 0x18EBFF17  DLC: 8  Data: 0x02 0x00 0x03 0x7F 0xFF 0xFF 0xFF 0xFF
Extended ID: 0x18FF5400  DLC: 8  Data: 0x64 0x7D 0xFF 0xFF 0xFF 0xFF 0xFF 0xFF
Extended ID: 0x18FF4003  DLC: 8  Data: 0xC1 0xFF 0xFF 0xFB 0xE8 0x03 0xFF 0xFF
Extended ID: 0x18FDC40B  DLC: 8  Data: 0xDF 0xFF 0xFF 0xFF 0xFF 0xFF 0xFF 0xFF
Extended ID: 0x0CF00400  DLC: 8  Data: 0x4E 0x7D 0x7D 0x00 0x00 0x00 0x0F 0x7D
Extended ID: 0x0CF00203  DLC: 8  Data: 0xCF 0x00 0x00 0xFF 0xF0 0x00 0x00 0xFF
Extended ID: 0x18FEF10B  DLC: 8  Data: 0xFF 0x00 0x00 0xCF 0xFF 0xFF 0xFF 0xFF
Extended ID: 0x0CF00400  DLC: 8  Data: 0x4E 0x7D 0x7D 0x00 0x00 0x00 0x0F 0x7D
Extended ID: 0x0CF00203  DLC: 8  Data: 0xCF 0x00 0x00 0xFF 0xF0 0x00 0x00 0xFF
Extended ID: 0x18FEDF00  DLC: 8  Data: 0x7D 0xA0 0x28 0x7D 0x7D 0xFF 0xFF 0xF0
Extended ID: 0x18FEF000  DLC: 8  Data: 0xFF 0xFF 0xFF 0xFF 0xFF 0xFF 0xFF 0xFF
Extended ID: 0x0CF00203  DLC: 8  Data: 0xCF 0x00 0x00 0xFF 0xF0 0x00 0x00 0xFF
Extended ID: 0x18FEF100  DLC: 8  Data: 0xFF 0x00 0x00 0xFC 0x33 0x00 0x1F 0xCF
Extended ID: 0x0CF00203  DLC: 8  Data: 0xCF 0x00 0x00 0xFF 0xF0 0x00 0x00 0xFF
Extended ID: 0x18F00F00  DLC: 8  Data: 0xFF 0xFF 0xFF 0xFF 0xFF 0xFF 0xFF 0xFF
Extended ID: 0x18FEDF00  DLC: 8  Data: 0x7D 0xA0 0x28 0x7D 0x7D 0xFF 0xFF 0xF0
Extended ID: 0x0CF00203  DLC: 8  Data: 0xCF 0x00 0x00 0xFF 0xF0 0x00 0x00 0xFF
Extended ID: 0x0CF00400  DLC: 8  Data: 0x4E 0x7D 0x7D 0x00 0x00 0x00 0x0F 0x7D
Extended ID: 0x0CF00300  DLC: 8  Data: 0xD1 0x00 0x01 0xFF 0xFF 0x0C 0x66 0x7D
Extended ID: 0x18EA0017  DLC: 3  Data: 0xE9 0xFE 0x00
Extended ID: 0x0CF00400  DLC: 8  Data: 0x4E 0x7D 0x7D 0x00 0x00 0x00 0x0F 0x7D
Extended ID: 0x18FEF10B  DLC: 8  Data: 0xFF 0x00 0x00 0xCF 0xFF 0xFF 0xFF 0xFF
Extended ID: 0x0CF00203  DLC: 8  Data: 0xCF 0x00 0x00 0xFF 0xF0 0x00 0x00 0xFF
Extended ID: 0x0CF00400  DLC: 8  Data: 0x4E 0x7D 0x7D 0x00 0x00 0x00 0x0F 0x7D
Extended ID: 0x18FE4A03  DLC: 8  Data: 0xFF 0xDD 0xFF 0x7D 0xFF 0xF3 0xFF 0xFF
Extended ID: 0x18FF4003  DLC: 8  Data: 0xC1 0xFF 0xFF 0xFB 0xE8 0x03 0xFF 0xFF
Extended ID: 0x18F00E00  DLC: 8  Data: 0xFF 0xFF 0xFF 0xFF 0xFF 0xFF 0xFF 0xFF
Extended ID: 0x0CF00203  DLC: 8  Data: 0xCF 0x00 0x00 0xFF 0xF0 0x00 0x00 0xFF
Extended ID: 0x18FEF10B  DLC: 8  Data: 0xFF 0x00 0x00 0xCF 0xFF 0xFF 0xFF 0xFF
Extended ID: 0x0CF00203  DLC: 8  Data: 0xCF 0x00 0x00 0xFF 0xF0 0x00 0x00 0xFF
Extended ID: 0x10F03300  DLC: 8  Data: 0xD0 0x07 0xFF 0xFF 0xFF 0xFF 0xFF 0xFF
Extended ID: 0x18F0010B  DLC: 8  Data: 0xC0 0xFF 0xC0 0xFF 0xFF 0x4D 0xFF 0x3F
Extended ID: 0x18F00F00  DLC: 8  Data: 0xFF 0xFF 0xFF 0xFF 0xFF 0xFF 0xFF 0xFF
Extended ID: 0x18F00100  DLC: 8  Data: 0xFF 0xFF 0xFF 0xFF 0xFF 0xFF 0xFF 0xFF
Extended ID: 0x18FF4003  DLC: 8  Data: 0xC1 0xFF 0xFF 0xFB 0xE8 0x03 0xFF 0xFF
Extended ID: 0x18FEDF00  DLC: 8  Data: 0x7D 0xA0 0x28 0x7D 0x7D 0xFF 0xFF 0xF0
Extended ID: 0x0C010305  DLC: 8  Data: 0xFF 0xFF 0x7D 0xFF 0xFF 0xFF 0xFF 0xFF
Extended ID: 0x18FF2617  DLC: 8  Data: 0x01 0x00 0x01 0x00 0xFE 0x03 0xAD 0x03
Extended ID: 0x18FEDF00  DLC: 8  Data: 0x7D 0xA0 0x28 0x7D 0x7D 0xFF 0xFF 0xF0
Extended ID: 0x18FEBF0B  DLC: 8  Data: 0x00 0x00 0x7D 0x7D 0x7D 0x7D 0x7D 0x7D
Extended ID: 0x0CF00203  DLC: 8  Data: 0xCF 0x00 0x00 0xFF 0xF0 0x00 0x00 0xFF
Extended ID: 0x18FEDF00  DLC: 8  Data: 0x7D 0xA0 0x28 0x7D 0x7D 0xFF 0xFF 0xF0
Extended ID: 0x0CF00203  DLC: 8  Data: 0xCF 0x00 0x00 0xFF 0xF0 0x00 0x00 0xFF
Extended ID: 0x18FD9400  DLC: 8  Data: 0x00 0x00 0xFF 0xFF 0xFF 0xFF 0xFF 0xFF
Extended ID: 0x18FEDF00  DLC: 8  Data: 0x7D 0xA0 0x28 0x7D 0x7D 0xFF 0xFF 0xF0
Extended ID: 0x0CF00203  DLC: 8  Data: 0xCF 0x00 0x00 0xFF 0xF0 0x00 0x00 0xFF
Extended ID: 0x0CF00C03  DLC: 8  Data: 0xFF 0xFF 0x00 0x00 0xFF 0xFF 0xFF 0xFF
Extended ID: 0x18FDC40B  DLC: 8  Data: 0xDF 0xFF 0xFF 0xFF 0xFF 0xFF 0xFF 0xFF
Extended ID: 0x10F03300  DLC: 8  Data: 0xD0 0x07 0xFF 0xFF 0xFF 0xFF 0xFF 0xFF
Extended ID: 0x0CF00400  DLC: 8  Data: 0x4E 0x7D 0x7D 0x00 0x00 0x00 0x0F 0x7D
Extended ID: 0x1CFE9200  DLC: 8  Data: 0xFF 0xB8 0x7D 0xFF 0xFF 0xFF 0x00 0x00
Extended ID: 0x18FEDF00  DLC: 8  Data: 0x7D 0xA0 0x28 0x7D 0x7D 0xFF 0xFF 0xF0
Extended ID: 0x0CF00400  DLC: 8  Data: 0x4E 0x7D 0x7D 0x00 0x00 0x00 0x0F 0x7D
Extended ID: 0x0CF00C03  DLC: 8  Data: 0xFF 0xFF 0x00 0x00 0xFF 0xFF 0xFF 0xFF
Extended ID: 0x18FF4003  DLC: 8  Data: 0xC1 0xFF 0xFF 0xFB 0xE8 0x03 0xFF 0xFF
Extended ID: 0x0CF00203  DLC: 8  Data: 0xCF 0x00 0x00 0xFF 0xF0 0x00 0x00 0xFF
Extended ID: 0x0CF00400  DLC: 8  Data: 0x4E 0x7D 0x7D 0x00 0x00 0x00 0x0F 0x7D
Extended ID: 0x0CF00300  DLC: 8  Data: 0xD1 0x00 0x00 0xFF 0xFF 0x0C 0x66 0x7D
Extended ID: 0x18FD0517  DLC: 8  Data: 0xFF 0xFF 0xFF 0xFF 0xFF 0xFF 0xFF 0xFF
Extended ID: 0x0CF00400  DLC: 8  Data: 0x4E 0x7D 0x7D 0x00 0x00 0x00 0x0F 0x7D
Extended ID: 0x18FEE000  DLC: 8  Data: 0xB2 0x25 0x2A 0x00 0x9F 0x25 0x2A 0x00
Extended ID: 0x18FEDF00  DLC: 8  Data: 0x7D 0xA0 0x28 0x7D 0x7D 0xFF 0xFF 0xF0
Extended ID: 0x18F00E00  DLC: 8  Data: 0xFF 0xFF 0xFF 0xFF 0xFF 0xFF 0xFF 0xFF
Extended ID: 0x0CF00203  DLC: 8  Data: 0xCF 0x00 0x00 0xFF 0xF0 0x00 0x00 0xFF
Extended ID: 0x18FEDF00  DLC: 8  Data: 0x7D 0xA0 0x28 0x7D 0x7D 0xFF 0xFF 0xF0
Extended ID: 0x18FDB200  DLC: 8  Data: 0xFF 0xFF 0xFF 0xFF 0x00 0x00 0xFF 0xFF
Extended ID: 0x18F00E00  DLC: 8  Data: 0xFF 0xFF 0xFF 0xFF 0xFF 0xFF 0xFF 0xFF
Extended ID: 0x18FEDF00  DLC: 8  Data: 0x7D 0xA0 0x28 0x7D 0x7D 0xFF 0xFF 0xF0
Extended ID: 0x18F00F00  DLC: 8  Data: 0xFF 0xFF 0xFF 0xFF 0xFF 0xFF 0xFF 0xFF
Extended ID: 0x18F00100  DLC: 8  Data: 0xFF 0xFF 0xFF 0xFF 0xFF 0xFF 0xFF 0xFF
Extended ID: 0x18FEF100  DLC: 8  Data: 0xFF 0x00 0x00 0xFC 0x33 0x00 0x1F 0xCF
Extended ID: 0x0CF00203  DLC: 8  Data: 0xCF 0x00 0x00 0xFF 0xF0 0x00 0x00 0xFF
Extended ID: 0x18FD9400  DLC: 8  Data: 0x00 0x00 0xFF 0xFF 0xFF 0xFF 0xFF 0xFF
Extended ID: 0x18FEDF00  DLC: 8  Data: 0x7D 0xA0 0x28 0x7D 0x7D 0xFF 0xFF 0xF0
Extended ID: 0x18FEDF00  DLC: 8  Data: 0x7D 0xA0 0x28 0x7D 0x7D 0xFF 0xFF 0xF0
Extended ID: 0x0CF00400  DLC: 8  Data: 0x4E 0x7D 0x7D 0x00 0x00 0x00 0x0F 0x7D
Extended ID: 0x18FDC40B  DLC: 8  Data: 0xDF 0xFF 0xFF 0xFF 0xFF 0xFF 0xFF 0xFF
Extended ID: 0x0CF00203  DLC: 8  Data: 0xCF 0x00 0x00 0xFF 0xF0 0x00 0x00 0xFF
Extended ID: 0x0CF00400  DLC: 8  Data: 0x4E 0x7D 0x7D 0x00 0x00 0x00 0x0F 0x7D
Extended ID: 0x0CF00A00  DLC: 8  Data: 0x00 0x00 0x00 0x00 0xFF 0xFF 0xFF 0xFF
Extended ID: 0x18FF4003  DLC: 8  Data: 0xC1 0xFF 0xFF 0xFB 0xE8 0x03 0xFF 0xFF
Extended ID: 0x10FCFD00  DLC: 8  Data: 0xFF 0xFF 0xFF 0xFF 0xC3 0x40 0xFF 0xFF
Extended ID: 0x18FF5400  DLC: 8  Data: 0x64 0x7D 0xFF 0xFF 0xFF 0xFF 0xFF 0xFF
Extended ID: 0x0C010305  DLC: 8  Data: 0xFF 0xFF 0x7D 0xFF 0xFF 0xFF 0xFF 0xFF
Extended ID: 0x0CF00203  DLC: 8  Data: 0xCF 0x00 0x00 0xFF 0xF0 0x00 0x00 0xFF
Extended ID: 0x10FDA300  DLC: 8  Data: 0xFF 0xFF 0x3F 0xFF 0xFF 0xFF 0xFF 0xFF
Extended ID: 0x18FF4003  DLC: 8  Data: 0xC1 0xFF 0xFF 0xFB 0xE8 0x03 0xFF 0xFF
Extended ID: 0x18FEDF00  DLC: 8  Data: 0x7D 0xA0 0x28 0x7D 0x7D 0xFF 0xFF 0xF0
Extended ID: 0x0CF00400  DLC: 8  Data: 0x4E 0x7D 0x7D 0x00 0x00 0x00 0x0F 0x7D
Extended ID: 0x18F0010B  DLC: 8  Data: 0xC0 0xFF 0xC0 0xFF 0xFF 0x4D 0xFF 0x3F
Extended ID: 0x18FEDF00  DLC: 8  Data: 0x7D 0xA0 0x28 0x7D 0x7D 0xFF 0xFF 0xF0
Extended ID: 0x0CF00400  DLC: 8  Data: 0x4E 0x7D 0x7D 0x00 0x00 0x00 0x0F 0x7D
Extended ID: 0x0CF00203  DLC: 8  Data: 0xCF 0x00 0x00 0xFF 0xF0 0x00 0x00 0xFF
Extended ID: 0x18FEDF00  DLC: 8  Data: 0x7D 0xA0 0x28 0x7D 0x7D 0xFF 0xFF 0xF0
Extended ID: 0x0CF00203  DLC: 8  Data: 0xCF 0x00 0x00 0xFF 0xF0 0x00 0x00 0xFF
Extended ID: 0x10F03300  DLC: 8  Data: 0xD0 0x07 0xFF 0xFF 0xFF 0xFF 0xFF 0xFF
Extended ID: 0x18FEDF00  DLC: 8  Data: 0x7D 0xA0 0x28 0x7D 0x7D 0xFF 0xFF 0xF0
Extended ID: 0x18FEF000  DLC: 8  Data: 0xFF 0xFF 0xFF 0xFF 0xFF 0xFF 0xFF 0xFF
Extended ID: 0x18FDB400  DLC: 8  Data: 0x80 0x25 0x56 0x27 0xFF 0xFF 0xFF 0xFF
Extended ID: 0x0CF00203  DLC: 8  Data: 0xCC 0x00 0x00 0xFF 0xF0 0x00 0x00 0xFF
Extended ID: 0x18FEDF00  DLC: 8  Data: 0x7D 0xA0 0x28 0x7D 0x7D 0xFF 0xFF 0xF0
Extended ID: 0x0CF00400  DLC: 8  Data: 0x4E 0x7D 0x7D 0x00 0x00 0x00 0x0F 0x7D
Extended ID: 0x18F00E00  DLC: 8  Data: 0xFF 0xFF 0xFF 0xFF 0xFF 0xFF 0xFF 0xFF
Extended ID: 0x18FD8C00  DLC: 8  Data: 0xFF 0xFF 0x00 0x00 0xFF 0xFF 0xFF 0xFF
Extended ID: 0x0CF00400  DLC: 8  Data: 0x4E 0x7D 0x7D 0x00 0x00 0x00 0x0F 0x7D
Extended ID: 0x0CF00203  DLC: 8  Data: 0xCC 0x00 0x00 0xFF 0xF0 0x00 0x00 0xFF
Extended ID: 0x18FEF100  DLC: 8  Data: 0xFF 0x00 0x00 0xFC 0x33 0x00 0x1F 0xCF
Extended ID: 0x0CF00203  DLC: 8  Data: 0xCC 0x00 0x00 0xFF 0xF0 0x00 0x00 0xFF
Extended ID: 0x18F0000F  DLC: 8  Data: 0xF0 0x7D 0x7D 0xFF 0x0F 0xFF 0xFF 0x7D
Extended ID: 0x18F0010B  DLC: 8  Data: 0xC0 0xFF 0xC0 0xFF 0xFF 0x4D 0xFF 0x3F
Extended ID: 0x18FF4003  DLC: 8  Data: 0xC1 0xFF 0xFF 0xFB 0xF3 0x03 0xFF 0xFF
Extended ID: 0x1CEBFF00  DLC: 8  Data: 0x01 0x47 0xFF 0x21 0x06 0x1F 0x02 0x21
Extended ID: 0x0CF00400  DLC: 8  Data: 0x4E 0x7D 0x7D 0x00 0x00 0x00 0x0F 0x7D
Extended ID: 0x18F00F00  DLC: 8  Data: 0xFF 0xFF 0xFF 0xFF 0xFF 0xFF 0xFF 0xFF
Extended ID: 0x18FEDF00  DLC: 8  Data: 0x7D 0xA0 0x28 0x7D 0x7D 0xFF 0xFF 0xF0
Extended ID: 0x1CEBFF00  DLC: 8  Data: 0x02 0x0D 0x04 0x01 0x18 0x11 0x03 0x02
Extended ID: 0x18FE4A03  DLC: 8  Data: 0xFF 0xDD 0xFF 0x7D 0xFF 0xF3 0xFF 0xFF
Extended ID: 0x18FEBF0B  DLC: 8  Data: 0x00 0x00 0x7D 0x7D 0x7D 0x7D 0x7D 0x7D
Extended ID: 0x0CF00400  DLC: 8  Data: 0x4E 0x7D 0x7D 0x00 0x00 0x00 0x0F 0x7D
Extended ID: 0x18FCF200  DLC: 8  Data: 0x00 0xFF 0xFF 0xFF 0xFF 0xFF 0xFF 0xFF
Extended ID: 0x18FEDF00  DLC: 8  Data: 0x7D 0xA0 0x28 0x7D 0x7D 0xFF 0xFF 0xF0
Extended ID: 0x0CF00203  DLC: 8  Data: 0xCC 0x00 0x00 0xFF 0xF0 0x00 0x00 0xFF
Extended ID: 0x10F03300  DLC: 8  Data: 0xD0 0x07 0xFF 0xFF 0xFF 0xFF 0xFF 0xFF
Extended ID: 0x1CEBFF00  DLC: 8  Data: 0x04 0x01 0xFF 0xFF 0xFF 0xFF 0xFF 0xFF
Extended ID: 0x18F00F00  DLC: 8  Data: 0xFF 0xFF 0xFF 0xFF 0xFF 0xFF 0xFF 0xFF
Extended ID: 0x18FEF100  DLC: 8  Data: 0xFF 0x00 0x00 0xFC 0x33 0x00 0x1F 0xCF
Extended ID: 0x0CF00400  DLC: 8  Data: 0x4E 0x7D 0x7D 0x00 0x00 0x00 0x0F 0x7D
Extended ID: 0x18F00F00  DLC: 8  Data: 0xFF 0xFF 0xFF 0xFF 0xFF 0xFF 0xFF 0xFF
Extended ID: 0x18FEDF00  DLC: 8  Data: 0x7D 0xA0 0x28 0x7D 0x7D 0xFF 0xFF 0xF0
Extended ID: 0x0CF00400  DLC: 8  Data: 0x4E 0x7D 0x7D 0x00 0x00 0x00 0x0F 0x7D
Extended ID: 0x18FE4A03  DLC: 8  Data: 0xFF 0xDD 0xFF 0x7D 0xFF 0xF3 0xFF 0xFF
Extended ID: 0x0C010305  DLC: 8  Data: 0xFF 0xFF 0x7D 0xFF 0xFF 0xFF 0xFF 0xFF
Extended ID: 0x0CF00203  DLC: 8  Data: 0xCC 0x00 0x00 0xFF 0xF0 0x00 0x00 0xFF
Extended ID: 0x18FCF200  DLC: 8  Data: 0x00 0xFF 0xFF 0xFF 0xFF 0xFF 0xFF 0xFF
Extended ID: 0x18FEDF00  DLC: 8  Data: 0x7D 0xA0 0x28 0x7D 0x7D 0xFF 0xFF 0xF0
Extended ID: 0x0CF00203  DLC: 8  Data: 0xCC 0x00 0x00 0xFF 0xF0 0x00 0x00 0xFF
Extended ID: 0x10F03300  DLC: 8  Data: 0xD0 0x07 0xFF 0xFF 0xFF 0xFF 0xFF 0xFF
Extended ID: 0x18FEDF00  DLC: 8  Data: 0x7D 0xA0 0x28 0x7D 0x7D 0xFF 0xFF 0xF0
Extended ID: 0x18FEDF00  DLC: 8  Data: 0x7D 0xA0 0x28 0x7D 0x7D 0xFF 0xFF 0xF0
Extended ID: 0x0CF00203  DLC: 8  Data: 0xCC 0x00 0x00 0xFF 0xF0 0x00 0x00 0xFF
Extended ID: 0x0CF00400  DLC: 8  Data: 0x4E 0x7D 0x7D 0x00 0x00 0x00 0x0F 0x7D
Extended ID: 0x0CF00203  DLC: 8  Data: 0xCC 0x00 0x00 0xFF 0xF0 0x00 0x00 0xFF
Extended ID: 0x18EBFF17  DLC: 8  Data: 0x02 0x07 0x0B 0x0E 0xBF 0x06 0x04 0x7F
Extended ID: 0x0CF00400  DLC: 8  Data: 0x4E 0x7D 0x7D 0x00 0x00 0x00 0x0F 0x7D
Extended ID: 0x18FEF703  DLC: 8  Data: 0xFF 0xFF 0xFF 0xFF 0xFA 0x00 0xF3 0x00
Extended ID: 0x18FEBF0B  DLC: 8  Data: 0x00 0x00 0x7D 0x7D 0x7D 0x7D 0x7D 0x7D
Extended ID: 0x0CF00203  DLC: 8  Data: 0xCC 0x00 0x00 0xFF 0xF0 0x00 0x00 0xFF
Extended ID: 0x0CF00203  DLC: 8  Data: 0xCC 0x00 0x00 0xFF 0xF0 0x00 0x00 0xFF
Extended ID: 0x18FEDF00  DLC: 8  Data: 0x7D 0xA0 0x28 0x7D 0x7D 0xFF 0xFF 0xF0
Extended ID: 0x0CF00203  DLC: 8  Data: 0xCC 0x00 0x00 0xFF 0xF0 0x00 0x00 0xFF
Extended ID: 0x18F00E00  DLC: 8  Data: 0xFF 0xFF 0xFF 0xFF 0xFF 0xFF 0xFF 0xFF
Extended ID: 0x0CF00300  DLC: 8  Data: 0xD1 0x00 0x00 0xFF 0xFF 0x0C 0x66 0x7D
Extended ID: 0x18EA1C17  DLC: 3  Data: 0xE8 0xFE 0x00
Extended ID: 0x0CF00400  DLC: 8  Data: 0x4E 0x7D 0x7D 0x00 0x00 0x00 0x0F 0x7D
Extended ID: 0x18FD7B00  DLC: 8  Data: 0x0A 0xFF 0xFF 0x3C 0x00 0x00 0x57 0x13
Extended ID: 0x0CF00203  DLC: 8  Data: 0xCC 0x00 0x00 0xFF 0xF0 0x00 0x00 0xFF
Extended ID: 0x0CF00400  DLC: 8  Data: 0x4E 0x7D 0x7D 0x00 0x00 0x00 0x0F 0x7D
Extended ID: 0x18F00E00  DLC: 8  Data: 0xFF 0xFF 0xFF 0xFF 0xFF 0xFF 0xFF 0xFF
Extended ID: 0x18FF4003  DLC: 8  Data: 0xC1 0xFF 0xFF 0xFB 0xF3 0x03 0xFF 0xFF
Extended ID: 0x18F0010B  DLC: 8  Data: 0xC0 0xFF 0xC0 0xFF 0xFF 0x4D 0xFF 0x3F
Extended ID: 0x0CF00203  DLC: 8  Data: 0xCC 0x00 0x00 0xFF 0xF0 0x00 0x00 0xFF
Extended ID: 0x18FEDF00  DLC: 8  Data: 0x7D 0xA0 0x28 0x7D 0x7D 0xFF 0xFF 0xF0
Extended ID: 0x0CF00400  DLC: 8  Data: 0x4E 0x7D 0x7D 0x00 0x00 0x00 0x0F 0x7D
Extended ID: 0x18E0FF00  DLC: 8  Data: 0x00 0xFF 0xFF 0xFF 0xFF 0xFF 0xFF 0xFF
Extended ID: 0x18FF4003  DLC: 8  Data: 0xC1 0xFF 0xFF 0xFB 0xF3 0x03 0xFF 0xFF
Extended ID: 0x18F0000F  DLC: 8  Data: 0xF0 0x7D 0x7D 0xFF 0x0F 0xFF 0xFF 0x7D
Extended ID: 0x0CF00400  DLC: 8  Data: 0x4E 0x7D 0x7D 0x00 0x00 0x00 0x0F 0x7D
Extended ID: 0x0C010305  DLC: 8  Data: 0xFF 0xFF 0x7D 0xFF 0xFF 0xFF 0xFF 0xFF
Extended ID: 0x0CF00203  DLC: 8  Data: 0xCC 0x00 0x00 0xFF 0xF0 0x00 0x00 0xFF
Extended ID: 0x0CF00400  DLC: 8  Data: 0x4E 0x7D 0x7D 0x00 0x00 0x00 0x0F 0x7D
Extended ID: 0x18F00F00  DLC: 8  Data: 0xFF 0xFF 0xFF 0xFF 0xFF 0xFF 0xFF 0xFF
Extended ID: 0x18FEDF00  DLC: 8  Data: 0x7D 0xA0 0x28 0x7D 0x7D 0xFF 0xFF 0xF0
Extended ID: 0x0CF00203  DLC: 8  Data: 0xCC 0x00 0x00 0xFF 0xF0 0x00 0x00 0xFF
Extended ID: 0x18EF2117  DLC: 8  Data: 0x02 0x00 0x00 0x00 0xFF 0xFF 0x57 0xAE
Extended ID: 0x18FEDF00  DLC: 8  Data: 0x7D 0xA0 0x28 0x7D 0x7D 0xFF 0xFF 0xF0
Extended ID: 0x18F00E00  DLC: 8  Data: 0xFF 0xFF 0xFF 0xFF 0xFF 0xFF 0xFF 0xFF
Extended ID: 0x0CF00400  DLC: 8  Data: 0x4E 0x7D 0x7D 0x00 0x00 0x00 0x0F 0x7D
Extended ID: 0x18FEDF00  DLC: 8  Data: 0x7D 0xA0 0x28 0x7D 0x7D 0xFF 0xFF 0xF0
Extended ID: 0x18FEF10B  DLC: 8  Data: 0xFF 0x00 0x00 0xCF 0xFF 0xFF 0xFF 0xFF
Extended ID: 0x0CF00400  DLC: 8  Data: 0x4E 0x7D 0x7D 0x00 0x00 0x00 0x0F 0x7D
Extended ID: 0x18FEDF00  DLC: 8  Data: 0x7D 0xA0 0x28 0x7D 0x7D 0xFF 0xFF 0xF0
Extended ID: 0x18F0010B  DLC: 8  Data: 0xC0 0xFF 0xC0 0xFF 0xFF 0x4D 0xFF 0x3F
Extended ID: 0x1CECFF0F  DLC: 8  Data: 0x20 0x13 0x00 0x03 0xFF 0xE1 0xFE 0x00
Extended ID: 0x0CF00203  DLC: 8  Data: 0xCC 0x00 0x00 0xFF 0xF0 0x00 0x00 0xFF
Extended ID: 0x18FEDF00  DLC: 8  Data: 0x7D 0xA0 0x28 0x7D 0x7D 0xFF 0xFF 0xF0
Extended ID: 0x0CF00400  DLC: 8  Data: 0x4E 0x7D 0x7D 0x00 0x00 0x00 0x0F 0x7D
Extended ID: 0x18F00E00  DLC: 8  Data: 0xFF 0xFF 0xFF 0xFF 0xFF 0xFF 0xFF 0xFF
Extended ID: 0x18FEDF00  DLC: 8  Data: 0x7D 0xA0 0x28 0x7D 0x7D 0xFF 0xFF 0xF0
Extended ID: 0x0CF00400  DLC: 8  Data: 0x4E 0x7D 0x7D 0x00 0x00 0x00 0x0F 0x7D
Extended ID: 0x18FF5400  DLC: 8  Data: 0x64 0x7D 0xFF 0xFF 0xFF 0xFF 0xFF 0xFF
Extended ID: 0x18FEF100  DLC: 8  Data: 0xFF 0x00 0x00 0xFC 0x33 0x00 0x1F 0xCF
Extended ID: 0x0CF00203  DLC: 8  Data: 0xCC 0x00 0x00 0xFF 0xF0 0x00 0x00 0xFF
Extended ID: 0x18FF5400  DLC: 8  Data: 0x64 0x7D 0xFF 0xFF 0xFF 0xFF 0xFF 0xFF
Extended ID: 0x18FF4003  DLC: 8  Data: 0xC1 0xFF 0xFF 0xFB 0xF3 0x03 0xFF 0xFF
Extended ID: 0x18F0000F  DLC: 8  Data: 0xF0 0x7D 0x7D 0xFF 0x0F 0xFF 0xFF 0x7D
Extended ID: 0x18FF5400  DLC: 8  Data: 0x64 0x7D 0xFF 0xFF 0xFF 0xFF 0xFF 0xFF
Extended ID: 0x0CF00203  DLC: 8  Data: 0xCC 0x00 0x00 0xFF 0xF0 0x00 0x00 0xFF
Extended ID: 0x18FEF100  DLC: 8  Data: 0xFF 0x00 0x00 0xFC 0x33 0x00 0x1F 0xCF
Extended ID: 0x0CF00203  DLC: 8  Data: 0xCC 0x00 0x00 0xFF 0xF0 0x00 0x00 0xFF
Extended ID: 0x18F00F00  DLC: 8  Data: 0xFF 0xFF 0xFF 0xFF 0xFF 0xFF 0xFF 0xFF
Extended ID: 0x18FEDF00  DLC: 8  Data: 0x7D 0xA0 0x28 0x7D 0x7D 0xFF 0xFF 0xF0
Extended ID: 0x10FCFD00  DLC: 8  Data: 0xFF 0xFF 0xFF 0xFF 0xC9 0x40 0xFF 0xFF
Extended ID: 0x1CEBFF00  DLC: 8  Data: 0x02 0x1C 0xBD 0x40 0x1F 0xC7 0x80 0x25
Extended ID: 0x0CF00300  DLC: 8  Data: 0xD1 0x00 0x00 0xFF 0xFF 0x0C 0x66 0x7D
Extended ID: 0x0CF00203  DLC: 8  Data: 0xCC 0x00 0x00 0xFF 0xF0 0x00 0x00 0xFF
Extended ID: 0x0CF00400  DLC: 8  Data: 0x4E 0x7D 0x7D 0x00 0x00 0x00 0x0F 0x7D
Extended ID: 0x0CF00300  DLC: 8  Data: 0xD1 0x00 0x01 0xFF 0xFF 0x0C 0x66 0x7D
Extended ID: 0x0CF00203  DLC: 8  Data: 0xCC 0x00 0x00 0xFF 0xF0 0x00 0x00 0xFF
Extended ID: 0x0CF00400  DLC: 8  Data: 0x4E 0x7D 0x7D 0x00 0x00 0x00 0x0F 0x7D
Extended ID: 0x18FE4A03  DLC: 8  Data: 0xFF 0xDD 0xFF 0x7D 0xFF 0xF3 0xFF 0xFF
Extended ID: 0x18FEDF00  DLC: 8  Data: 0x7D 0xA0 0x28 0x7D 0x7D 0xFF 0xFF 0xF0
Extended ID: 0x0CF00400  DLC: 8  Data: 0x4E 0x7D 0x7D 0x00 0x00 0x00 0x0F 0x7D
Extended ID: 0x0CF00203  DLC: 8  Data: 0xCC 0x00 0x00 0xFF 0xF0 0x00 0x00 0xFF
Extended ID: 0x18FF4003  DLC: 8  Data: 0xC1 0xFF 0xFF 0xFB 0xF3 0x03 0xFF 0xFF
Extended ID: 0x0C010305  DLC: 8  Data: 0xFF 0xFF 0x7D 0xFF 0xFF 0xFF 0xFF 0xFF
Extended ID: 0x18FEF517  DLC: 8  Data: 0xFF 0xFF 0xFF 0xFF 0xFF 0xFF 0xFF 0xFF
Extended ID: 0x18FF4003  DLC: 8  Data: 0xC1 0xFF 0xFF 0xFB 0xF3 0x03 0xFF 0xFF
Extended ID: 0x18FEEF00  DLC: 8  Data: 0x8D 0xFF 0xFF 0x00 0x00 0x7D 0xFF 0xFA
Extended ID: 0x18F00100  DLC: 8  Data: 0xFF 0xFF 0xFF 0xFF 0xFF 0xFF 0xFF 0xFF
Extended ID: 0x18FEF100  DLC: 8  Data: 0xFF 0x00 0x00 0xFC 0x33 0x00 0x1F 0xCF
Extended ID: 0x0CF00203  DLC: 8  Data: 0xCC 0x00 0x00 0xFF 0xF0 0x00 0x00 0xFF
Extended ID: 0x0C010305  DLC: 8  Data: 0xFF 0xFF 0x7D 0xFF 0xFF 0xFF 0xFF 0xFF
Extended ID: 0x18F00E00  DLC: 8  Data: 0xFF 0xFF 0xFF 0xFF 0xFF 0xFF 0xFF 0xFF
Extended ID: 0x18FE5600  DLC: 8  Data: 0xC6 0x36 0xFF 0xFF 0x1F 0x7F 0x00 0xFF
Extended ID: 0x0CF00400  DLC: 8  Data: 0x4E 0x7D 0x7D 0x00 0x00 0x00 0x0F 0x7D
Extended ID: 0x0CF00300  DLC: 8  Data: 0xD1 0x00 0x00 0xFF 0xFF 0x0C 0x66 0x7D
Extended ID: 0x18FEF100  DLC: 8  Data: 0xFF 0x00 0x00 0xFC 0x33 0x00 0x1F 0xCF
Extended ID: 0x0CF00400  DLC: 8  Data: 0x4E 0x7D 0x7D 0x00 0x00 0x00 0x0F 0x7D
Extended ID: 0x0CF00400  DLC: 8  Data: 0x4E 0x7D 0x7D 0x00 0x00 0x00 0x0F 0x7D
Extended ID: 0x18FEF10B  DLC: 8  Data: 0xFF 0x00 0x00 0xCF 0xFF 0xFF 0xFF 0xFF
Extended ID: 0x18F0000F  DLC: 8  Data: 0xF0 0x7D 0x7D 0xFF 0x0F 0xFF 0xFF 0x7D
Extended ID: 0x18FD9503  DLC: 8  Data: 0xFF 0xFF 0xFF 0xFF 0xFF 0xFF 0xFF 0xFF
Extended ID: 0x0C010305  DLC: 8  Data: 0xFF 0xFF 0x7D 0xFF 0xFF 0xFF 0xFF 0xFF
Extended ID: 0x18F00E00  DLC: 8  Data: 0xFF 0xFF 0xFF 0xFF 0xFF 0xFF 0xFF 0xFF
Extended ID: 0x0CF00400  DLC: 8  Data: 0x4E 0x7D 0x7D 0x00 0x00 0x00 0x0F 0x7D
Extended ID: 0x1CFE9200  DLC: 8  Data: 0xFF 0xB8 0x7D 0xFF 0xFF 0xFF 0x00 0x00
Extended ID: 0x18FEDF00  DLC: 8  Data: 0x7D 0xA0 0x28 0x7D 0x7D 0xFF 0xFF 0xF0
Extended ID: 0x0CF00400  DLC: 8  Data: 0x4E 0x7D 0x7D 0x00 0x00 0x00 0x0F 0x7D
Extended ID: 0x18F00503  DLC: 8  Data: 0x7D 0x00 0x00 0x7D 0x20 0x4E 0x20 0x4E
Extended ID: 0x18FEDF00  DLC: 8  Data: 0x7D 0xA0 0x28 0x7D 0x7D 0xFF 0xFF 0xF0
Extended ID: 0x0CF00203  DLC: 8  Data: 0xCC 0x00 0x00 0xFF 0xF0 0x00 0x00 0xFF
Extended ID: 0x18FF5400  DLC: 8  Data: 0x64 0x7D 0xFF 0xFF 0xFF 0xFF 0xFF 0xFF
Extended ID: 0x18FF4003  DLC: 8  Data: 0xC1 0xFF 0xFF 0xFB 0xF3 0x03 0xFF 0xFF
Extended ID: 0x0CF00203  DLC: 8  Data: 0xCC 0x00 0x00 0xFF 0xF0 0x00 0x00 0xFF
Extended ID: 0x18FF5400  DLC: 8  Data: 0x64 0x7D 0xFF 0xFF 0xFF 0xFF 0xFF 0xFF
Extended ID: 0x18FF4003  DLC: 8  Data: 0xC1 0xFF 0xFF 0xFB 0xF3 0x03 0xFF 0xFF
Extended ID: 0x18F00F00  DLC: 8  Data: 0xFF 0xFF 0xFF 0xFF 0xFF 0xFF 0xFF 0xFF
Extended ID: 0x18FEBF0B  DLC: 8  Data: 0x00 0x00 0x7D 0x7D 0x7D 0x7D 0x7D 0x7D
Extended ID: 0x0CF00203  DLC: 8  Data: 0xCC 0x00 0x00 0xFF 0xF0 0x00 0x00 0xFF
Extended ID: 0x18FEDF00  DLC: 8  Data: 0x7D 0xA0 0x28 0x7D 0x7D 0xFF 0xFF 0xF0
Extended ID: 0x0CF00400  DLC: 8  Data: 0x4E 0x7D 0x7D 0x00 0x00 0x00 0x0F 0x7D
Extended ID: 0x18FC9600  DLC: 8  Data: 0x0F 0x00 0xFF 0xFF 0xFF 0xFF 0xFF 0xFF
Extended ID: 0x18F0000F  DLC: 8  Data: 0xF0 0x7D 0x7D 0xFF 0x0F 0xFF 0xFF 0x7D
Extended ID: 0x18FEF000  DLC: 8  Data: 0xFF 0xFF 0xFF 0xFF 0xFF 0xFF 0xFF 0xFF
Extended ID: 0x0CF00203  DLC: 8  Data: 0xCC 0x00 0x00 0xFF 0xF0 0x72 0x02 0xFF
Extended ID: 0x0CF00300  DLC: 8  Data: 0xD1 0x00 0x01 0xFF 0xFF 0x0C 0x66 0x7E
Extended ID: 0x0CF00203  DLC: 8  Data: 0xCC 0x00 0x00 0xFF 0xF0 0xB4 0x02 0xFF
Extended ID: 0x0CF00400  DLC: 8  Data: 0x4E 0x7D 0x7D 0x00 0x00 0x00 0x0F 0x7D
Extended ID: 0x0CF00300  DLC: 8  Data: 0xD1 0x00 0x01 0xFF 0xFF 0x0C 0x66 0x7E
Extended ID: 0x18F0000F  DLC: 8  Data: 0xF0 0x7D 0x7D 0xFF 0x0F 0xFF 0xFF 0x7D
Extended ID: 0x0CF00400  DLC: 8  Data: 0x4E 0x7D 0x7D 0x00 0x00 0x00 0x0F 0x7D
Extended ID: 0x0CF00300  DLC: 8  Data: 0xD1 0x00 0x01 0xFF 0xFF 0x0C 0x66 0x7D
Extended ID: 0x18FF4003  DLC: 8  Data: 0xC1 0xFF 0xFF 0xFB 0xF3 0x03 0xFF 0xFF
Extended ID: 0x0CF00400  DLC: 8  Data: 0x4E 0x7D 0x7D 0x00 0x00 0x00 0x0F 0x7D
Extended ID: 0x18F00F00  DLC: 8  Data: 0xFF 0xFF 0xFF 0xFF 0xFF 0xFF 0xFF 0xFF
Extended ID: 0x18FF4003  DLC: 8  Data: 0xC1 0xFF 0xFF 0xFB 0xF3 0x03 0xFF 0xFF
Extended ID: 0x18F0000F  DLC: 8  Data: 0xF0 0x7D 0x7D 0xFF 0x0F 0xFF 0xFF 0x7D
Extended ID: 0x0CF00400  DLC: 8  Data: 0x4E 0x7D 0x7D 0x00 0x00 0x00 0x0F 0x7D
Extended ID: 0x0C010305  DLC: 8  Data: 0xFF 0xFF 0x7D 0xFF 0xFF 0xFF 0xFF 0xFF
Extended ID: 0x0CF00203  DLC: 8  Data: 0xCC 0x00 0x00 0xFF 0xF0 0x2C 0x04 0xFF
Extended ID: 0x18FCF200  DLC: 8  Data: 0x00 0xFF 0xFF 0xFF 0xFF 0xFF 0xFF 0xFF
Extended ID: 0x18FF4003  DLC: 8  Data: 0xC1 0xFF 0xFF 0xFB 0xF3 0x03 0xFF 0xFF
Extended ID: 0x18FD0517  DLC: 8  Data: 0xFF 0xFF 0xFF 0xFF 0xFF 0xFF 0xFF 0xFF
Extended ID: 0x0CF00400  DLC: 8  Data: 0x4E 0x7D 0x7D 0x00 0x00 0x00 0x0F 0x7D
Extended ID: 0x18F00503  DLC: 8  Data: 0x7D 0x00 0x00 0x7D 0x20 0x4E 0x20 0x4E
Extended ID: 0x18FEDF00  DLC: 8  Data: 0x7D 0xA0 0x28 0x7D 0x7D 0xFF 0xFF 0xF0
Extended ID: 0x0CF00400  DLC: 8  Data: 0x4E 0x7D 0x7D 0x00 0x00 0x00 0x0F 0x7D
Extended ID: 0x18FDC40B  DLC: 8  Data: 0xDF 0xFF 0xFF 0xFF 0xFF 0xFF 0xFF 0xFF
Extended ID: 0x18FEDF00  DLC: 8  Data: 0x7D 0xA0 0x28 0x7D 0x7D 0xFF 0xFF 0xF0
Extended ID: 0x0CF00203  DLC: 8  Data: 0xCC 0x00 0x00 0xFF 0xF0 0xD1 0x04 0xFF
Extended ID: 0x18F00E00  DLC: 8  Data: 0xFF 0xFF 0xFF 0xFF 0xFF 0xFF 0xFF 0xFF
Extended ID: 0x18FEDF00  DLC: 8  Data: 0x7D 0xA0 0x28 0x7D 0x7D 0xFF 0xFF 0xF0
Extended ID: 0x0CF00203  DLC: 8  Data: 0xCC 0x00 0x00 0xFF 0xF0 0xD9 0x04 0xFF
Extended ID: 0x18F0010B  DLC: 8  Data: 0xC0 0xFF 0xC0 0xFF 0xFF 0x4D 0xFF 0x3F
Extended ID: 0x18FEF100  DLC: 8  Data: 0xFF 0x00 0x00 0xFC 0x33 0x00 0x1F 0xCF
Extended ID: 0x18FEDF00  DLC: 8  Data: 0x7E 0xA0 0x28 0x7D 0x7D 0xFF 0xFF 0xF0
Extended ID: 0x0CF00400  DLC: 8  Data: 0x4E 0x7D 0x7D 0x5A 0x04 0x00 0x0F 0xA6
Extended ID: 0x18F00E00  DLC: 8  Data: 0xFF 0xFF 0xFF 0xFF 0xFF 0xFF 0xFF 0xFF
Extended ID: 0x18FEDF00  DLC: 8  Data: 0x7F 0xA0 0x28 0x7D 0x7D 0xFF 0xFF 0xF0
Extended ID: 0x0CF00400  DLC: 8  Data: 0x2E 0x7D 0x96 0x6F 0x04 0x00 0x0F 0xA6
Extended ID: 0x18F0010B  DLC: 8  Data: 0xC0 0xFF 0xC0 0xFF 0xFF 0x4D 0xFF 0x3F
Extended ID: 0x10F03300  DLC: 8  Data: 0xD0 0x07 0xFF 0xFF 0xFF 0xFF 0xFF 0xFF
Extended ID: 0x18FEF600  DLC: 8  Data: 0xFF 0x00 0x50 0xFF 0xFF 0xFF 0xFF 0xFF
Extended ID: 0x18FF5400  DLC: 8  Data: 0x64 0x7D 0xFF 0xFF 0xFF 0xFF 0xFF 0xFF
Extended ID: 0x18FF4003  DLC: 8  Data: 0xC1 0xFF 0xFF 0xFB 0xF3 0x03 0xFF 0xFF
Extended ID: 0x18F0000F  DLC: 8  Data: 0xF0 0x7D 0x7D 0xFF 0x0F 0xFF 0xFF 0x77
Extended ID: 0x18FF5400  DLC: 8  Data: 0x64 0x7D 0xFF 0xFF 0xFF 0xFF 0xFF 0xFF
Extended ID: 0x18EA1C17  DLC: 3  Data: 0xE8 0xFE 0x00
Extended ID: 0x10F03300  DLC: 8  Data: 0xD0 0x07 0xFF 0xFF 0xFF 0xFF 0xFF 0xFF
Extended ID: 0x0CF00400  DLC: 8  Data: 0x0E 0x7D 0x97 0xCA 0x04 0x00 0x0F 0xA7
Extended ID: 0x0CF00203  DLC: 8  Data: 0xCC 0x00 0x00 0xFF 0xF0 0x93 0x06 0xFF
Extended ID: 0x0CF00203  DLC: 8  Data: 0xCC 0x00 0x00 0xFF 0xF0 0x53 0x06 0xFF
Extended ID: 0x0CF00400  DLC: 8  Data: 0x0E 0x7D 0x97 0xD9 0x04 0x00 0x0F 0xA7
Extended ID: 0x0CF00203  DLC: 8  Data: 0xCC 0x00 0x00 0xFF 0xF0 0x00 0x04 0xFF
Extended ID: 0x18F00F00  DLC: 8  Data: 0xFF 0xFF 0xFF 0xFF 0xFF 0xFF 0xFF 0xFF
Extended ID: 0x18FEBD00  DLC: 8  Data: 0x00 0xF0 0x00 0x00 0xFF 0xFF 0xFF 0xFF
Extended ID: 0x18FDC40B  DLC: 8  Data: 0xDF 0xFF 0xFF 0xFF 0xFF 0xFF 0xFF 0xFF
Extended ID: 0x18FEDF00  DLC: 8  Data: 0x7F 0xA0 0x28 0x7D 0x7D 0xFF 0xFF 0xF0
Extended ID: 0x0CF00203  DLC: 8  Data: 0xCC 0x00 0x00 0xFF 0xF0 0x67 0x06 0xFF
Extended ID: 0x18FEF10B  DLC: 8  Data: 0xFF 0x00 0x00 0xCF 0xFF 0xFF 0xFF 0xFF
Extended ID: 0x18FEDF00  DLC: 8  Data: 0x7F 0xA0 0x28 0x7D 0x7D 0xFF 0xFF 0xF0
Extended ID: 0x18F00F00  DLC: 8  Data: 0xFF 0xFF 0xFF 0xFF 0xFF 0xFF 0xFF 0xFF
Extended ID: 0x0CF00400  DLC: 8  Data: 0x0E 0x7D 0x97 0xF6 0x04 0x00 0x0F 0xA7
Extended ID: 0x0CF00203  DLC: 8  Data: 0xCC 0x00 0x00 0xFF 0xF0 0xFD 0x03 0xFF
Extended ID: 0x18FF4003  DLC: 8  Data: 0xC1 0xFF 0xFF 0xFB 0xF3 0x03 0xFF 0xFF
Extended ID: 0x0CF00400  DLC: 8  Data: 0x0E 0x7D 0x97 0xFC 0x04 0x00 0x0F 0xA7
Extended ID: 0x18F00E00  DLC: 8  Data: 0xFF 0xFF 0xFF 0xFF 0xFF 0xFF 0xFF 0xFF
Extended ID: 0x18FF4003  DLC: 8  Data: 0xC1 0xFF 0xFF 0xFB 0xF3 0x03 0xFF 0xFF
Extended ID: 0x18F00F00  DLC: 8  Data: 0xFF 0xFF 0xFF 0xFF 0xFF 0xFF 0xFF 0xFF
Extended ID: 0x18FF5400  DLC: 8  Data: 0x64 0x7D 0xFF 0xFF 0xFF 0xFF 0xFF 0xFF
Extended ID: 0x18FEF100  DLC: 8  Data: 0xFF 0x00 0x00 0xFC 0x33 0x00 0x1F 0xCF
Extended ID: 0x0CF00203  DLC: 8  Data: 0xCC 0x00 0x00 0xFF 0xF0 0x2A 0x04 0xFF
Extended ID: 0x18FD9400  DLC: 8  Data: 0x00 0x00 0xFF 0xFF 0xFF 0xFF 0xFF 0xFF
Extended ID: 0x18FF4003  DLC: 8  Data: 0xC1 0xFF 0xFF 0xFB 0xF2 0x03 0xFF 0xFF
Extended ID: 0x18FEDF00  DLC: 8  Data: 0x7F 0xA0 0x28 0x7D 0x7D 0xFF 0xFF 0xF0
Extended ID: 0x0CF00400  DLC: 8  Data: 0x0E 0x7D 0x97 0x44 0x06 0x00 0x0F 0xA8
Extended ID: 0x0CF00203  DLC: 8  Data: 0xCC 0x00 0x00 0xFF 0xF0 0x40 0x09 0xFF
Extended ID: 0x1CEBFF00  DLC: 8  Data: 0x01 0x47 0xFF 0x21 0x06 0x1F 0x02 0x21
Extended ID: 0x0CF00400  DLC: 8  Data: 0x0E 0x7D 0x97 0x51 0x08 0x00 0x0F 0xA8
Extended ID: 0x0CF00203  DLC: 8  Data: 0xCC 0x00 0x00 0xFF 0xF0 0x12 0x07 0xFF
Extended ID: 0x18FEDF00  DLC: 8  Data: 0x80 0xA0 0x28 0x7D 0x7D 0xFF 0xFF 0xF0
Extended ID: 0x0CF00203  DLC: 8  Data: 0xCC 0x00 0x00 0xFF 0xF0 0x3F 0x0C 0xFF
Extended ID: 0x0CF00C03  DLC: 8  Data: 0xFF 0xFF 0x00 0x00 0xFF 0xFF 0xFF 0xFF
Extended ID: 0x18FEDF00  DLC: 8  Data: 0x81 0xA0 0x28 0x7D 0x7D 0xFF 0xFF 0xF0
Extended ID: 0x0CF00400  DLC: 8  Data: 0x0E 0x7D 0x94 0x98 0x0B 0x00 0x0F 0xA9
Extended ID: 0x1CEBFF00  DLC: 8  Data: 0x03 0x21 0x0D 0x02 0x01 0x60 0x00 0x09
Extended ID: 0x18FEDF00  DLC: 8  Data: 0x81 0xA0 0x28 0x7D 0x7D 0xFF 0xFF 0xF0
Extended ID: 0x0CF00203  DLC: 8  Data: 0xCC 0x00 0x00 0xFF 0xF0 0x26 0x0B 0xFF
Extended ID: 0x10F03300  DLC: 8  Data: 0xD0 0x07 0xFF 0xFF 0xFF 0xFF 0xFF 0xFF
Extended ID: 0x1CECFF00  DLC: 8  Data: 0x20 0x12 0x00 0x03 0xFF 0xEC 0xFE 0x00
Extended ID: 0x18F00F00  DLC: 8  Data: 0xFF 0xFF 0xFF 0xFF 0xFF 0xFF 0xFF 0xFF
Extended ID: 0x18F00100  DLC: 8  Data: 0xFF 0xFF 0xFF 0xFF 0xFF 0xFF 0xFF 0xFF
Extended ID: 0x0CF00203  DLC: 8  Data: 0xCC 0x00 0x00 0xFF 0xF0 0xA1 0x10 0xFF
Extended ID: 0x18FF4003  DLC: 8  Data: 0xC1 0xFF 0xFF 0xFB 0xF2 0x03 0xFF 0xFF
Extended ID: 0x0CF00203  DLC: 8  Data: 0xCC 0x00 0x00 0xFF 0xF0 0x2D 0x11 0xFF
Extended ID: 0x18F00E00  DLC: 8  Data: 0xFF 0xFF 0xFF 0xFF 0xFF 0xFF 0xFF 0xFF
Extended ID: 0x18FF4003  DLC: 8  Data: 0xC1 0xFF 0xFF 0xFB 0xF2 0x03 0xFF 0xFF
Extended ID: 0x0CF00203  DLC: 8  Data: 0xCC 0x00 0x00 0xFF 0xF0 0xD3 0x11 0xFF
Extended ID: 0x0CF00300  DLC: 8  Data: 0xD1 0x00 0x2A 0xFF 0xFF 0x0C 0x6F 0x7D
Extended ID: 0x18FEBF0B  DLC: 8  Data: 0x00 0x00 0x7D 0x7D 0x7D 0x7D 0x7D 0x7D
Extended ID: 0x0CF00203  DLC: 8  Data: 0xCC 0x00 0x00 0xFF 0xF0 0xE9 0x10 0xFF
Extended ID: 0x18ECFF17  DLC: 8  Data: 0x20 0x12 0x00 0x03 0xFF 0xCA 0xFE 0x00
Extended ID: 0x0CF00300  DLC: 8  Data: 0xD1 0x00 0x2A 0xFF 0xFF 0x0C 0x54 0x7D
Extended ID: 0x18F0000F  DLC: 8  Data: 0xF0 0x7D 0x7D 0xFF 0x0F 0xFF 0xFF 0x63
Extended ID: 0x0CF00400  DLC: 8  Data: 0x68 0x7D 0x9B 0xB4 0x13 0x00 0x0F 0x9F
Extended ID: 0x0CF00300  DLC: 8  Data: 0xD1 0x00 0x41 0xFF 0xFF 0x0C 0x56 0x7D
Extended ID: 0x18FEF100  DLC: 8  Data: 0xFF 0x00 0x00 0xFC 0x33 0x00 0x1F 0xCF
Extended ID: 0x0CF00203  DLC: 8  Data: 0xCC 0x00 0x00 0xFF 0xF0 0xCA 0x12 0xFF
Extended ID: 0x18F00F00  DLC: 8  Data: 0xFF 0xFF 0xFF 0xFF 0xFF 0xFF 0xFF 0xFF
Extended ID: 0x18EBFF17  DLC: 8  Data: 0x02 0x07 0x0B 0x0E 0xBF 0x06 0x04 0x7F
Extended ID: 0x10FCFD00  DLC: 8  Data: 0xFF 0xFF 0xFF 0xFF 0xC3 0x23 0xFF 0xFF
Extended ID: 0x0CF00C03  DLC: 8  Data: 0xFF 0xFF 0x2D 0x15 0xFF 0xFF 0xFF 0xFF
Extended ID: 0x0CF00203  DLC: 8  Data: 0xCC 0x00 0x00 0xFF 0xF0 0x77 0x16 0xFF
Extended ID: 0x18F00E00  DLC: 8  Data: 0xFF 0xFF 0xFF 0xFF 0xFF 0xFF 0xFF 0xFF
Extended ID: 0x0CF00400  DLC: 8  Data: 0x08 0x7D 0x7D 0x5C 0x17 0x00 0x0F 0x88
Extended ID: 0x0CF00203  DLC: 8  Data: 0xCC 0x00 0x00 0xFF 0xF0 0x3A 0x17 0xFF
Extended ID: 0x0CF00203  DLC: 8  Data: 0xCC 0x00 0x00 0xFF 0xF0 0x89 0x17 0xFF
Extended ID: 0x0CF00400  DLC: 8  Data: 0x38 0x7D 0x7F 0xE4 0x16 0x00 0x0F 0x86
Extended ID: 0x18FEE000  DLC: 8  Data: 0xB2 0x25 0x2A 0x00 0x9F 0x25 0x2A 0x00
Extended ID: 0x18EA1C17  DLC: 3  Data: 0xE8 0xFE 0x00
Extended ID: 0x18F0010B  DLC: 8  Data: 0xC0 0xFF 0xC0 0xFF 0xFF 0x4D 0xFF 0x3F
Extended ID: 0x0CF00300  DLC: 8  Data: 0xD1 0x00 0x10 0xFF 0xFF 0x0C 0x51 0x7D
Extended ID: 0x18FF4003  DLC: 8  Data: 0xC1 0xFF 0xFF 0xFB 0xF2 0x03 0xFF 0xFF
Extended ID: 0x0CF00203  DLC: 8  Data: 0xCC 0x00 0x00 0xFF 0xF0 0xEF 0x14 0xFF
Extended ID: 0x18F00E00  DLC: 8  Data: 0xFF 0xFF 0xFF 0xFF 0xFF 0xFF 0xFF 0xFF
Extended ID: 0x0CF00203  DLC: 8  Data: 0xCC 0x00 0x00 0xFF 0xF0 0xD5 0x14 0xFF
Extended ID: 0x18F00F00  DLC: 8  Data: 0xFF 0xFF 0xFF 0xFF 0xFF 0xFF 0xFF 0xFF
Extended ID: 0x0CF00400  DLC: 8  Data: 0x08 0x7D 0x84 0x97 0x15 0x00 0x0F 0x85
Extended ID: 0x0CF00203  DLC: 8  Data: 0xCC 0x00 0x00 0xFF 0xF0 0x2D 0x16 0xFF
Extended ID: 0x1CEBFF0B  DLC: 8  Data: 0x02 0x04 0x07 0x7F 0xFF 0xFF 0xFF 0xFF
Extended ID: 0x0CF00400  DLC: 8  Data: 0x08 0x7D 0x83 0x69 0x15 0x00 0x0F 0x84
Extended ID: 0x0CF00203  DLC: 8  Data: 0xCC 0x00 0x00 0xFF 0xF0 0xE3 0x15 0xFF
Extended ID: 0x18FEDF00  DLC: 8  Data: 0x83 0xA0 0x28 0x7D 0x7E 0xFF 0xFF 0xF0
Extended ID: 0x0CF00400  DLC: 8  Data: 0x08 0x7D 0x84 0x12 0x15 0x00 0x0F 0x84
Extended ID: 0x0CF00300  DLC: 8  Data: 0xD1 0x00 0x0D 0xFF 0xFF 0x0C 0x68 0x7D
Extended ID: 0x18FEDF00  DLC: 8  Data: 0x83 0xA0 0x28 0x7D 0x7E 0xFF 0xFF 0xF0
Extended ID: 0x0CF00400  DLC: 8  Data: 0x18 0x7D 0x83 0xF6 0x14 0x00 0x0F 0x84
Extended ID: 0x1CFE9200  DLC: 8  Data: 0xFF 0xBC 0x83 0xFF 0xFF 0xFF 0x00 0x00
Extended ID: 0x18FEDF00  DLC: 8  Data: 0x83 0xA0 0x28 0x7D 0x7E 0xFF 0xFF 0xF0
Extended ID: 0x18F0000F  DLC: 8  Data: 0xF0 0x7D 0x7D 0xFF 0x0F 0xFF 0xFF 0x5D
Extended ID: 0x0CF00C03  DLC: 8  Data: 0xFF 0xFF 0xF4 0x14 0xFF 0xFF 0xFF 0xFF
Extended ID: 0x18FEDF00  DLC: 8  Data: 0x83 0xA0 0x28 0x7D 0x7E 0xFF 0xFF 0xF0
Extended ID: 0x18F00E00  DLC: 8  Data: 0xFF 0xFF 0xFF 0xFF 0xFF 0xFF 0xFF 0xFF
Extended ID: 0x18FEBF0B  DLC: 8  Data: 0x00 0x00 0x7D 0x7D 0x7D 0x7D 0x7D 0x7D
Extended ID: 0x18FEDF00  DLC: 8  Data: 0x83 0xA0 0x28 0x7D 0x7E 0xFF 0xFF 0xF0
Extended ID: 0x0CF00203  DLC: 8  Data: 0xCC 0x00 0x00 0xFF 0xF0 0xE8 0x14 0xFF
Extended ID: 0x18FF1F17  DLC: 8  Data: 0xFE 0x03 0xFF 0x03 0x00 0x00 0x00 0x00
Extended ID: 0x0CF00300  DLC: 8  Data: 0xD1 0x00 0x08 0xFF 0xFF 0x0C 0x67 0x7D
Extended ID: 0x18F00F00  DLC: 8  Data: 0xFF 0xFF 0xFF 0xFF 0xFF 0xFF 0xFF 0xFF
Extended ID: 0x0CF00400  DLC: 8  Data: 0x58 0x7D 0x81 0x31 0x14 0x00 0x0F 0x82
Extended ID: 0x18FEBF0B  DLC: 8  Data: 0x00 0x00 0x7D 0x7D 0x7D 0x7D 0x7D 0x7D
Extended ID: 0x0CF00203  DLC: 8  Data: 0xCC 0x00 0x00 0xFF 0xF0 0x08 0x14 0xFF
Extended ID: 0x0CF00203  DLC: 8  Data: 0xCC 0x00 0x00 0xFF 0xF0 0xEB 0x13 0xFF
Extended ID: 0x10F03300  DLC: 8  Data: 0xD0 0x07 0xFF 0xFF 0xFF 0xFF 0xFF 0xFF
Extended ID: 0x18FF4003  DLC: 8  Data: 0xC1 0xFF 0xFF 0xFB 0xF2 0x03 0xFF 0xFF
Extended ID: 0x18F00F00  DLC: 8  Data: 0xFF 0xFF 0xFF 0xFF 0xFF 0xFF 0xFF 0xFF
Extended ID: 0x18F00100  DLC: 8  Data: 0xFF 0xFF 0xFF 0xFF 0xFF 0xFF 0xFF 0xFF
Extended ID: 0x1CEBFF00  DLC: 8  Data: 0x03 0x21 0x0D 0x02 0x01 0x60 0x00 0x09
Extended ID: 0x18FEDF00  DLC: 8  Data: 0x83 0xA0 0x28 0x7D 0x7E 0xFF 0xFF 0xF0
Extended ID: 0x0C010305  DLC: 8  Data: 0xFF 0xFF 0x7D 0xFF 0xFF 0xFF 0xFF 0xFF
Extended ID: 0x18F00E00  DLC: 8  Data: 0xFF 0xFF 0xFF 0xFF 0xFF 0xFF 0xFF 0xFF
Extended ID: 0x18FEDF00  DLC: 8  Data: 0x83 0xA0 0x28 0x7D 0x7E 0xFF 0xFF 0xF0
Extended ID: 0x0CF00400  DLC: 8  Data: 0x48 0x7D 0x82 0x6A 0x13 0x00 0x0F 0x83
Extended ID: 0x0CF00300  DLC: 8  Data: 0xD1 0x00 0x0B 0xFF 0xFF 0x0C 0x63 0x7E
Extended ID: 0x18FEF100  DLC: 8  Data: 0xFF 0x00 0x00 0xFC 0x33 0x00 0x1F 0xCF
Extended ID: 0x0CF00203  DLC: 8  Data: 0xCC 0x00 0x00 0xFF 0xF0 0x65 0x13 0xFF
Extended ID: 0x18FD9400  DLC: 8  Data: 0x45 0x02 0xFF 0xFF 0xFF 0xFF 0xFF 0xFF
Extended ID: 0x18FD0517  DLC: 8  Data: 0xFF 0xFF 0xFF 0xFF 0xFF 0xFF 0xFF 0xFF
Extended ID: 0x18F0000F  DLC: 8  Data: 0xF0 0x7D 0x7D 0xFF 0x0F 0xFF 0xFF 0x60
Extended ID: 0x0CF00C03  DLC: 8  Data: 0xFF 0xFF 0x5C 0x13 0xFF 0xFF 0xFF 0xFF
Extended ID: 0x0CF00300  DLC: 8  Data: 0xD1 0x00 0x0B 0xFF 0xFF 0x0C 0x65 0x7E
Extended ID: 0x10F03300  DLC: 8  Data: 0xD0 0x07 0xFF 0xFF 0xFF 0xFF 0xFF 0xFF
Extended ID: 0x0CF00400  DLC: 8  Data: 0x78 0x7D 0x82 0x35 0x13 0x00 0x0F 0x83
Extended ID: 0x18F00F00  DLC: 8  Data: 0xFF 0xFF 0xFF 0xFF 0xFF 0xFF 0xFF 0xFF
Extended ID: 0x18FEDF00  DLC: 8  Data: 0x84 0xA0 0x28 0x7D 0x7E 0xFF 0xFF 0xF0
Extended ID: 0x0CF00400  DLC: 8  Data: 0x78 0x7D 0x83 0xF8 0x12 0x00 0x0F 0x84
Extended ID: 0x18FEF200  DLC: 8  Data: 0x35 0x00 0x00 0x00 0x2E 0x06 0x00 0xFF
Extended ID: 0x18EBFF17  DLC: 8  Data: 0x01 0x00 0xFF 0xF1 0x07 0x09 0x0E 0xE7
Extended ID: 0x18F00E00  DLC: 8  Data: 0xFF 0xFF 0xFF 0xFF 0xFF 0xFF 0xFF 0xFF
Extended ID: 0x18FCF200  DLC: 8  Data: 0x00 0xFF 0xFF 0xFF 0xFF 0xFF 0xFF 0xFF
Extended ID: 0x0CF00203  DLC: 8  Data: 0xCC 0x00 0x00 0xFF 0xF0 0xC9 0x12 0xFF
Extended ID: 0x0CF00203  DLC: 8  Data: 0xCC 0x00 0x00 0xFF 0xF0 0xB1 0x12 0xFF
Extended ID: 0x10F03300  DLC: 8  Data: 0xD0 0x07 0xFF 0xFF 0xFF 0xFF 0xFF 0xFF
Extended ID: 0x18FE4A03  DLC: 8  Data: 0xFF 0xDD 0xFF 0x7D 0xFF 0xF3 0xFF 0xFF
Extended ID: 0x18FEDF00  DLC: 8  Data: 0x84 0xA0 0x28 0x7D 0x7E 0xFF 0xFF 0xF0
Extended ID: 0x0CF00400  DLC: 8  Data: 0x78 0x7E 0x85 0x96 0x12 0x00 0x0F 0x86
Extended ID: 0x0CF00300  DLC: 8  Data: 0xD1 0x00 0x12 0xFF 0xFF 0x0C 0x68 0x7F
Extended ID: 0x18FEDF00  DLC: 8  Data: 0x84 0xA0 0x28 0x7D 0x7E 0xFF 0xFF 0xF0
Extended ID: 0x0CF00400  DLC: 8  Data: 0x28 0x7E 0x86 0x71 0x12 0x00 0x0F 0x86
Extended ID: 0x18F00E00  DLC: 8  Data: 0xFF 0xFF 0xFF 0xFF 0xFF 0xFF 0xFF 0xFF
Extended ID: 0x18FEF10B  DLC: 8  Data: 0xFF 0x00 0x00 0xCF 0xFF 0xFF 0xFF 0xFF
Extended ID: 0x18FEF000  DLC: 8  Data: 0xFF 0xFF 0xFF 0xFF 0xFF 0xFF 0xFF 0xFF
Extended ID: 0x0CF00300  DLC: 8  Data: 0xD1 0x00 0x13 0xFF 0xFF 0x0C 0x69 0x7F
Extended ID: 0x18F0010B  DLC: 8  Data: 0xC0 0xFF 0xC0 0xFF 0xFF 0x4D 0xFF 0x3F
Extended ID: 0x0CF00203  DLC: 8  Data: 0xCC 0x00 0x00 0xFF 0xF0 0x55 0x12 0xFF
Extended ID: 0x18F00F00  DLC: 8  Data: 0xFF 0xFF 0xFF 0xFF 0xFF 0xFF 0xFF 0xFF
Extended ID: 0x18FC9600  DLC: 8  Data: 0x60 0x01 0xFF 0xFF 0xFF 0xFF 0xFF 0xFF
Extended ID: 0x18F0000F  DLC: 8  Data: 0xF0 0x7D 0x7D 0xFF 0x0F 0xFF 0xFF 0x61
Extended ID: 0x1CEBFF0B  DLC: 8  Data: 0x01 0x00 0xFF 0x7F 0x02 0x02 0x7F 0x15
Extended ID: 0x0CF00300  DLC: 8  Data: 0xD1 0x00 0x13 0xFF 0xFF 0x0C 0x68 0x7F
Extended ID: 0x18F00E00  DLC: 8  Data: 0xFF 0xFF 0xFF 0xFF 0xFF 0xFF 0xFF 0xFF
Extended ID: 0x18FEBF0B  DLC: 8  Data: 0x00 0x00 0x7D 0x7D 0x7D 0x7D 0x7D 0x7D
Extended ID: 0x18F00F00  DLC: 8  Data: 0xFF 0xFF 0xFF 0xFF 0xFF 0xFF 0xFF 0xFF
Extended ID: 0x18FEF500  DLC: 8  Data: 0xC9 0xFF 0xFF 0xF0 0x23 0xFF 0xFF 0xFF
Extended ID: 0x18F0000F  DLC: 8  Data: 0xF0 0x7D 0x7D 0xFF 0x0F 0xFF 0xFF 0x61
Extended ID: 0x0CF00C03  DLC: 8  Data: 0xFF 0xFF 0x4B 0x12 0xFF 0xFF 0xFF 0xFF
Extended ID: 0x18FF4003  DLC: 8  Data: 0xC1 0xFF 0xFF 0xFB 0xF2 0x03 0xFF 0xFF
Extended ID: 0x18F00E00  DLC: 8  Data: 0xFF 0xFF 0xFF 0xFF 0xFF 0xFF 0xFF 0xFF
Extended ID: 0x10FDA300  DLC: 8  Data: 0xFF 0xFF 0x2B 0xFF 0xFF 0xFF 0xFF 0xFF
Extended ID: 0x18F00F00  DLC: 8  Data: 0xFF 0xFF 0xFF 0xFF 0xFF 0xFF 0xFF 0xFF
Extended ID: 0x18FEDF00  DLC: 8  Data: 0x84 0xA0 0x28 0x7D 0x7E 0xFF 0xFF 0xF0
Extended ID: 0x0CF00400  DLC: 8  Data: 0x58 0x7E 0x87 0x3B 0x12 0x00 0x0F 0x88
Extended ID: 0x18FEF200  DLC: 8  Data: 0x4D 0x00 0x00 0x00 0x2E 0x06 0x00 0xFF
Extended ID: 0x18FEDF00  DLC: 8  Data: 0x84 0xA0 0x28 0x7D 0x7E 0xFF 0xFF 0xF0
Extended ID: 0x0CF00400  DLC: 8  Data: 0x58 0x7E 0x87 0x49 0x12 0x00 0x0F 0x88
Extended ID: 0x10FDA300  DLC: 8  Data: 0xFF 0xFF 0x35 0xFF 0xFF 0xFF 0xFF 0xFF
Extended ID: 0x18FDC40B  DLC: 8  Data: 0xDF 0xFF 0xFF 0xFF 0xFF 0xFF 0xFF 0xFF
Extended ID: 0x0CF00203  DLC: 8  Data: 0xCC 0x00 0x00 0xFF 0xF0 0x6C 0x12 0xFF
Extended ID: 0x10F03300  DLC: 8  Data: 0xD0 0x07 0xFF 0xFF 0xFF 0xFF 0xFF 0xFF
Extended ID: 0x18FEDF00  DLC: 8  Data: 0x84 0xA0 0x28 0x7D 0x7E 0xFF 0xFF 0xF0
Extended ID: 0x18FEEF00  DLC: 8  Data: 0x8D 0xFF 0xFF 0x1D 0x08 0x7D 0xFF 0xFA
Extended ID: 0x0CF00400  DLC: 8  Data: 0x18 0x7D 0x87 0x4D 0x12 0x00 0x0F 0x87
Extended ID: 0x0CF00300  DLC: 8  Data: 0xD1 0x00 0x15 0xFF 0xFF 0x0C 0x69 0x7F
Extended ID: 0x18FEDF00  DLC: 8  Data: 0x84 0xA0 0x28 0x7D 0x7E 0xFF 0xFF 0xF0
Extended ID: 0x0CF00400  DLC: 8  Data: 0x08 0x7D 0x87 0x58 0x12 0x00 0x0F 0x87
Extended ID: 0x18F00E00  DLC: 8  Data: 0xFF 0xFF 0xFF 0xFF 0xFF 0xFF 0xFF 0xFF
Extended ID: 0x18FF4003  DLC: 8  Data: 0xC1 0xFF 0xFF 0xFB 0xF2 0x03 0xFF 0xFF
Extended ID: 0x0CF00400  DLC: 8  Data: 0x68 0x7D 0x86 0x71 0x12 0x00 0x0F 0x87
Extended ID: 0x18FF5400  DLC: 8  Data: 0x64 0x7D 0xFF 0xFF 0xFF 0xFF 0xFF 0xFF
Extended ID: 0x18FEF100  DLC: 8  Data: 0xFF 0x00 0x00 0xFC 0x33 0x00 0x1F 0xCF
Extended ID: 0x18FEBF0B  DLC: 8  Data: 0x00 0x00 0x7D 0x7D 0x7D 0x7D 0x7D 0x7D
Extended ID: 0x18F00F00  DLC: 8  Data: 0xFF 0xFF 0xFF 0xFF 0xFF 0xFF 0xFF 0xFF
Extended ID: 0x18FEDF00  DLC: 8  Data: 0x84 0xA0 0x28 0x7D 0x7E 0xFF 0xFF 0xF0
Extended ID: 0x18F0000F  DLC: 8  Data: 0xF0 0x7D 0x7D 0xFF 0x0F 0xFF 0xFF 0x61
Extended ID: 0x0CF00400  DLC: 8  Data: 0x78 0x7D 0x86 0x80 0x12 0x00 0x0F 0x87
Extended ID: 0x0CF00300  DLC: 8  Data: 0xD1 0x00 0x14 0xFF 0xFF 0x0C 0x69 0x7F
Extended ID: 0x18F00E00  DLC: 8  Data: 0xFF 0xFF 0xFF 0xFF 0xFF 0xFF 0xFF 0xFF
Extended ID: 0x0CF00400  DLC: 8  Data: 0x08 0x7E 0x87 0x96 0x12 0x00 0x0F 0x87
Extended ID: 0x1CFE9200  DLC: 8  Data: 0xFF 0x64 0x96 0xFF 0xFF 0xFF 0x0A 0x00
Extended ID: 0x18FEDF00  DLC: 8  Data: 0x84 0xA0 0x28 0x7D 0x7E 0xFF 0xFF 0xF0
Extended ID: 0x0CF00400  DLC: 8  Data: 0x28 0x7E 0x86 0xC0 0x12 0x00 0x0F 0x86
Extended ID: 0x0CF00C03  DLC: 8  Data: 0xFF 0xFF 0x9A 0x12 0xFF 0xFF 0xFF 0xFF
Extended ID: 0x18FEDF00  DLC: 8  Data: 0x84 0xA0 0x28 0x7D 0x7E 0xFF 0xFF 0xF0
Extended ID: 0x18F00E00  DLC: 8  Data: 0xFF 0xFF 0xFF 0xFF 0xFF 0xFF 0xFF 0xFF
Extended ID: 0x18F0010B  DLC: 8  Data: 0xC0 0xFF 0xC0 0xFF 0xFF 0x4D 0xFF 0x3F
Extended ID: 0x18FEDF00  DLC: 8  Data: 0x84 0xA0 0x28 0x7D 0x7E 0xFF 0xFF 0xF0
Extended ID: 0x18FDB200  DLC: 8  Data: 0xFF 0xFF 0xFF 0xFF 0x00 0x00 0xFF 0xFF
Extended ID: 0x0CF00400  DLC: 8  Data: 0x58 0x7D 0x84 0x0D 0x13 0x00 0x0F 0x85
Extended ID: 0x18F00503  DLC: 8  Data: 0x7D 0x00 0x00 0x7D 0x20 0x4E 0x20 0x4E
Extended ID: 0x18F00F00  DLC: 8  Data: 0xFF 0xFF 0xFF 0xFF 0xFF 0xFF 0xFF 0xFF
Extended ID: 0x0CF00400  DLC: 8  Data: 0x08 0x7D 0x85 0xE3 0x12 0x00 0x0F 0x85
Extended ID: 0x0CF00300  DLC: 8  Data: 0xD1 0x00 0x10 0xFF 0xFF 0x0C 0x67 0x7E
Extended ID: 0x18FEBF0B  DLC: 8  Data: 0x00 0x00 0x7D 0x7D 0x7D 0x7D 0x7D 0x7D
Extended ID: 0x0CF00203  DLC: 8  Data: 0xCC 0x00 0x00 0xFF 0xF0 0xF9 0x12 0xFF
Extended ID: 0x18F00E00  DLC: 8  Data: 0xFF 0xFF 0xFF 0xFF 0xFF 0xFF 0xFF 0xFF
Extended ID: 0x18FEDF00  DLC: 8  Data: 0x84 0xA0 0x28 0x7D 0x7E 0xFF 0xFF 0xF0
Extended ID: 0x0CF00A00  DLC: 8  Data: 0x48 0x04 0xBC 0x10 0xFF 0xFF 0xFF 0xFF
Extended ID: 0x0CF00300  DLC: 8  Data: 0xD1 0x00 0x12 0xFF 0xFF 0x0C 0x6A 0x7E
Extended ID: 0x18FEF100  DLC: 8  Data: 0xFF 0x00 0x00 0xFC 0x33 0x00 0x1F 0xCF
Extended ID: 0x18FEF700  DLC: 8  Data: 0xFF 0xFF 0xFF 0xFF 0x07 0x01 0xFF 0xFF
Extended ID: 0x0CF00400  DLC: 8  Data: 0x58 0x7D 0x86 0x7D 0x12 0x00 0x0F 0x87
Extended ID: 0x0CF00300  DLC: 8  Data: 0xD1 0x00 0x14 0xFF 0xFF 0x0C 0x6C 0x7F
Extended ID: 0x18F0000F  DLC: 8  Data: 0xF0 0x7D 0x7D 0xFF 0x0F 0xFF 0xFF 0x61
Extended ID: 0x0CF00400  DLC: 8  Data: 0x18 0x7D 0x87 0x5D 0x12 0x00 0x0F 0x87
Extended ID: 0x0CF00203  DLC: 8  Data: 0xCC 0x00 0x00 0xFF 0xF0 0x64 0x12 0xFF
Extended ID: 0x18F00E00  DLC: 8  Data: 0xFF 0xFF 0xFF 0xFF 0xFF 0xFF 0xFF 0xFF
Extended ID: 0x0CF00203  DLC: 8  Data: 0xCC 0x00 0x00 0xFF 0xF0 0x41 0x12 0xFF
Extended ID: 0x18FD9400  DLC: 8  Data: 0xEB 0x12 0xFF 0xFF 0xFF 0xFF 0xFF 0xFF
Extended ID: 0x18FEDF00  DLC: 8  Data: 0x84 0xA0 0x28 0x7D 0x7E 0xFF 0xFF 0xF0
Extended ID: 0x18F0000F  DLC: 8  Data: 0xF0 0x7D 0x7D 0xFF 0x0F 0xFF 0xFF 0x61
Extended ID: 0x18FEF10B  DLC: 8  Data: 0xFF 0x00 0x00 0xCF 0xFF 0xFF 0xFF 0xFF
Extended ID: 0x18FEDF00  DLC: 8  Data: 0x84 0xA0 0x28 0x7D 0x7E 0xFF 0xFF 0xF0
Extended ID: 0x18F00E00  DLC: 8  Data: 0xFF 0xFF 0xFF 0xFF 0xFF 0xFF 0xFF 0xFF
Extended ID: 0x0CF00400  DLC: 8  Data: 0x28 0x7D 0x87 0x62 0x12 0x00 0x0F 0x87
Extended ID: 0x0CFD9200  DLC: 8  Data: 0xF3 0xFF 0xFF 0xFF 0xFF 0xFF 0xFF 0xFF
Extended ID: 0x18FF4003  DLC: 8  Data: 0xC1 0xFF 0xFF 0xFB 0xF2 0x03 0xFF 0xFF
Extended ID: 0x0CF00400  DLC: 8  Data: 0x18 0x7D 0x87 0x63 0x12 0x00 0x0F 0x87
Extended ID: 0x18F00503  DLC: 8  Data: 0x7D 0x00 0x00 0x7D 0x20 0x4E 0x20 0x4E
Extended ID: 0x18FF4003  DLC: 8  Data: 0xC1 0xFF 0xFF 0xFB 0xF2 0x03 0xFF 0xFF
Extended ID: 0x18F00E00  DLC: 8  Data: 0xFF 0xFF 0xFF 0xFF 0xFF 0xFF 0xFF 0xFF
Extended ID: 0x1CEBFF03  DLC: 8  Data: 0x02 0x02 0x0E 0x0B 0xFF 0xFF 0xFF 0xFF
Extended ID: 0x18FEDF00  DLC: 8  Data: 0x84 0xA0 0x28 0x7D 0x7E 0xFF 0xFF 0xF0
Extended ID: 0x18FDB200  DLC: 8  Data: 0xFF 0xFF 0xFF 0xFF 0x00 0x00 0xFF 0xFF
Extended ID: 0x18F00E00  DLC: 8  Data: 0xFF 0xFF 0xFF 0xFF 0xFF 0xFF 0xFF 0xFF
Extended ID: 0x18FEDF00  DLC: 8  Data: 0x84 0xA0 0x28 0x7D 0x7E 0xFF 0xFF 0xF0
Extended ID: 0x0CF00300  DLC: 8  Data: 0xD1 0x00 0x15 0xFF 0xFF 0x0C 0x68 0x7E
Extended ID: 0x10F03300  DLC: 8  Data: 0xD0 0x07 0xFF 0xFF 0xFF 0xFF 0xFF 0xFF
Extended ID: 0x0CF00400  DLC: 8  Data: 0x08 0x7D 0x87 0x77 0x12 0x00 0x0F 0x87
Extended ID: 0x18F00F00  DLC: 8  Data: 0xFF 0xFF 0xFF 0xFF 0xFF 0xFF 0xFF 0xFF
Extended ID: 0x18FEDF00  DLC: 8  Data: 0x84 0xA0 0x28 0x7D 0x7E 0xFF 0xFF 0xF0
Extended ID: 0x18FF2617  DLC: 8  Data: 0x01 0x00 0x00 0x00 0xFE 0x03 0xB0 0x03
Extended ID: 0x18FEF200  DLC: 8  Data: 0x4F 0x00 0x00 0x00 0x2E 0x06 0x00 0xFF
Extended ID: 0x18FEDF00  DLC: 8  Data: 0x84 0xA0 0x28 0x7D 0x7E 0xFF 0xFF 0xF0
Extended ID: 0x1CEBFF00  DLC: 8  Data: 0x01 0x47 0xFF 0x21 0x06 0x1F 0x02 0x21
Extended ID: 0x18FEF600  DLC: 8  Data: 0xFF 0x02 0x50 0xFF 0xFF 0xFF 0xFF 0xFF
Extended ID: 0x18F00F00  DLC: 8  Data: 0xFF 0xFF 0xFF 0xFF 0xFF 0xFF 0xFF 0xFF
Extended ID: 0x18FEDF00  DLC: 8  Data: 0x84 0xA0 0x28 0x7D 0x7E 0xFF 0xFF 0xF0
Extended ID: 0x10FCFD00  DLC: 8  Data: 0xFF 0xFF 0xFF 0xFF 0xE0 0x2E 0xFF 0xFF
Extended ID: 0x0CF00400  DLC: 8  Data: 0x28 0x7D 0x87 0x7A 0x12 0x00 0x0F 0x87
Extended ID: 0x0CF00300  DLC: 8  Data: 0xD1 0x00 0x15 0xFF 0xFF 0x0C 0x67 0x7E
Extended ID: 0x1CEBFF0F  DLC: 8  Data: 0x02 0x41 0x80 0x25 0x41 0x80 0x25 0x41
Extended ID: 0x0CF00400  DLC: 8  Data: 0x28 0x7D 0x87 0x77 0x12 0x00 0x0F 0x87
Extended ID: 0x0CF00300  DLC: 8  Data: 0xD1 0x00 0x15 0xFF 0xFF 0x0C 0x67 0x7E
Extended ID: 0x0CF00203  DLC: 8  Data: 0xCC 0x00 0x00 0xFF 0xF0 0xAC 0x12 0xFF
Extended ID: 0x0CF00400  DLC: 8  Data: 0x28 0x7D 0x87 0x7E 0x12 0x00 0x0F 0x87
Extended ID: 0x0CF00C03  DLC: 8  Data: 0xFF 0xFF 0x8B 0x12 0xFF 0xFF 0xFF 0xFF
Extended ID: 0x18FEDF00  DLC: 8  Data: 0x84 0xA0 0x28 0x7D 0x7E 0xFF 0xFF 0xF0
Extended ID: 0x0CF00203  DLC: 8  Data: 0xCC 0x00 0x00 0xFF 0xF0 0x4B 0x12 0xFF
Extended ID: 0x0CF00300  DLC: 8  Data: 0xD1 0x00 0x15 0xFF 0xFF 0x0C 0x66 0x7E
Extended ID: 0x18FEDF00  DLC: 8  Data: 0x84 0xA0 0x28 0x7D 0x7E 0xFF 0xFF 0xF0
Extended ID: 0x0C010305  DLC: 8  Data: 0xFF 0xFF 0x7D 0xFF 0xFF 0xFF 0xFF 0xFF
Extended ID: 0x0CF00400  DLC: 8  Data: 0x28 0x7D 0x87 0x7E 0x12 0x00 0x0F 0x87
Extended ID: 0x0CF00203  DLC: 8  Data: 0xCC 0x00 0x00 0xFF 0xF0 0xA9 0x12 0xFF
Extended ID: 0x18F00F00  DLC: 8  Data: 0xFF 0xFF 0xFF 0xFF 0xFF 0xFF 0xFF 0xFF
Extended ID: 0x18F00100  DLC: 8  Data: 0xFF 0xFF 0xFF 0xFF 0xFF 0xFF 0xFF 0xFF
Extended ID: 0x0CF00203  DLC: 8  Data: 0xCC 0x00 0x00 0xFF 0xF0 0xCB 0x12 0xFF
Extended ID: 0x18FDB300  DLC: 8  Data: 0xFF 0xFF 0x73 0x25 0xFF 0xFF 0xFF 0xFF
Extended ID: 0x18ECFF17  DLC: 8  Data: 0x20 0x12 0x00 0x03 0xFF 0xCA 0xFE 0x00
Extended ID: 0x18F00E00  DLC: 8  Data: 0xFF 0xFF 0xFF 0xFF 0xFF 0xFF 0xFF 0xFF
Extended ID: 0x18FEDF00  DLC: 8  Data: 0x84 0xA0 0x28 0x7D 0x7E 0xFF 0xFF 0xF0
Extended ID: 0x18FEF10B  DLC: 8  Data: 0xFF 0x00 0x00 0xCF 0xFF 0xFF 0xFF 0xFF
Extended ID: 0x0CF00300  DLC: 8  Data: 0xD1 0x00 0x15 0xFF 0xFF 0x0C 0x64 0x7E
Extended ID: 0x18FEDF00  DLC: 8  Data: 0x84 0xA0 0x28 0x7D 0x7E 0xFF 0xFF 0xF0
Extended ID: 0x18F0010B  DLC: 8  Data: 0xC0 0xFF 0xC0 0xFF 0xFF 0x4D 0xFF 0x3F
Extended ID: 0x0CF00400  DLC: 8  Data: 0x38 0x7D 0x87 0x72 0x12 0x00 0x0F 0x87
Extended ID: 0x18F00E00  DLC: 8  Data: 0xFF 0xFF 0xFF 0xFF 0xFF 0xFF 0xFF 0xFF
Extended ID: 0x18FF4003  DLC: 8  Data: 0xC1 0xFF 0xFF 0xFB 0xF2 0x03 0xFF 0xFF
Extended ID: 0x0CF00400  DLC: 8  Data: 0x28 0x7D 0x87 0x90 0x12 0x00 0x0F 0x87
Extended ID: 0x0CF00300  DLC: 8  Data: 0xD1 0x00 0x15 0xFF 0xFF 0x0C 0x64 0x7E
Extended ID: 0x18FF4003  DLC: 8  Data: 0xC1 0xFF 0xFF 0xFB 0xF2 0x03 0xFF 0xFF
Extended ID: 0x18F0010B  DLC: 8  Data: 0xC0 0xFF 0xC0 0xFF 0xFF 0x4D 0xFF 0x3F
Extended ID: 0x18F00F00  DLC: 8  Data: 0xFF 0xFF 0xFF 0xFF 0xFF 0xFF 0xFF 0xFF
Extended ID: 0x18FEDF00  DLC: 8  Data: 0x84 0xA0 0x28 0x7D 0x7E 0xFF 0xFF 0xF0
Extended ID: 0x10FCFD00  DLC: 8  Data: 0xFF 0xFF 0xFF 0xFF 0xD9 0x2E 0xFF 0xFF
Extended ID: 0x0CF00C03  DLC: 8  Data: 0xFF 0xFF 0x93 0x12 0xFF 0xFF 0xFF 0xFF
Extended ID: 0x18FEDF00  DLC: 8  Data: 0x84 0xA0 0x28 0x7D 0x7E 0xFF 0xFF 0xF0
Extended ID: 0x0CF00203  DLC: 8  Data: 0xCC 0x00 0x00 0xFF 0xF0 0x7B 0x12 0xFF
Extended ID: 0x18FCF200  DLC: 8  Data: 0x00 0xFF 0xFF 0xFF 0xFF 0xFF 0xFF 0xFF
Extended ID: 0x0CF00203  DLC: 8  Data: 0xCC 0x00 0x00 0xFF 0xF0 0x6A 0x12 0xFF
Extended ID: 0x1CECFF0B  DLC: 8  Data: 0x20 0x0A 0x00 0x02 0xFF 0xCA 0xFE 0x00
Extended ID: 0x10F03300  DLC: 8  Data: 0xD0 0x07 0xFF 0xFF 0xFF 0xFF 0xFF 0xFF
Extended ID: 0x18FEDF00  DLC: 8  Data: 0x84 0xA0 0x28 0x7D 0x7E 0xFF 0xFF 0xF0
Extended ID: 0x18FEF10B  DLC: 8  Data: 0xFF 0x00 0x00 0xCF 0xFF 0xFF 0xFF 0xFF
Extended ID: 0x0CF00400  DLC: 8  Data: 0x38 0x7D 0x87 0x94 0x12 0x00 0x0F 0x87
Extended ID: 0x0CF00300  DLC: 8  Data: 0xD1 0x00 0x15 0xFF 0xFF 0x0C 0x62 0x7E
Extended ID: 0x18FEDF00  DLC: 8  Data: 0x84 0xA0 0x28 0x7D 0x7E 0xFF 0xFF 0xF0
Extended ID: 0x0CF00400  DLC: 8  Data: 0x28 0x7D 0x87 0x9E 0x12 0x00 0x0F 0x87
Extended ID: 0x18F00E00  DLC: 8  Data: 0xFF 0xFF 0xFF 0xFF 0xFF 0xFF 0xFF 0xFF
Extended ID: 0x18FEDF00  DLC: 8  Data: 0x84 0xA0 0x28 0x7D 0x7E 0xFF 0xFF 0xF0
Extended ID: 0x18FEF000  DLC: 8  Data: 0xFF 0xFF 0xFF 0xFF 0xFF 0xFF 0xFF 0xFF
Extended ID: 0x18FDB400  DLC: 8  Data: 0x03 0x26 0x69 0x27 0xFF 0xFF 0xFF 0xFF
Extended ID: 0x18FEF100  DLC: 8  Data: 0xFF 0x00 0x00 0xFC 0x33 0x00 0x1F 0xCF
Extended ID: 0x18F0010B  DLC: 8  Data: 0xC0 0xFF 0xC0 0xFF 0xFF 0x4D 0xFF 0x3F
Extended ID: 0x0CF00400  DLC: 8  Data: 0x48 0x7D 0x87 0x88 0x12 0x00 0x0F 0x88
Extended ID: 0x0CF00300  DLC: 8  Data: 0xD1 0x00 0x16 0xFF 0xFF 0x0C 0x61 0x7E
Extended ID: 0x18F0000F  DLC: 8  Data: 0xF0 0x7D 0x7D 0xFF 0x0F 0xFF 0xFF 0x61
Extended ID: 0x0CF00203  DLC: 8  Data: 0xCC 0x00 0x00 0xFF 0xF0 0xA8 0x12 0xFF
Extended ID: 0x0CF00300  DLC: 8  Data: 0xD1 0x00 0x15 0xFF 0xFF 0x0C 0x60 0x7E
Extended ID: 0x18FEF100  DLC: 8  Data: 0xFF 0x00 0x00 0xFC 0x33 0x00 0x1F 0xCF
Extended ID: 0x0CF00203  DLC: 8  Data: 0xCC 0x00 0x00 0xFF 0xF0 0xA2 0x12 0xFF
Extended ID: 0x18FEBF0B  DLC: 8  Data: 0x00 0x00 0x7D 0x7D 0x7D 0x7D 0x7D 0x7D
Extended ID: 0x18FEDF00  DLC: 8  Data: 0x84 0xA0 0x28 0x7D 0x7E 0xFF 0xFF 0xF0
Extended ID: 0x18F0000F  DLC: 8  Data: 0xF0 0x7D 0x7D 0xFF 0x0F 0xFF 0xFF 0x61
Extended ID: 0x18FF5400  DLC: 8  Data: 0x64 0x7D 0xFF 0xFF 0xFF 0xFF 0xFF 0xFF
Extended ID: 0x0C010305  DLC: 8  Data: 0xFF 0xFF 0x7D 0xFF 0xFF 0xFF 0xFF 0xFF
Extended ID: 0x1CEBFF00  DLC: 8  Data: 0x01 0x47 0xFF 0x21 0x06 0x1F 0x02 0x21
Extended ID: 0x18FCF200  DLC: 8  Data: 0x00 0xFF 0xFF 0xFF 0xFF 0xFF 0xFF 0xFF
Extended ID: 0x0CF00203  DLC: 8  Data: 0xCC 0x00 0x00 0xFF 0xF0 0x92 0x12 0xFF
Extended ID: 0x0CF00203  DLC: 8  Data: 0xCC 0x00 0x00 0xFF 0xF0 0x8F 0x12 0xFF
Extended ID: 0x0CF00203  DLC: 8  Data: 0xCC 0x00 0x00 0xFF 0xF0 0x8D 0x12 0xFF
Extended ID: 0x18FE4A03  DLC: 8  Data: 0xFF 0xDD 0xFF 0x7D 0xFF 0xF3 0xFF 0xFF
Extended ID: 0x18FEDF00  DLC: 8  Data: 0x84 0xA0 0x28 0x7D 0x7E 0xFF 0xFF 0xF0
Extended ID: 0x0CF00400  DLC: 8  Data: 0x38 0x7D 0x87 0xA2 0x12 0x00 0x0F 0x87
Extended ID: 0x1CEBFF00  DLC: 8  Data: 0x03 0x21 0x0D 0x02 0x01 0x60 0x00 0x09
Extended ID: 0x18FEDF00  DLC: 8  Data: 0x84 0xA0 0x28 0x7D 0x7E 0xFF 0xFF 0xF0
Extended ID: 0x0CF00203  DLC: 8  Data: 0xCC 0x00 0x00 0xFF 0xF0 0x9D 0x12 0xFF
Extended ID: 0x10F03300  DLC: 8  Data: 0xD0 0x07 0xFF 0xFF 0xFF 0xFF 0xFF 0xFF
Extended ID: 0x0CF00203  DLC: 8  Data: 0xCC 0x00 0x00 0xFF 0xF0 0xA2 0x12 0xFF
Extended ID: 0x18F00F00  DLC: 8  Data: 0xFF 0xFF 0xFF 0xFF 0xFF 0xFF 0xFF 0xFF
Extended ID: 0x18F00100  DLC: 8  Data: 0xFF 0xFF 0xFF 0xFF 0xFF 0xFF 0xFF 0xFF
Extended ID: 0x18FEF100  DLC: 8  Data: 0xFF 0x00 0x00 0xFC 0x33 0x00 0x1F 0xCF
Extended ID: 0x1CFE9200  DLC: 8  Data: 0xFF 0x20 0x8E 0xFF 0xFF 0xFF 0x0E 0x00
Extended ID: 0x0C010305  DLC: 8  Data: 0xFF 0xFF 0x7D 0xFF 0xFF 0xFF 0xFF 0xFF
Extended ID: 0x0CF00400  DLC: 8  Data: 0x48 0x7D 0x87 0x9D 0x12 0x00 0x0F 0x87
Extended ID: 0x0CF00300  DLC: 8  Data: 0xD1 0x00 0x16 0xFF 0xFF 0x0C 0x5E 0x7E
Extended ID: 0x18F00F00  DLC: 8  Data: 0xFF 0xFF 0xFF 0xFF 0xFF 0xFF 0xFF 0xFF
Extended ID: 0x0CF00400  DLC: 8  Data: 0x28 0x7D 0x87 0xB0 0x12 0x00 0x0F 0x87
Extended ID: 0x0CF00300  DLC: 8  Data: 0xD1 0x00 0x15 0xFF 0xFF 0x0C 0x5D 0x7E
Extended ID: 0x18F0010B  DLC: 8  Data: 0xC0 0xFF 0xC0 0xFF 0xFF 0x4D 0xFF 0x3F
Extended ID: 0x0CF00203  DLC: 8  Data: 0xCC 0x00 0x00 0xFF 0xF0 0xBF 0x12 0xFF
Extended ID: 0x18F00E00  DLC: 8  Data: 0xFF 0xFF 0xFF 0xFF 0xFF 0xFF 0xFF 0xFF
Extended ID: 0x18FEDF00  DLC: 8  Data: 0x84 0xA0 0x28 0x7D 0x7E 0xFF 0xFF 0xF0
Extended ID: 0x0CF00203  DLC: 8  Data: 0xCC 0x00 0x00 0xFF 0xF0 0xBA 0x12 0xFF
Extended ID: 0x18EBFF17  DLC: 8  Data: 0x01 0x00 0xFF 0xF1 0x07 0x09 0x0E 0xE7
Extended ID: 0x18FEF100  DLC: 8  Data: 0xFF 0x00 0x00 0xFC 0x33 0x00 0x1F 0xCF
Extended ID: 0x0CF00203  DLC: 8  Data: 0xCC 0x00 0x00 0xFF 0xF0 0x93 0x12 0xFF
Extended ID: 0x18FD9400  DLC: 8  Data: 0x3F 0x1B 0xFF 0xFF 0xFF 0xFF 0xFF 0xFF
Extended ID: 0x18FDC40B  DLC: 8  Data: 0xDF 0xFF 0xFF 0xFF 0xFF 0xFF 0xFF 0xFF
Extended ID: 0x18FEF517  DLC: 8  Data: 0xFF 0xFF 0xFF 0xFF 0xFF 0xFF 0xFF 0xFF
Extended ID: 0x18FEF703  DLC: 8  Data: 0xFF 0xFF 0xFF 0xFF 0x0C 0x01 0x04 0x01
Extended ID: 0x18FEF10B  DLC: 8  Data: 0xFF 0x00 0x00 0xCF 0xFF 0xFF 0xFF 0xFF
Extended ID: 0x10F03300  DLC: 8  Data: 0xD0 0x07 0xFF 0xFF 0xFF 0xFF 0xFF 0xFF
Extended ID: 0x0CF00400  DLC: 8  Data: 0x38 0x7D 0x87 0xB2 0x12 0x00 0x0F 0x87
Extended ID: 0x18F00F00  DLC: 8  Data: 0xFF 0xFF 0xFF 0xFF 0xFF 0xFF 0xFF 0xFF
Extended ID: 0x18FEC100  DLC: 8  Data: 0x93 0xAC 0x1D 0x04 0x68 0xAE 0x1D 0x04
Extended ID: 0x0CF00400  DLC: 8  Data: 0x28 0x7D 0x87 0xB6 0x12 0x00 0x0F 0x87
Extended ID: 0x18FEF200  DLC: 8  Data: 0x51 0x00 0x00 0x00 0x2E 0x06 0x00 0xFF
Extended ID: 0x18FEF10B  DLC: 8  Data: 0xFF 0x00 0x00 0xCF 0xFF 0xFF 0xFF 0xFF
Extended ID: 0x18F00E00  DLC: 8  Data: 0xFF 0xFF 0xFF 0xFF 0xFF 0xFF 0xFF 0xFF
Extended ID: 0x18FF5400  DLC: 8  Data: 0x64 0x7D 0xFF 0xFF 0xFF 0xFF 0xFF 0xFF
Extended ID: 0x0CF00300  DLC: 8  Data: 0xD1 0x00 0x16 0xFF 0xFF 0x0C 0x5D 0x7E
Extended ID: 0x0C010305  DLC: 8  Data: 0xFF 0xFF 0x7D 0xFF 0xFF 0xFF 0xFF 0xFF
Extended ID: 0x0CF00400  DLC: 8  Data: 0x48 0x7D 0x87 0xA4 0x12 0x00 0x0F 0x87
Extended ID: 0x0CF00C03  DLC: 8  Data: 0xFF 0xFF 0xA2 0x12 0xFF 0xFF 0xFF 0xFF
Extended ID: 0x18FEDF00  DLC: 8  Data: 0x84 0xA0 0x28 0x7D 0x7E 0xFF 0xFF 0xF0
Extended ID: 0x0CF00203  DLC: 8  Data: 0xCC 0x00 0x00 0xFF 0xF0 0xB5 0x12 0xFF
Extended ID: 0x0CF00300  DLC: 8  Data: 0xD1 0x00 0x15 0xFF 0xFF 0x0C 0x5D 0x7E
Extended ID: 0x18FEDF00  DLC: 8  Data: 0x84 0xA0 0x28 0x7D 0x7E 0xFF 0xFF 0xF0
Extended ID: 0x0CF00203  DLC: 8  Data: 0xCC 0x00 0x00 0xFF 0xF0 0xC0 0x12 0xFF
Extended ID: 0x18F00E00  DLC: 8  Data: 0xFF 0xFF 0xFF 0xFF 0xFF 0xFF 0xFF 0xFF
Extended ID: 0x1CEBFF03  DLC: 8  Data: 0x01 0xF7 0xFF 0x46 0x00 0x0E 0x03 0x33
Extended ID: 0x18F00F00  DLC: 8  Data: 0xFF 0xFF 0xFF 0xFF 0xFF 0xFF 0xFF 0xFF
Extended ID: 0x18F00100  DLC: 8  Data: 0xFF 0xFF 0xFF 0xFF 0xFF 0xFF 0xFF 0xFF
Extended ID: 0x0CF00203  DLC: 8  Data: 0xCC 0x00 0x00 0xFF 0xF0 0xA2 0x12 0xFF
Extended ID: 0x18FDB300  DLC: 8  Data: 0xFF 0xFF 0x99 0x25 0xFF 0xFF 0xFF 0xFF
Extended ID: 0x18FE9900  DLC: 8  Data: 0x48 0xAF 0xFF 0xFF 0xFF 0xFF 0xFF 0xFF
Extended ID: 0x18F00E00  DLC: 8  Data: 0xFF 0xFF 0xFF 0xFF 0xFF 0xFF 0xFF 0xFF
Extended ID: 0x18FEDF00  DLC: 8  Data: 0x84 0xA0 0x28 0x7D 0x7E 0xFF 0xFF 0xF0
Extended ID: 0x0CF00203  DLC: 8  Data: 0xCC 0x00 0x00 0xFF 0xF0 0xAE 0x12 0xFF
Extended ID: 0x18FEF10B  DLC: 8  Data: 0xFF 0x00 0x00 0xCF 0xFF 0xFF 0xFF 0xFF
Extended ID: 0x18FEF100  DLC: 8  Data: 0xFF 0x00 0x00 0xFC 0x33 0x00 0x1F 0xCF
Extended ID: 0x0CF00203  DLC: 8  Data: 0xCC 0x00 0x00 0xFF 0xF0 0xDB 0x12 0xFF
Extended ID: 0x18F00F00  DLC: 8  Data: 0xFF 0xFF 0xFF 0xFF 0xFF 0xFF 0xFF 0xFF
Extended ID: 0x18FEDF00  DLC: 8  Data: 0x84 0xA0 0x28 0x7D 0x7E 0xFF 0xFF 0xF0
Extended ID: 0x18F0000F  DLC: 8  Data: 0xF0 0x7D 0x7D 0xFF 0x0F 0xFF 0xFF 0x61
Extended ID: 0x18FF5400  DLC: 8  Data: 0x64 0x7D 0xFF 0xFF 0xFF 0xFF 0xFF 0xFF
Extended ID: 0x18FEDF00  DLC: 8  Data: 0x84 0xA0 0x28 0x7D 0x7E 0xFF 0xFF 0xF0
Extended ID: 0x1CEBFF00  DLC: 8  Data: 0x01 0x47 0xFF 0x21 0x06 0x1F 0x02 0x21
Extended ID: 0x18FF5400  DLC: 8  Data: 0x64 0x7D 0xFF 0xFF 0xFF 0xFF 0xFF 0xFF
Extended ID: 0x18F00F00  DLC: 8  Data: 0xFF 0xFF 0xFF 0xFF 0xFF 0xFF 0xFF 0xFF
Extended ID: 0x18FEDF00  DLC: 8  Data: 0x84 0xA0 0x28 0x7D 0x7E 0xFF 0xFF 0xF0
Extended ID: 0x0CF00203  DLC: 8  Data: 0xCC 0x00 0x00 0xFF 0xF0 0xB7 0x12 0xFF
Extended ID: 0x0CF00C03  DLC: 8  Data: 0xFF 0xFF 0xBD 0x12 0xFF 0xFF 0xFF 0xFF
Extended ID: 0x18FEDF00  DLC: 8  Data: 0x84 0xA0 0x28 0x7D 0x7E 0xFF 0xFF 0xF0
Extended ID: 0x0CF00203  DLC: 8  Data: 0xCC 0x00 0x00 0xFF 0xF0 0xC7 0x12 0xFF
Extended ID: 0x18FCF200  DLC: 8  Data: 0x00 0xFF 0xFF 0xFF 0xFF 0xFF 0xFF 0xFF
Extended ID: 0x0CF00203  DLC: 8  Data: 0xCC 0x00 0x00 0xFF 0xF0 0xDE 0x12 0xFF
Extended ID: 0x18FEBF0B  DLC: 8  Data: 0x00 0x00 0x7D 0x7D 0x7D 0x7D 0x7D 0x7D
Extended ID: 0x10F03300  DLC: 8  Data: 0xD0 0x07 0xFF 0xFF 0xFF 0xFF 0xFF 0xFF
Extended ID: 0x0CF00203  DLC: 8  Data: 0xCC 0x00 0x00 0xFF 0xF0 0xC0 0x12 0xFF
Extended ID: 0x18F00F00  DLC: 8  Data: 0xFF 0xFF 0xFF 0xFF 0xFF 0xFF 0xFF 0xFF
Extended ID: 0x18F00100  DLC: 8  Data: 0xFF 0xFF 0xFF 0xFF 0xFF 0xFF 0xFF 0xFF
Extended ID: 0x0CF00300  DLC: 8  Data: 0xD1 0x00 0x15 0xFF 0xFF 0x0C 0x5C 0x7E
Extended ID: 0x18FEDF00  DLC: 8  Data: 0x84 0xA0 0x28 0x7D 0x7E 0xFF 0xFF 0xF0
Extended ID: 0x0CF00400  DLC: 8  Data: 0x38 0x7D 0x87 0xB4 0x12 0x00 0x0F 0x87
Extended ID: 0x18F00E00  DLC: 8  Data: 0xFF 0xFF 0xFF 0xFF 0xFF 0xFF 0xFF 0xFF
Extended ID: 0x18FEDF00  DLC: 8  Data: 0x84 0xA0 0x28 0x7D 0x7E 0xFF 0xFF 0xF0
Extended ID: 0x0CF00400  DLC: 8  Data: 0x18 0x7D 0x87 0xCC 0x12 0x00 0x0F 0x87
Extended ID: 0x18FF5400  DLC: 8  Data: 0x64 0x7D 0xFF 0xFF 0xFF 0xFF 0xFF 0xFF
Extended ID: 0x18FEF100  DLC: 8  Data: 0xFF 0x00 0x00 0xFC 0x33 0x00 0x1F 0xCF
Extended ID: 0x18FDB300  DLC: 8  Data: 0xFF 0xFF 0x9C 0x25 0xFF 0xFF 0xFF 0xFF
Extended ID: 0x18FF5400  DLC: 8  Data: 0x64 0x7D 0xFF 0xFF 0xFF 0xFF 0xFF 0xFF
Extended ID: 0x18FEDF00  DLC: 8  Data: 0x84 0xA0 0x28 0x7D 0x7E 0xFF 0xFF 0xF0
Extended ID: 0x18F0000F  DLC: 8  Data: 0xF0 0x7D 0x7D 0xFF 0x0F 0xFF 0xFF 0x61
Extended ID: 0x18FF5400  DLC: 8  Data: 0x64 0x7D 0xFF 0xFF 0xFF 0xFF 0xFF 0xFF
Extended ID: 0x18EBFF17  DLC: 8  Data: 0x01 0x00 0xFF 0xF1 0x07 0x09 0x0E 0xE7
Extended ID: 0x18F00E00  DLC: 8  Data: 0xFF 0xFF 0xFF 0xFF 0xFF 0xFF 0xFF 0xFF
Extended ID: 0x0CF00400  DLC: 8  Data: 0x40 0x7D 0x87 0xAC 0x12 0x00 0x0F 0x88
Extended ID: 0x18F00F00  DLC: 8  Data: 0xFF 0xFF 0xFF 0xFF 0xFF 0xFF 0xFF 0xFF
Extended ID: 0x18FEDF00  DLC: 8  Data: 0x84 0xA0 0x28 0x7D 0x7E 0xFF 0xFF 0xF0
Extended ID: 0x0CF00203  DLC: 8  Data: 0xCC 0x00 0x00 0xFF 0xF0 0xB0 0x12 0xFF
Extended ID: 0x0CF00400  DLC: 8  Data: 0x20 0x7D 0x87 0xC6 0x12 0x00 0x0F 0x87
Extended ID: 0x0C010305  DLC: 8  Data: 0xFF 0xFF 0x7D 0xFF 0xFF 0xFF 0xFF 0xFF
Extended ID: 0x18F00E00  DLC: 8  Data: 0xFF 0xFF 0xFF 0xFF 0xFF 0xFF 0xFF 0xFF
Extended ID: 0x18FCF200  DLC: 8  Data: 0x00 0xFF 0xFF 0xFF 0xFF 0xFF 0xFF 0xFF
Extended ID: 0x0CF00203  DLC: 8  Data: 0xCC 0x00 0x00 0xFF 0xF0 0xEA 0x12 0xFF
Extended ID: 0x0C010305  DLC: 8  Data: 0xFF 0xFF 0x7D 0xFF 0xFF 0xFF 0xFF 0xFF
Extended ID: 0x0CF00203  DLC: 8  Data: 0xCC 0x00 0x00 0xFF 0xF0 0xF0 0x12 0xFF
Extended ID: 0x0CF00C03  DLC: 8  Data: 0xFF 0xFF 0xC0 0x12 0xFF 0xFF 0xFF 0xFF
Extended ID: 0x18FEDF00  DLC: 8  Data: 0x84 0xA0 0x28 0x7D 0x7E 0xFF 0xFF 0xF0
Extended ID: 0x0CF00203  DLC: 8  Data: 0xCC 0x00 0x00 0xFF 0xF0 0xB7 0x12 0xFF
Extended ID: 0x0CF00300  DLC: 8  Data: 0xD1 0x00 0x15 0xFF 0xFF 0x0C 0x5C 0x7E
Extended ID: 0x18FEDF00  DLC: 8  Data: 0x84 0xA0 0x28 0x7D 0x7E 0xFF 0xFF 0xF0
Extended ID: 0x0C010305  DLC: 8  Data: 0xFF 0xFF 0x7D 0xFF 0xFF 0xFF 0xFF 0xFF
Extended ID: 0x18FDC40B  DLC: 8  Data: 0xDF 0xFF 0xFF 0xFF 0xFF 0xFF 0xFF 0xFF
Extended ID: 0x0CF00203  DLC: 8  Data: 0xCC 0x00 0x00 0xFF 0xF0 0x98 0x12 0xFF
Extended ID: 0x18F00F00  DLC: 8  Data: 0xFF 0xFF 0xFF 0xFF 0xFF 0xFF 0xFF 0xFF
Extended ID: 0x18FEF10B  DLC: 8  Data: 0xFF 0x00 0x00 0xCF 0xFF 0xFF 0xFF 0xFF
Extended ID: 0x18FEF100  DLC: 8  Data: 0xFF 0x00 0x00 0xFC 0x33 0x00 0x1F 0xCF
Extended ID: 0x0CF00203  DLC: 8  Data: 0xCC 0x00 0x00 0xFF 0xF0 0xF0 0x12 0xFF
Extended ID: 0x0CF00400  DLC: 8  Data: 0x10 0x7D 0x87 0xCF 0x12 0x00 0x0F 0x87
Extended ID: 0x18FC9600  DLC: 8  Data: 0x28 0x01 0xFF 0xFF 0xFF 0xFF 0xFF 0xFF
Extended ID: 0x18F0000F  DLC: 8  Data: 0xF0 0x7D 0x7D 0xFF 0x0F 0xFF 0xFF 0x61
Extended ID: 0x0CF00400  DLC: 8  Data: 0x10 0x7D 0x87 0xD5 0x12 0x00 0x0F 0x87
Extended ID: 0x0CF00300  DLC: 8  Data: 0xD1 0x00 0x15 0xFF 0xFF 0x0C 0x5B 0x7E
Extended ID: 0x18F00E00  DLC: 8  Data: 0xFF 0xFF 0xFF 0xFF 0xFF 0xFF 0xFF 0xFF
Extended ID: 0x18FE9A00  DLC: 8  Data: 0x15 0x26 0xFF 0xFF 0xFF 0xFF 0xFF 0xFF
Extended ID: 0x18FE9900  DLC: 8  Data: 0x4C 0xAF 0xFF 0xFF 0xFF 0xFF 0xFF 0xFF
Extended ID: 0x18FEBF0B  DLC: 8  Data: 0x00 0x00 0x7D 0x7D 0x7D 0x7D 0x7D 0x7D
Extended ID: 0x18F0000F  DLC: 8  Data: 0xF0 0x7D 0x7D 0xFF 0x0F 0xFF 0xFF 0x61
Extended ID: 0x0CF00C03  DLC: 8  Data: 0xFF 0xFF 0xC0 0x12 0xFF 0xFF 0xFF 0xFF
Extended ID: 0x0CF00203  DLC: 8  Data: 0xCC 0x00 0x00 0xFF 0xF0 0xC8 0x12 0xFF
Extended ID: 0x18F00E00  DLC: 8  Data: 0xFF 0xFF 0xFF 0xFF 0xFF 0xFF 0xFF 0xFF
Extended ID: 0x0CF00400  DLC: 8  Data: 0x00 0x7D 0x87 0xD3 0x12 0x00 0x0F 0x87
Extended ID: 0x1CFE9200  DLC: 8  Data: 0xFF 0x08 0x90 0xFF 0xFF 0xFF 0x0C 0x00
Extended ID: 0x18FEDF00  DLC: 8  Data: 0x84 0xA0 0x28 0x7D 0x7E 0xFF 0xFF 0xF0
Extended ID: 0x18FDC40B  DLC: 8  Data: 0xDF 0xFF 0xFF 0xFF 0xFF 0xFF 0xFF 0xFF
Extended ID: 0x18FE4A03  DLC: 8  Data: 0xFF 0xDD 0xFF 0x7D 0xFF 0xF3 0xFF 0xFF
Extended ID: 0x18FEDF00  DLC: 8  Data: 0x84 0xA0 0x28 0x7D 0x7E 0xFF 0xFF 0xF0
Extended ID: 0x1CEBFF00  DLC: 8  Data: 0x01 0x47 0xFF 0x21 0x06 0x1F 0x02 0x21
Extended ID: 0x18FF5400  DLC: 8  Data: 0x64 0x7D 0xFF 0xFF 0xFF 0xFF 0xFF 0xFF
Extended ID: 0x18FEDF00  DLC: 8  Data: 0x84 0xA0 0x28 0x7D 0x7E 0xFF 0xFF 0xF0
Extended ID: 0x0C010305  DLC: 8  Data: 0xFF 0xFF 0x7D 0xFF 0xFF 0xFF 0xFF 0xFF
Extended ID: 0x18FF5400  DLC: 8  Data: 0x64 0x7D 0xFF 0xFF 0xFF 0xFF 0xFF 0xFF
Extended ID: 0x18FEDF00  DLC: 8  Data: 0x84 0xA0 0x28 0x7D 0x7E 0xFF 0xFF 0xF0
Extended ID: 0x18F00F00  DLC: 8  Data: 0xFF 0xFF 0xFF 0xFF 0xFF 0xFF 0xFF 0xFF
Extended ID: 0x0CF00400  DLC: 8  Data: 0x00 0x7D 0x87 0xD5 0x12 0x00 0x0F 0x87
Extended ID: 0x0CF00300  DLC: 8  Data: 0xD1 0x00 0x14 0xFF 0xFF 0x0C 0x5C 0x7E
Extended ID: 0x0CF00203  DLC: 8  Data: 0xCC 0x00 0x00 0xFF 0xF0 0x0A 0x13 0xFF
Extended ID: 0x0CF00400  DLC: 8  Data: 0x00 0x7D 0x87 0xCF 0x12 0x00 0x0F 0x87
Extended ID: 0x18F00E00  DLC: 8  Data: 0xFF 0xFF 0xFF 0xFF 0xFF 0xFF 0xFF 0xFF
Extended ID: 0x18F0000F  DLC: 8  Data: 0xF0 0x7D 0x7D 0xFF 0x0F 0xFF 0xFF 0x61
Extended ID: 0x18FEF000  DLC: 8  Data: 0xFF 0xFF 0xFF 0xFF 0xFF 0xFF 0xFF 0xFF
Extended ID: 0x0CF00300  DLC: 8  Data: 0xD1 0x00 0x15 0xFF 0xFF 0x0C 0x5C 0x7E
Extended ID: 0x18FEF100  DLC: 8  Data: 0xFF 0x00 0x00 0xFC 0x33 0x00 0x1F 0xCF
Extended ID: 0x0CF00203  DLC: 8  Data: 0xCC 0x00 0x00 0xFF 0xF0 0x9C 0x12 0xFF
Extended ID: 0x18FD9400  DLC: 8  Data: 0x7D 0x1A 0xFF 0xFF 0xFF 0xFF 0xFF 0xFF
Extended ID: 0x18FEBF0B  DLC: 8  Data: 0x00 0x00 0x7D 0x7D 0x7D 0x7D 0x7D 0x7D
Extended ID: 0x18F0000F  DLC: 8  Data: 0xF0 0x7D 0x7D 0xFF 0x0F 0xFF 0xFF 0x61
Extended ID: 0x0CF00203  DLC: 8  Data: 0xCC 0x00 0x00 0xFF 0xF0 0x00 0x13 0xFF
Extended ID: 0x0CF00300  DLC: 8  Data: 0xD1 0x00 0x14 0xFF 0xFF 0x0C 0x5C 0x7E
Extended ID: 0x18FEDF00  DLC: 8  Data: 0x84 0xA0 0x28 0x7D 0x7E 0xFF 0xFF 0xF0
Extended ID: 0x0CF00203  DLC: 8  Data: 0xCC 0x00 0x00 0xFF 0xF0 0x16 0x13 0xFF
Extended ID: 0x18F00F00  DLC: 8  Data: 0xFF 0xFF 0xFF 0xFF 0xFF 0xFF 0xFF 0xFF
Extended ID: 0x18FEDF00  DLC: 8  Data: 0x84 0xA0 0x28 0x7D 0x7E 0xFF 0xFF 0xF0
Extended ID: 0x18F0000F  DLC: 8  Data: 0xF0 0x7D 0x7D 0xFF 0x0F 0xFF 0xFF 0x61
Extended ID: 0x18FF5400  DLC: 8  Data: 0x64 0x7D 0xFF 0xFF 0xFF 0xFF 0xFF 0xFF
Extended ID: 0x0CF00203  DLC: 8  Data: 0xCC 0x00 0x00 0xFF 0xF0 0x92 0x12 0xFF
Extended ID: 0x18FEF10B  DLC: 8  Data: 0xFF 0x00 0x00 0xCF 0xFF 0xFF 0xFF 0xFF
Extended ID: 0x18FF5400  DLC: 8  Data: 0x64 0x7D 0xFF 0xFF 0xFF 0xFF 0xFF 0xFF
Extended ID: 0x18FEDF00  DLC: 8  Data: 0x84 0xA0 0x28 0x7D 0x7E 0xFF 0xFF 0xF0
Extended ID: 0x18F0010B  DLC: 8  Data: 0xC0 0xFF 0xC0 0xFF 0xFF 0x4D 0xFF 0x3F
Extended ID: 0x0CF00400  DLC: 8  Data: 0x00 0x7D 0x87 0xCA 0x12 0x00 0x0F 0x87
Extended ID: 0x18F00503  DLC: 8  Data: 0x7D 0x00 0x00 0x7D 0x20 0x4E 0x20 0x4E
Extended ID: 0x18F00F00  DLC: 8  Data: 0xFF 0xFF 0xFF 0xFF 0xFF 0xFF 0xFF 0xFF
Extended ID: 0x0CF00400  DLC: 8  Data: 0x60 0x7D 0x86 0xD9 0x12 0x00 0x0F 0x87
Extended ID: 0x0CF00300  DLC: 8  Data: 0xD1 0x00 0x14 0xFF 0xFF 0x0C 0x5C 0x7E
Extended ID: 0x18FEF600  DLC: 8  Data: 0xFF 0x00 0x50 0xFF 0xFF 0xFF 0xFF 0xFF
Extended ID: 0x0C010305  DLC: 8  Data: 0xFF 0xFF 0x7D 0xFF 0xFF 0xFF 0xFF 0xFF
Extended ID: 0x18FEBF0B  DLC: 8  Data: 0x00 0x00 0x7D 0x7D 0x7D 0x7D 0x7D 0x7D
Extended ID: 0x18FEDF00  DLC: 8  Data: 0x84 0xA0 0x28 0x7D 0x7E 0xFF 0xFF 0xF0
Extended ID: 0x0CF00203  DLC: 8  Data: 0xCC 0x00 0x00 0xFF 0xF0 0xBD 0x12 0xFF
Extended ID: 0x18EA1C17  DLC: 3  Data: 0xE8 0xFE 0x00
Extended ID: 0x18FEF100  DLC: 8  Data: 0xFF 0x00 0x00 0xFC 0x33 0x00 0x1F 0xCF
Extended ID: 0x0CF00203  DLC: 8  Data: 0xCC 0x00 0x00 0xFF 0xF0 0xE1 0x12 0xFF
Extended ID: 0x0CF00400  DLC: 8  Data: 0x00 0x7D 0x87 0xC4 0x12 0x00 0x0F 0x87
Extended ID: 0x18FC9600  DLC: 8  Data: 0xFD 0x00 0xFF 0xFF 0xFF 0xFF 0xFF 0xFF
Extended ID: 0x18FF4003  DLC: 8  Data: 0xC1 0xFF 0xFF 0xFB 0xF2 0x03 0xFF 0xFF
Extended ID: 0x0CF00400  DLC: 8  Data: 0x50 0x7D 0x86 0xDD 0x12 0x00 0x0F 0x87
Extended ID: 0x0CF00300  DLC: 8  Data: 0xD1 0x00 0x14 0xFF 0xFF 0x0C 0x5D 0x7E
Extended ID: 0x18FF4003  DLC: 8  Data: 0xC1 0xFF 0xFF 0xFB 0xF2 0x03 0xFF 0xFF
Extended ID: 0x0CF00203  DLC: 8  Data: 0xCC 0x00 0x00 0xFF 0xF0 0xD1 0x12 0xFF
Extended ID: 0x18F00F00  DLC: 8  Data: 0xFF 0xFF 0xFF 0xFF 0xFF 0xFF 0xFF 0xFF
Extended ID: 0x18FEF500  DLC: 8  Data: 0xC9 0xFF 0xFF 0xF2 0x23 0xFF 0xFF 0xFF
Extended ID: 0x10FCFD00  DLC: 8  Data: 0xFF 0xFF 0xFF 0xFF 0x9C 0x2E 0xFF 0xFF
Extended ID: 0x18FEA400  DLC: 8  Data: 0xFF 0xFF 0xFD 0x25 0xFF 0xFF 0x57 0x27
Extended ID: 0x18FEDF00  DLC: 8  Data: 0x84 0xA0 0x28 0x7D 0x7E 0xFF 0xFF 0xF0
Extended ID: 0x18FEF10B  DLC: 8  Data: 0xFF 0x00 0x00 0xCF 0xFF 0xFF 0xFF 0xFF
Extended ID: 0x18FE9A00  DLC: 8  Data: 0xFC 0x25 0xFF 0xFF 0xFF 0xFF 0xFF 0xFF
Extended ID: 0x0CF00300  DLC: 8  Data: 0xD1 0x00 0x14 0xFF 0xFF 0x0C 0x5D 0x7E
Extended ID: 0x18F0010B  DLC: 8  Data: 0xC0 0xFF 0xC0 0xFF 0xFF 0x4D 0xFF 0x3F
Extended ID: 0x18EF2117  DLC: 8  Data: 0x02 0x00 0x00 0x00 0xFF 0xFF 0x57 0xAE
Extended ID: 0x0CF00203  DLC: 8  Data: 0xCC 0x00 0x00 0xFF 0xF0 0xDA 0x12 0xFF
Extended ID: 0x18F00F00  DLC: 8  Data: 0xFF 0xFF 0xFF 0xFF 0xFF 0xFF 0xFF 0xFF
Extended ID: 0x0CF00300  DLC: 8  Data: 0xD1 0x00 0x13 0xFF 0xFF 0x0C 0x5C 0x7E
Extended ID: 0x18FF1F17  DLC: 8  Data: 0xFE 0x03 0xFF 0x03 0x00 0x00 0x00 0x00
Extended ID: 0x0CF00400  DLC: 8  Data: 0x50 0x7D 0x86 0xD6 0x12 0x00 0x0F 0x87
Extended ID: 0x0CF00300  DLC: 8  Data: 0xD1 0x00 0x14 0xFF 0xFF 0x0C 0x5C 0x7E
Extended ID: 0x1CEBFF00  DLC: 8  Data: 0x01 0x47 0xFF 0x21 0x06 0x1F 0x02 0x21
Extended ID: 0x0CF00400  DLC: 8  Data: 0x60 0x7D 0x86 0xC5 0x12 0x00 0x0F 0x87
Extended ID: 0x18F00F00  DLC: 8  Data: 0xFF 0xFF 0xFF 0xFF 0xFF 0xFF 0xFF 0xFF
Extended ID: 0x18FEDF00  DLC: 8  Data: 0x84 0xA0 0x28 0x7D 0x7E 0xFF 0xFF 0xF0
Extended ID: 0x10FCFD00  DLC: 8  Data: 0xFF 0xFF 0xFF 0xFF 0x96 0x2E 0xFF 0xFF
Extended ID: 0x0CF00C03  DLC: 8  Data: 0xFF 0xFF 0xC0 0x12 0xFF 0xFF 0xFF 0xFF
Extended ID: 0x18FEDF00  DLC: 8  Data: 0x84 0xA0 0x28 0x7D 0x7E 0xFF 0xFF 0xF0
Extended ID: 0x18F00E00  DLC: 8  Data: 0xFF 0xFF 0xFF 0xFF 0xFF 0xFF 0xFF 0xFF
Extended ID: 0x1CEBFF00  DLC: 8  Data: 0x03 0x21 0x0D 0x02 0x01 0x60 0x00 0x09
Extended ID: 0x0CF00203  DLC: 8  Data: 0xCC 0x00 0x00 0xFF 0xF0 0xFB 0x12 0xFF
Extended ID: 0x0C010305  DLC: 8  Data: 0xFF 0xFF 0x7D 0xFF 0xFF 0xFF 0xFF 0xFF
Extended ID: 0x18FEBF0B  DLC: 8  Data: 0x00 0x00 0x7D 0x7D 0x7D 0x7D 0x7D 0x7D
Extended ID: 0x0CF00203  DLC: 8  Data: 0xCC 0x00 0x00 0xFF 0xF0 0xE2 0x12 0xFF
Extended ID: 0x18F00F00  DLC: 8  Data: 0xFF 0xFF 0xFF 0xFF 0xFF 0xFF 0xFF 0xFF
Extended ID: 0x18F00100  DLC: 8  Data: 0xFF 0xFF 0xFF 0xFF 0xFF 0xFF 0xFF 0xFF
Extended ID: 0x0CF00300  DLC: 8  Data: 0xD1 0x00 0x14 0xFF 0xFF 0x0C 0x5C 0x7E
Extended ID: 0x18FEDF00  DLC: 8  Data: 0x84 0xA0 0x28 0x7D 0x7E 0xFF 0xFF 0xF0
Extended ID: 0x0CF00400  DLC: 8  Data: 0x70 0x7D 0x86 0xC7 0x12 0x00 0x0F 0x87
Extended ID: 0x18F00E00  DLC: 8  Data: 0xFF 0xFF 0xFF 0xFF 0xFF 0xFF 0xFF 0xFF
Extended ID: 0x18FF4003  DLC: 8  Data: 0xC1 0xFF 0xFF 0xFB 0xF2 0x03 0xFF 0xFF
Extended ID: 0x0CF00400  DLC: 8  Data: 0x50 0x7D 0x86 0xD0 0x12 0x00 0x0F 0x87
Extended ID: 0x0CF00300  DLC: 8  Data: 0xD1 0x00 0x14 0xFF 0xFF 0x0C 0x5D 0x7E
Extended ID: 0x18FEF10B  DLC: 8  Data: 0xFF 0x00 0x00 0xCF 0xFF 0xFF 0xFF 0xFF
Extended ID: 0x18FDB300  DLC: 8  Data: 0xFF 0xFF 0xC0 0x25 0xFF 0xFF 0xFF 0xFF
Extended ID: 0x0CF00400  DLC: 8  Data: 0x40 0x7D 0x86 0xD7 0x12 0x00 0x0F 0x87
Extended ID: 0x0CF00300  DLC: 8  Data: 0xD1 0x00 0x13 0xFF 0xFF 0x0C 0x5C 0x7E
Extended ID: 0x18F0000F  DLC: 8  Data: 0xF0 0x7D 0x7D 0xFF 0x0F 0xFF 0xFF 0x61
Extended ID: 0x0CF00400  DLC: 8  Data: 0x50 0x7D 0x86 0xD6 0x12 0x00 0x0F 0x87
Extended ID: 0x18EBFF17  DLC: 8  Data: 0x01 0x00 0xFF 0xF1 0x07 0x09 0x0E 0xE7
Extended ID: 0x18FEF100  DLC: 8  Data: 0xFF 0x00 0x00 0xFC 0x33 0x00 0x1F 0xCF
Extended ID: 0x0CF00203  DLC: 8  Data: 0xCC 0x00 0x00 0xFF 0xF0 0xB1 0x12 0xFF
Extended ID: 0x18F00F00  DLC: 8  Data: 0xFF 0xFF 0xFF 0xFF 0xFF 0xFF 0xFF 0xFF
Extended ID: 0x18FEDF00  DLC: 8  Data: 0x84 0xA0 0x28 0x7D 0x7E 0xFF 0xFF 0xF0
Extended ID: 0x0CF00203  DLC: 8  Data: 0xCC 0x00 0x00 0xFF 0xF0 0xC6 0x12 0xFF
Extended ID: 0x18FEF703  DLC: 8  Data: 0xFF 0xFF 0xFF 0xFF 0x0F 0x01 0x09 0x01
Extended ID: 0x0C010305  DLC: 8  Data: 0xFF 0xFF 0x7D 0xFF 0xFF 0xFF 0xFF 0xFF
Extended ID: 0x18F00E00  DLC: 8  Data: 0xFF 0xFF 0xFF 0xFF 0xFF 0xFF 0xFF 0xFF
Extended ID: 0x18FCF200  DLC: 8  Data: 0x00 0xFF 0xFF 0xFF 0xFF 0xFF 0xFF 0xFF
Extended ID: 0x0CF00203  DLC: 8  Data: 0xCC 0x00 0x00 0xFF 0xF0 0xC4 0x12 0xFF
Extended ID: 0x0C010305  DLC: 8  Data: 0xFF 0xFF 0x7D 0xFF 0xFF 0xFF 0xFF 0xFF
Extended ID: 0x10F03300  DLC: 8  Data: 0xD0 0x07 0xFF 0xFF 0xFF 0xFF 0xFF 0xFF
Extended ID: 0x0CF00C03  DLC: 8  Data: 0xFF 0xFF 0xD4 0x12 0xFF 0xFF 0xFF 0xFF
Extended ID: 0x18FEDF00  DLC: 8  Data: 0x84 0xA0 0x28 0x7D 0x7E 0xFF 0xFF 0xF0
Extended ID: 0x0CF00203  DLC: 8  Data: 0xCC 0x00 0x00 0xFF 0xF0 0xCA 0x12 0xFF
Extended ID: 0x0CF00300  DLC: 8  Data: 0xD1 0x00 0x13 0xFF 0xFF 0x0C 0x5C 0x7E
Extended ID: 0x18FEDF00  DLC: 8  Data: 0x84 0xA0 0x28 0x7D 0x7E 0xFF 0xFF 0xF0
Extended ID: 0x0CF00203  DLC: 8  Data: 0xCC 0x00 0x00 0xFF 0xF0 0xBC 0x12 0xFF
Extended ID: 0x10F03300  DLC: 8  Data: 0xD0 0x07 0xFF 0xFF 0xFF 0xFF 0xFF 0xFF
Extended ID: 0x0CF00203  DLC: 8  Data: 0xCC 0x00 0x00 0xFF 0xF0 0xE0 0x12 0xFF
Extended ID: 0x18F00F00  DLC: 8  Data: 0xFF 0xFF 0xFF 0xFF 0xFF 0xFF 0xFF 0xFF
Extended ID: 0x18F00100  DLC: 8  Data: 0xFF 0xFF 0xFF 0xFF 0xFF 0xFF 0xFF 0xFF
Extended ID: 0x0CF00203  DLC: 8  Data: 0xCC 0x00 0x00 0xFF 0xF0 0xEC 0x12 0xFF
Extended ID: 0x1CEBFF0B  DLC: 8  Data: 0x01 0x00 0xFF 0x7F 0x02 0x02 0x7F 0x15
Extended ID: 0x0C010305  DLC: 8  Data: 0xFF 0xFF 0x7D 0xFF 0xFF 0xFF 0xFF 0xFF
Extended ID: 0x18F00E00  DLC: 8  Data: 0xFF 0xFF 0xFF 0xFF 0xFF 0xFF 0xFF 0xFF
Extended ID: 0x18FEDF00  DLC: 8  Data: 0x84 0xA0 0x28 0x7D 0x7E 0xFF 0xFF 0xF0
Extended ID: 0x0CF00A00  DLC: 8  Data: 0xEF 0x08 0x89 0x0B 0xFF 0xFF 0xFF 0xFF
Extended ID: 0x0CF00300  DLC: 8  Data: 0xD1 0x00 0x13 0xFF 0xFF 0x0C 0x5C 0x7E
Extended ID: 0x18FEF100  DLC: 8  Data: 0xFF 0x00 0x00 0xFC 0x33 0x00 0x1F 0xCF
Extended ID: 0x18FDB300  DLC: 8  Data: 0xFF 0xFF 0xC9 0x25 0xFF 0xFF 0xFF 0xFF
Extended ID: 0x0CF00400  DLC: 8  Data: 0x50 0x7D 0x86 0xC1 0x12 0x00 0x0F 0x87
Extended ID: 0x0CF00300  DLC: 8  Data: 0xD1 0x00 0x14 0xFF 0xFF 0x0C 0x5D 0x7E
Extended ID: 0x18F0000F  DLC: 8  Data: 0xF0 0x7D 0x7D 0xFF 0x0F 0xFF 0xFF 0x61
Extended ID: 0x0CF00400  DLC: 8  Data: 0x40 0x7D 0x86 0xDA 0x12 0x00 0x0F 0x86
Extended ID: 0x0CF00300  DLC: 8  Data: 0xD1 0x00 0x13 0xFF 0xFF 0x0C 0x5D 0x7E
Extended ID: 0x18F00E00  DLC: 8  Data: 0xFF 0xFF 0xFF 0xFF 0xFF 0xFF 0xFF 0xFF
Extended ID: 0x0CF00203  DLC: 8  Data: 0xCC 0x00 0x00 0xFF 0xF0 0xF7 0x12 0xFF
Extended ID: 0x18F00F00  DLC: 8  Data: 0xFF 0xFF 0xFF 0xFF 0xFF 0xFF 0xFF 0xFF
Extended ID: 0x18FEDF00  DLC: 8  Data: 0x84 0xA0 0x28 0x7D 0x7E 0xFF 0xFF 0xF0
Extended ID: 0x0CF00203  DLC: 8  Data: 0xCC 0x00 0x00 0xFF 0xF0 0xD1 0x12 0xFF
Extended ID: 0x0CF00C03  DLC: 8  Data: 0xFF 0xFF 0xD6 0x12 0xFF 0xFF 0xFF 0xFF
Extended ID: 0x18FEDF00  DLC: 8  Data: 0x84 0xA0 0x28 0x7D 0x7E 0xFF 0xFF 0xF0
Extended ID: 0x0CF00203  DLC: 8  Data: 0xCC 0x00 0x00 0xFF 0xF0 0xB2 0x12 0xFF
Extended ID: 0x18FEF10B  DLC: 8  Data: 0xFF 0x00 0x00 0xCF 0xFF 0xFF 0xFF 0xFF
Extended ID: 0x18FEDF00  DLC: 8  Data: 0x84 0xA0 0x28 0x7D 0x7E 0xFF 0xFF 0xF0
Extended ID: 0x0C010305  DLC: 8  Data: 0xFF 0xFF 0x7D 0xFF 0xFF 0xFF 0xFF 0xFF
Extended ID: 0x18F0010B  DLC: 8  Data: 0xC0 0xFF 0xC0 0xFF 0xFF 0x4D 0xFF 0x3F
Extended ID: 0x18FEDF00  DLC: 8  Data: 0x84 0xA0 0x28 0x7D 0x7E 0xFF 0xFF 0xF0
Extended ID: 0x18F00F00  DLC: 8  Data: 0xFF 0xFF 0xFF 0xFF 0xFF 0xFF 0xFF 0xFF
Extended ID: 0x0CF00400  DLC: 8  Data: 0x40 0x7D 0x86 0xD6 0x12 0x00 0x0F 0x86
Extended ID: 0x0CF00300  DLC: 8  Data: 0xD1 0x00 0x13 0xFF 0xFF 0x0C 0x5C 0x7E
Extended ID: 0x18FEDF00  DLC: 8  Data: 0x84 0xA0 0x28 0x7D 0x7E 0xFF 0xFF 0xF0
Extended ID: 0x0C010305  DLC: 8  Data: 0xFF 0xFF 0x7D 0xFF 0xFF 0xFF 0xFF 0xFF
Extended ID: 0x18F0010B  DLC: 8  Data: 0xC0 0xFF 0xC0 0xFF 0xFF 0x4D 0xFF 0x3F
Extended ID: 0x18FEDF00  DLC: 8  Data: 0x84 0xA0 0x28 0x7D 0x7E 0xFF 0xFF 0xF0
Extended ID: 0x18F00F00  DLC: 8  Data: 0xFF 0xFF 0xFF 0xFF 0xFF 0xFF 0xFF 0xFF
Extended ID: 0x18F00100  DLC: 8  Data: 0xFF 0xFF 0xFF 0xFF 0xFF 0xFF 0xFF 0xFF
Extended ID: 0x0CF00203  DLC: 8  Data: 0xCC 0x00 0x00 0xFF 0xF0 0xC2 0x12 0xFF
Extended ID: 0x1CEBFF00  DLC: 8  Data: 0x01 0xC0 0x12 0xAA 0x80 0x25 0xC8 0xC0
Extended ID: 0x18FD9400  DLC: 8  Data: 0x46 0x1E 0xFF 0xFF 0xFF 0xFF 0xFF 0xFF
Extended ID: 0x0CF00203  DLC: 8  Data: 0xCC 0x00 0x00 0xFF 0xF0 0xD9 0x12 0xFF
Extended ID: 0x18F0000F  DLC: 8  Data: 0xF0 0x7D 0x7D 0xFF 0x0F 0xFF 0xFF 0x61
Extended ID: 0x0CF00203  DLC: 8  Data: 0xCC 0x00 0x00 0xFF 0xF0 0xEF 0x12 0xFF
Extended ID: 0x0CF00300  DLC: 8  Data: 0xD1 0x00 0x13 0xFF 0xFF 0x0C 0x5C 0x7E
Extended ID: 0x18FEDF00  DLC: 8  Data: 0x84 0xA0 0x28 0x7D 0x7E 0xFF 0xFF 0xF0
Extended ID: 0x0CF00203  DLC: 8  Data: 0xCC 0x00 0x00 0xFF 0xF0 0xE0 0x12 0xFF
Extended ID: 0x1CEBFF00  DLC: 8  Data: 0x03 0xC8 0x80 0x25 0xFF 0xFF 0x0D 0x0C
Extended ID: 0x18FEDF00  DLC: 8  Data: 0x84 0xA0 0x28 0x7D 0x7E 0xFF 0xFF 0xF0
Extended ID: 0x18F0000F  DLC: 8  Data: 0xF0 0x7D 0x7D 0xFF 0x0F 0xFF 0xFF 0x61
Extended ID: 0x18FF5400  DLC: 8  Data: 0x64 0x7D 0xFF 0xFF 0xFF 0xFF 0xFF 0xFF
Extended ID: 0x0CF00203  DLC: 8  Data: 0xCC 0x00 0x00 0xFF 0xF0 0xD0 0x12 0xFF
Extended ID: 0x18F00E00  DLC: 8  Data: 0xFF 0xFF 0xFF 0xFF 0xFF 0xFF 0xFF 0xFF
Extended ID: 0x10FDA300  DLC: 8  Data: 0xFF 0xFF 0x17 0xFF 0xFF 0xFF 0xFF 0xFF
Extended ID: 0x0CF00203  DLC: 8  Data: 0xCC 0x00 0x00 0xFF 0xF0 0xB1 0x12 0xFF
Extended ID: 0x1CEBFF00  DLC: 8  Data: 0x05 0x80 0x25 0xA5 0x01 0xFF 0xFF 0xFF
Extended ID: 0x0CF00203  DLC: 8  Data: 0xCC 0x00 0x00 0xFF 0xF0 0xBA 0x12 0xFF
Extended ID: 0x0CF00C03  DLC: 8  Data: 0xFF 0xFF 0xCF 0x12 0xFF 0xFF 0xFF 0xFF
Extended ID: 0x18FEDF00  DLC: 8  Data: 0x84 0xA0 0x28 0x7D 0x7E 0xFF 0xFF 0xF0
Extended ID: 0x0CF00203  DLC: 8  Data: 0xCC 0x00 0x00 0xFF 0xF0 0xDC 0x12 0xFF
Extended ID: 0x0CF00300  DLC: 8  Data: 0xD1 0x00 0x13 0xFF 0xFF 0x0C 0x5B 0x7E
Extended ID: 0x18FEDF00  DLC: 8  Data: 0x84 0xA0 0x28 0x7D 0x7E 0xFF 0xFF 0xF0
Extended ID: 0x18FF4003  DLC: 8  Data: 0xC1 0xFF 0xFF 0xFB 0xF2 0x03 0xFF 0xFF
Extended ID: 0x0CF00400  DLC: 8  Data: 0x20 0x7D 0x86 0xD9 0x12 0x00 0x0F 0x86
Extended ID: 0x18F00503  DLC: 8  Data: 0x7D 0x00 0x00 0x7D 0x20 0x4E 0x20 0x4E
Extended ID: 0x18FF4003  DLC: 8  Data: 0xC1 0xFF 0xFF 0xFB 0xF2 0x03 0xFF 0xFF
Extended ID: 0x0CF00400  DLC: 8  Data: 0x30 0x7D 0x86 0xC6 0x12 0x00 0x0F 0x86
Extended ID: 0x18FD7B00  DLC: 8  Data: 0x0A 0xFF 0x07 0x3D 0x00 0x00 0x58 0x13
Extended ID: 0x18FD9400  DLC: 8  Data: 0x46 0x1E 0xFF 0xFF 0xFF 0xFF 0xFF 0xFF
Extended ID: 0x0CF00203  DLC: 8  Data: 0xCC 0x00 0x00 0xFF 0xF0 0xC8 0x12 0xFF
Extended ID: 0x18F0000F  DLC: 8  Data: 0xF0 0x7D 0x7D 0xFF 0x0F 0xFF 0xFF 0x61
Extended ID: 0x18FD9503  DLC: 8  Data: 0xFF 0xFF 0xFF 0xFF 0xFF 0xFF 0xFF 0xFF
Extended ID: 0x18FEDF00  DLC: 8  Data: 0x84 0xA0 0x28 0x7D 0x7E 0xFF 0xFF 0xF0
Extended ID: 0x18F00E00  DLC: 8  Data: 0xFF 0xFF 0xFF 0xFF 0xFF 0xFF 0xFF 0xFF
Extended ID: 0x18EA0017  DLC: 3  Data: 0xE9 0xFE 0x00
Extended ID: 0x0CF00A00  DLC: 8  Data: 0x60 0x09 0x0F 0x0B 0xFF 0xFF 0xFF 0xFF
Extended ID: 0x0C010305  DLC: 8  Data: 0xFF 0xFF 0xDF 0xFF 0xFF 0xFF 0xFF 0xFF
Extended ID: 0x10F03300  DLC: 8  Data: 0xD0 0x07 0xFF 0xFF 0xFF 0xFF 0xFF 0xFF
Extended ID: 0x1CEBFF03  DLC: 8  Data: 0x01 0xF7 0xFF 0x46 0x00 0x0E 0x03 0x33
Extended ID: 0x18F00F00  DLC: 8  Data: 0xFF 0xFF 0xFF 0xFF 0xFF 0xFF 0xFF 0xFF
Extended ID: 0x18F00100  DLC: 8  Data: 0xFF 0xFF 0xFF 0xFF 0xFF 0xFF 0xFF 0xFF
Extended ID: 0x0CF00300  DLC: 8  Data: 0xD1 0x00 0x13 0xFF 0xFF 0x0C 0x5A 0x7E
Extended ID: 0x18FEDF00  DLC: 8  Data: 0x84 0xA0 0x28 0x7D 0x7E 0xFF 0xFF 0xF0
Extended ID: 0x0C010305  DLC: 8  Data: 0xFF 0xFF 0xDF 0xFF 0xFF 0xFF 0xFF 0xFF
Extended ID: 0x18F00E00  DLC: 8  Data: 0xFF 0xFF 0xFF 0xFF 0xFF 0xFF 0xFF 0xFF
Extended ID: 0x18FEDF00  DLC: 8  Data: 0x84 0xA0 0x28 0x7D 0x7E 0xFF 0xFF 0xF0
Extended ID: 0x0CF00203  DLC: 8  Data: 0xCC 0x00 0x00 0xFF 0xF0 0xC3 0x12 0xFF
Extended ID: 0x0CF00300  DLC: 8  Data: 0xD1 0x00 0x13 0xFF 0xFF 0x0C 0x5B 0x7E
Extended ID: 0x0CF00300  DLC: 8  Data: 0xD1 0x00 0x13 0xFF 0xFF 0x0C 0x5A 0x7E
Extended ID: 0x18FEF10B  DLC: 8  Data: 0xFF 0x00 0x00 0xCF 0xFF 0xFF 0xFF 0xFF
Extended ID: 0x0CF00400  DLC: 8  Data: 0x20 0x7D 0x86 0xD8 0x12 0x00 0x0F 0x86
Extended ID: 0x18F00E00  DLC: 8  Data: 0xFF 0xFF 0xFF 0xFF 0xFF 0xFF 0xFF 0xFF
Extended ID: 0x18FF1F17  DLC: 8  Data: 0xFE 0x03 0xFF 0x03 0x00 0x00 0x00 0x00
Extended ID: 0x0CF00400  DLC: 8  Data: 0x10 0x7D 0x86 0xCF 0x12 0x00 0x0F 0x86
Extended ID: 0x0CF00300  DLC: 8  Data: 0xD1 0x00 0x13 0xFF 0xFF 0x0C 0x5A 0x7E
Extended ID: 0x18FEF100  DLC: 8  Data: 0xFF 0x00 0x00 0xFC 0x33 0x00 0x1F 0xCF
Extended ID: 0x18FEF600  DLC: 8  Data: 0xFF 0x00 0x50 0xFF 0xFF 0xFF 0xFF 0xFF
Extended ID: 0x18F00F00  DLC: 8  Data: 0xFF 0xFF 0xFF 0xFF 0xFF 0xFF 0xFF 0xFF
Extended ID: 0x18FEDF00  DLC: 8  Data: 0x84 0xA0 0x28 0x7D 0x7E 0xFF 0xFF 0xF0
Extended ID: 0x18F0000F  DLC: 8  Data: 0xF0 0x7D 0x7D 0xFF 0x0F 0xFF 0xFF 0x61
Extended ID: 0x0CF00C03  DLC: 8  Data: 0xFF 0xFF 0xCF 0x12 0xFF 0xFF 0xFF 0xFF
Extended ID: 0x0CF00300  DLC: 8  Data: 0xD1 0x00 0x13 0xFF 0xFF 0x0C 0x5A 0x7E
Extended ID: 0x18FF4003  DLC: 8  Data: 0xC1 0xFF 0xFF 0xFB 0xF2 0x03 0xFF 0xFF
