674980 201X Ottawa 4x2 EPA 13 Cummins ISB

Time,ID,DLC,Data
(1357041611.11621) vcan0 18EEFF03#6400400000030310
(1357041611.11642) vcan0 18FECA03#00FF00000000FFFF
(1357041611.11655) vcan0 18EEFF05#0200400000050210
(1357041611.11694) vcan0 0C010305#FFFFE0FFFF3F3FFF
(1357041611.11711) vcan0 18EF0503#0AF800010000B200
(1357041611.11724) vcan0 18FE4A03#03034FE0FFF3FFFF
(1357041611.11739) vcan0 18EAFFFE#00EE00
(1357041611.11751) vcan0 0C010305#FFFFE0FFFF3F3FFF
(1357041611.11764) vcan0 18EEFF05#0200400000050210
(1357041611.11781) vcan0 18EEFF03#6400400000030310
(1357041611.11797) vcan0 0C010305#FFFFE0FFFF3F3FFF
(1357041611.11810) vcan0 18EAFF00#EBFE00
(1357041611.11823) vcan0 18EF0503#0AF800010000B200
(1357041611.11836) vcan0 18EEFF29#F3214E01000C0000
(1357041611.11849) vcan0 0C010305#FFFFE0FFFF3F3FFF
(1357041611.11863) vcan0 18FEDF00#7DA0287D7DFFFFFC
(1357041611.11876) vcan0 18FEDF00#7DA0287D7DFFFFFC
(1357041611.11889) vcan0 0CF00400#0E7D7D0000FE007D
(1357041611.11902) vcan0 0C010305#FFFFE0FFFF3F3FFF
(1357041611.11916) vcan0 18ECFF03#20110003FFEBFE00
(1357041611.11932) vcan0 18EAFF03#E3FE00
(1357041611.11944) vcan0 0CF00C03#00FB0000FFFFFFFF
(1357041611.11958) vcan0 0CF00300#C10000FFFF0F7C7D
(1357041611.11971) vcan0 0CF00A00#00000000FFFFFFFF
(1357041611.11984) vcan0 0CF00400#0E7D7D000000007D
(1357041611.11998) vcan0 0CF00300#C10000FFFF0F7C7D
(1357041612.12011) vcan0 0CF00C03#00FB0000FFFFFFFF
(1357041612.12023) vcan0 0CF00203#000000FFF7000003
(1357041612.12037) vcan0 0CF00203#000000FFF7000003
(1357041612.12050) vcan0 0CF00C03#00FB0000FFFFFFFF
(1357041612.12070) vcan0 0CF00203#000000FFF7000003
(1357041612.12086) vcan0 0CF00203#000000FFF7000003
(1357041612.12099) vcan0 0CF00300#C10000FFFF0F7C7D
(1357041612.12111) vcan0 0CF00C03#00FB0000FFFFFFFF
(1357041612.12125) vcan0 0CF00C03#00FB0000FFFFFFFF
(1357041612.12138) vcan0 0CF00300#C10000FFFF0F7C7D
(1357041612.12151) vcan0 1CEBFF00#04385E1446FF7D7D
(1357041612.12165) vcan0 0CF00C03#00FB0000FFFFFFFF
(1357041612.12178) vcan0 0CF00300#C10000FFFF0F7C7D
(1357041612.12191) vcan0 0C010305#FFFFE0FFFF3F3FFF
(1357041612.12208) vcan0 0CF00400#0E7D7D000000007D
(1357041612.12221) vcan0 18F00E00#FFFFFFFFFFFFFFFF
(1357041612.12233) vcan0 18F00F00#FFFFFFFFFFFFFFFF
(1357041612.12247) vcan0 0CF00C03#00FB0000FFFFFFFF
(1357041612.12260) vcan0 1CEBFF00#0100007D00007D00
(1357041612.12273) vcan0 18FEDF00#7DA0287D7DFFFFF0
(1357041612.12286) vcan0 0C010305#FFFFE0FFFF3F3FFF
(1357041612.12300) vcan0 0CF00300#C10000FFFF0F7C7D
(1357041612.12313) vcan0 18FEDF00#7DA0287D7DFFFFF0
(1357041612.12326) vcan0 18EF0503#0AF800010000B200
(1357041612.12343) vcan0 18FEF100#FF0000CFFFFFFFC0
(1357041612.12356) vcan0 0CF00203#000000FFF7000003
(1357041612.12368) vcan0 18F00E00#FFFFFFFFFFFFFFFF
(1357041612.12382) vcan0 0CF00300#C10000FFFF0F7C7D
(1357041612.12395) vcan0 0CF00203#000000FFF7000003
(1357041612.12408) vcan0 0CF00C03#00FB0000FFFFFFFF
(1357041612.12422) vcan0 18F00E00#FFFFFFFFFFFFFFFF
(1357041612.12435) vcan0 0CF00203#000000FFF7000003
(1357041612.12448) vcan0 10FDA300#FFFF8CFFFFFFFFFF
(1357041612.12462) vcan0 1CFE9200#FF007DFFFFFF0000
(1357041612.12480) vcan0 0CF00203#000000FFF7000003
(1357041612.12493) vcan0 10FCFD00#FFFFFFFF805FFFFF
(1357041612.12507) vcan0 0CF00C03#00FB0000FFFFFFFF
(1357041612.12520) vcan0 18F00E00#FFFFFFFFFFFFFFFF
(1357041612.12533) vcan0 18FEDF00#7DA0287D7DFFFFF0
(1357041612.12547) vcan0 0CF00C03#00FB0000FFFFFFFF
(1357041612.12559) vcan0 1CFE9200#FF0C7DFFFFFF0000
(1357041612.12572) vcan0 18FDB200#FFFFFFFF0000FFFF
(1357041612.12585) vcan0 0CF00C03#00FB0000FFFFFFFF
(1357041612.12599) vcan0 0CF00300#C10000FFFF0F7C7D
(1357041612.12615) vcan0 0CF00C03#00FB0000FFFFFFFF
(1357041612.12628) vcan0 18FD9503#CCFFFFD8FFFFFFFF
(1357041612.12642) vcan0 18FEF100#FF0000CFFFFFFFC0
(1357041612.12654) vcan0 18FECA03#00FF00000000FFFF
(1357041612.12667) vcan0 18FD4000#FF3F00FFFFFFFFFF
(1357041612.12681) vcan0 0CF00300#C10000FFFF0F7C7D
(1357041612.12694) vcan0 0CF00203#000000FFF7000003
(1357041612.12706) vcan0 0CF00C03#00FB0000FFFFFFFF
(1357041612.12720) vcan0 18F00E00#FFFFFFFFFFFFFFFF
(1357041612.12733) vcan0 18FEDF00#7DA0287D7DFFFFF0
(1357041612.12743) vcan0 0CF00C03#00FB0000FFFFFFFF
(1357041612.12756) vcan0 0CF00203#000000FFF7000003
(1357041612.12770) vcan0 18F00E00#FFFFFFFFFFFFFFFF
(1357041612.12783) vcan0 18F00F00#FFFFFFFFFFFFFFFF
(1357041612.12796) vcan0 0CF00203#000000FFF7000003
(1357041612.12809) vcan0 0CF00C03#00FB0000FFFFFFFF
(1357041612.12822) vcan0 18FEC100#5D0CA000940EA000
(1357041612.12835) vcan0 0CF00203#000000FFF7000003
(1357041612.12849) vcan0 10FDA300#FFFF69FFFFFFFFFF
(1357041612.12864) vcan0 1CFE9200#FF047DFFFFFF0000
(1357041612.12879) vcan0 18FEE000#FB660600E5660600
(1357041612.12893) vcan0 18FEDF00#7DA0287D7DFFFFF0
(1357041612.12906) vcan0 0CF00C03#00FB0000FFFFFFFF
(1357041612.12919) vcan0 18FEDD00#FF0000FFFFFFFFFF
(1357041612.12933) vcan0 18FCF200#E9FFFFFFFFFFFFFF
(1357041612.12946) vcan0 0CF00C03#00FB0000FFFFFFFF
(1357041612.12959) vcan0 1CFE9200#FF0C7DFFFFFF0000
(1357041612.12973) vcan0 18F00E00#FFFFFFFFFFFFFFFF
(1357041612.12986) vcan0 0CF00C03#00FB0000FFFFFFFF
(1357041613.13002) vcan0 0CF00300#D10000FFFF0F7C7D
(1357041613.13015) vcan0 18EBFF03#032A2A2AFFFFFFFF
(1357041613.13028) vcan0 18FCF200#F2FFFFFFFFFFFFFF
(1357041613.13041) vcan0 18FEF100#FF0000CFFFFFFFC0
(1357041613.13054) vcan0 0CF00203#000000FFF7000003
(1357041613.13068) vcan0 18FD9400#0000FFFFFFFFFFFF
(1357041613.13081) vcan0 0CF00300#D10000FFFF0F7C7D
(1357041613.13094) vcan0 0CF00203#000000FFF7000003
(1357041613.13108) vcan0 0CF00C03#00FB0000FFFFFFFF
(1357041613.13121) vcan0 18F00E00#FFFFFFFFFFFFFFFF
(1357041613.13137) vcan0 0CF00203#000000FFF7000003
(1357041613.13151) vcan0 10FDA300#FFFF4CFFFFFFFFFF
(1357041613.13163) vcan0 0CF00203#000000FFF7000003
(1357041613.13176) vcan0 18FEDF00#7DA0287D7DFFFFF0
(1357041613.13190) vcan0 0CFD9200#F0FFFFFFFFFFFFFF
(1357041613.13203) vcan0 18F00100#FFFFFFFFFFFFFFFF
(1357041613.13216) vcan0 0CF00203#000000FFF7000003
(1357041613.13230) vcan0 18FEFF00#FCC0FFFFFFFFFFFF
(1357041613.13243) vcan0 18FEF100#FF0000CFFFFFFFC0
(1357041613.13256) vcan0 1CEBFF00#0145010000FFFFFF
(1357041613.13275) vcan0 18F00E00#FFFFFFFFFFFFFFFF
(1357041613.13288) vcan0 0CF00C03#00FB0000FFFFFFFF
(1357041613.13300) vcan0 0CF00300#D10000FFFF0F7C7D
(1357041613.13314) vcan0 0CF00203#000000FFF7000003
(1357041613.13327) vcan0 18FE4A03#03134FE0FFF3FFFF
(1357041613.13340) vcan0 18FEF100#FF0000CFFFFFFFC0
(1357041613.13353) vcan0 0CF00203#000000FFF7000003
(1357041613.13367) vcan0 1CEBFF00#03FFFFFFFFFFFFFF
(1357041613.13380) vcan0 0CF00300#D10000FFFF0F7C7D
(1357041613.13393) vcan0 18FEDF00#7DA0287D7DFFFFF0
(1357041613.13410) vcan0 0CF00C03#00FB0000FFFFFFFF
(1357041613.13423) vcan0 18F03300#D007FFFFFFFFFFFF
(1357041613.13435) vcan0 0CF00203#000000FFF7000003
(1357041613.13449) vcan0 0C010305#FFFFE0FFFF3F3FFF
(1357041613.13462) vcan0 1CFE9200#FF047DFFFFFF0000
(1357041613.13475) vcan0 1CEBFF00#05FFFFFFFFAD8B01
(1357041613.13489) vcan0 0CF00400#0E7D7D000000007D
(1357041613.13502) vcan0 0CF00300#D10000FFFF0F7C7D
(1357041613.13515) vcan0 0CF00203#000000FFF7000003
(1357041613.13529) vcan0 18FCF200#FAFFFFFFFFFFFFFF
(1357041613.13545) vcan0 18FEF100#FF0000CFFFFFFFC0
(1357041613.13558) vcan0 0CF00300#D10000FFFF0F7C7D
(1357041613.13572) vcan0 18F00E00#FFFFFFFFFFFFFFFF
(1357041613.13585) vcan0 0CF00400#0E7D7D000000007D
(1357041613.13597) vcan0 18FD8C00#FFFF0000FFFFFFFF
(1357041613.13611) vcan0 0CF00C03#00FB0000FFFFFFFF
(1357041613.13624) vcan0 0CF00400#0E7D7D000000007D
(1357041613.13637) vcan0 0CF00203#000000FFF7000003
(1357041613.13650) vcan0 10FDA300#FFFF26FFFFFFFFFF
(1357041613.13667) vcan0 0CF00203#000000FFF7000003
(1357041613.13682) vcan0 0CF00300#D10000FFFF0F7C7D
(1357041613.13694) vcan0 1CEBFF00#01E015B53052BDE8
(1357041613.13708) vcan0 18FEEF00#FFFFFF00007DFFFA
(1357041613.13721) vcan0 18F00E00#FFFFFFFFFFFFFFFF
(1357041613.13734) vcan0 0CF00203#000000FFF7000003
(1357041613.13747) vcan0 10FDA300#FFFF26FFFFFFFFFF
(1357041613.13760) vcan0 1CFE9200#FF007DFFFFFF0000
(1357041613.13773) vcan0 18FD6E00#FFFFFFFFFF1200FF
(1357041613.13787) vcan0 0C010305#FFFFE0FFFF3F3FFF
(1357041613.13803) vcan0 0CF00300#D10000FFFF0F7C7D
(1357041613.13815) vcan0 18EAFF00#EBFE00
(1357041613.13828) vcan0 18FCF200#FAFFFFFFFFFFFFFF
(1357041613.13841) vcan0 18FEF100#FF0000CFFFFFFFC0
(1357041613.13854) vcan0 0CF00203#000000FFF7000003
(1357041613.13868) vcan0 18FD7B00#0FFF851A0100CC82
(1357041613.13880) vcan0 0CF00300#D10000FFFF0F7C7D
(1357041613.13893) vcan0 10FCFD00#FFFFFFFF805FFFFF
(1357041613.13906) vcan0 0CF00C03#00FB0000FFFFFFFF
(1357041613.13920) vcan0 18FEDD00#FF0000FFFFFFFFFF
(1357041613.13936) vcan0 18FEDF00#7DA0287D7DFFFFF0
(1357041613.13949) vcan0 10FDA300#FFFF26FFFFFFFFFF
(1357041613.13962) vcan0 18FEBD00#00F00000FFFFFFFF
(1357041613.13975) vcan0 18FEDF00#7DA0287D7DFFFFF0
(1357041613.13988) vcan0 0CF00C03#00FB0000FFFFFFFF
(1357041614.14002) vcan0 0CF00300#D10000FFFF0F7C7D
(1357041614.14015) vcan0 18EBFF03#032A2A2AFFFFFFFF
(1357041614.14028) vcan0 18FCF200#FAFFFFFFFFFFFFFF
(1357041614.14042) vcan0 18FEF100#FF0000CFFFFFFFC0
(1357041614.14055) vcan0 0CF00203#000000FFF7000003
(1357041614.14071) vcan0 18FD9400#0000FFFFFFFFFFFF
(1357041614.14087) vcan0 0CF00400#0E7D7D000000007D
(1357041614.14100) vcan0 0CF00300#D10000FFFF0F7C7D
(1357041614.14113) vcan0 18FEDF00#7DA0287D7DFFFFF0
(1357041614.14126) vcan0 18F00503#7D00007D204E204E
(1357041614.14139) vcan0 18FEF100#FF0000CFFFFFFFC0
(1357041614.14152) vcan0 10FDA300#FFFF26FFFFFFFFFF
(1357041614.14166) vcan0 0CF00C03#00FB0000FFFFFFFF
(1357041614.14179) vcan0 0CF00300#D10000FFFF0F7C7D
(1357041614.14192) vcan0 1CEBFF00#05313335332A2A2A
(1357041614.14209) vcan0 0CF00C03#00FB0000FFFFFFFF
(1357041614.14222) vcan0 18F00E00#FFFFFFFFFFFFFFFF
(1357041614.14235) vcan0 18F00F00#FFFFFFFFFFFFFFFF
(1357041614.14248) vcan0 10FDA300#FFFF26FFFFFFFFFF
(1357041614.14262) vcan0 1CFE9200#FF087DFFFFFF0000
(1357041614.14274) vcan0 0CF00203#000000FFF7000003
(1357041614.14287) vcan0 0CF00C03#00FB0000FFFFFFFF
(1357041614.14301) vcan0 1CECFF00#20280006FF98FD00
(1357041614.14314) vcan0 0CF00203#000000FFF7000003
(1357041614.14327) vcan0 18FE4A03#03134FE0FFF3FFFF
(1357041614.14344) vcan0 18FEF100#FF0000CFFFFFFFC0
(1357041614.14357) vcan0 1CEBFF00#0145010000FFFFFF
(1357041614.14370) vcan0 18F00E00#FFFFFFFFFFFFFFFF
(1357041614.14384) vcan0 18F00F00#FFFFFFFFFFFFFFFF
(1357041614.14397) vcan0 0CF00203#000000FFF7000003
(1357041614.14409) vcan0 1CEBFF00#02FFFFFFFFFFFFFF
(1357041614.14423) vcan0 18F03300#D007FFFFFFFFFFFF
(1357041614.14436) vcan0 0CF00203#000000FFF7000003
(1357041614.14449) vcan0 10FDA300#FFFF26FFFFFFFFFF
(1357041614.14462) vcan0 1CFE9200#FF0C7DFFFFFF0000
(1357041614.14481) vcan0 0CF00203#000000FFF7000003
(1357041614.14494) vcan0 0CF00203#000000FFF7000003
(1357041614.14508) vcan0 0CF00C03#00FB0000FFFFFFFF
(1357041614.14521) vcan0 1CEBFF00#04FFFFFFFFFFFFFF
(1357041614.14534) vcan0 18F00F00#FFFFFFFFFFFFFFFF
(1357041614.14547) vcan0 0CF00C03#00FB0000FFFFFFFF
(1357041614.14560) vcan0 1CFE9200#FF007DFFFFFF0000
(1357041614.14573) vcan0 18F03300#D007FFFFFFFFFFFF
(1357041614.14586) vcan0 0CF00C03#00FB0000FFFFFFFF
(1357041614.14600) vcan0 0CF00300#D10000FFFF0F7C7D
(1357041614.14616) vcan0 18FEDF00#7DA0287D7DFFFFF0
(1357041614.14629) vcan0 1CECFF00#200A0002FFCAFE00
(1357041614.14643) vcan0 18FD3E00#903AFF8934FFFFFF
(1357041614.14656) vcan0 18FECA03#00FF00000000FFFF
(1357041614.14669) vcan0 18FD9400#0000FFFFFFFFFFFF
(1357041614.14683) vcan0 0CF00300#D10000FFFF0F7C7D
(1357041614.14696) vcan0 0CF00203#000000FFF7000003
(1357041614.14708) vcan0 18FEEF00#FFFFFF00007DFFFA
(1357041614.14722) vcan0 18F00E00#FFFFFFFFFFFFFFFF
(1357041614.14738) vcan0 18F00F00#FFFFFFFFFFFFFFFF
(1357041614.14751) vcan0 10FDA300#FFFF26FFFFFFFFFF
(1357041614.14765) vcan0 0CF00400#0E7D7D000000007D
(1357041614.14778) vcan0 18FEE000#FB660600E5660600
(1357041614.14790) vcan0 0CF00C03#00FB0000FFFFFFFF
(1357041614.14803) vcan0 0CF00203#000000FFF7000003
(1357041614.14817) vcan0 18EAFF00#EBFE00
(1357041614.14829) vcan0 18FCF200#FAFFFFFFFFFFFFFF
(1357041614.14842) vcan0 18FEF100#FF0000CFFFFFFFC0
(1357041614.14856) vcan0 0CF00203#000000FFF7000003
(1357041614.14871) vcan0 0CF00A00#00000000FFFFFFFF
(1357041614.14886) vcan0 0CF00400#0E7D7D000000007D
(1357041614.14900) vcan0 0C010305#FFFFE0FFFF3F3FFF
(1357041614.14913) vcan0 0CF00C03#00FB0000FFFFFFFF
(1357041614.14925) vcan0 18F00503#7D00007D204E204E
(1357041614.14939) vcan0 0CFD9200#F0FFFFFFFFFFFFFF
(1357041614.14952) vcan0 0C010305#FFFFE0FFFF3F3FFF
(1357041614.14965) vcan0 0CF00C03#00FB0000FFFFFFFF
(1357041614.14978) vcan0 0CF00300#D10000FFFF0F7C7D
(1357041614.14991) vcan0 0CF00C03#00FB0000FFFFFFFF
(1357041615.15007) vcan0 18FEF500#C6FFFFAD25FFFFFF
(1357041615.15021) vcan0 18F00E00#FFFFFFFFFFFFFFFF
(1357041615.15034) vcan0 18F00F00#FFFFFFFFFFFFFFFF
(1357041615.15047) vcan0 0CF00C03#00FB0000FFFFFFFF
(1357041615.15060) vcan0 1CFE9200#FF187DFFFFFF0000
(1357041615.15074) vcan0 18FDB200#FFFFFFFF0000FFFF
(1357041615.15086) vcan0 0CF00C03#00FB0000FFFFFFFF
(1357041615.15126) vcan0 0CF00300#D10000FFFF0F7C7D
(1357041615.15139) vcan0 18FEF100#FF0000CFFFFFFFC0
(1357041615.15153) vcan0 18FEDF00#7DA0287D7DFFFFF0
(1357041615.15169) vcan0 0CF00C03#00FB0000FFFFFFFF
(1357041615.15182) vcan0 18FEF200#000000003D03FAFF
(1357041615.15196) vcan0 0CF00203#000000FFF7000003
(1357041615.15209) vcan0 18FEEF00#FFFFFF00007DFFFA
(1357041615.15222) vcan0 18F00E00#FFFFFFFFFFFFFFFF
(1357041615.15236) vcan0 18F00F00#FFFFFFFFFFFFFFFF
(1357041615.15249) vcan0 10FDA300#FFFF26FFFFFFFFFF
(1357041615.15262) vcan0 1CFE9200#FF0C7DFFFFFF0000
(1357041615.15276) vcan0 0CF00203#000000FFF7000003
(1357041615.15289) vcan0 0C010305#FFFFE0FFFF3F3FFF
(1357041615.15305) vcan0 0CF00300#D10000FFFF0F7C7D
(1357041615.15324) vcan0 0CF00A00#00000000FFFFFFFF
(1357041615.15337) vcan0 0C010305#FFFFE0FFFF3F3FFF
(1357041615.15350) vcan0 10FDA300#FFFF26FFFFFFFFFF
(1357041615.15364) vcan0 1CFE9200#FF087DFFFFFF0000
(1357041615.15377) vcan0 18FEDF00#7DA0287D7DFFFFF0
(1357041615.15390) vcan0 0CF00C03#00FB0000FFFFFFFF
(1357041615.15403) vcan0 18F00100#FFFFFFFFFFFFFFFF
(1357041615.15416) vcan0 0CF00203#000000FFF7000003
(1357041615.15429) vcan0 18FCF200#FAFFFFFFFFFFFFFF
(1357041615.15446) vcan0 0CFD9200#F0FFFFFFFFFFFFFF
(1357041615.15459) vcan0 1CFE9200#FF007DFFFFFF0000
(1357041615.15472) vcan0 18F00E00#FFFFFFFFFFFFFFFF
(1357041615.15485) vcan0 0CF00C03#00FB0000FFFFFFFF
(1357041615.15499) vcan0 0CF00300#D10000FFFF0F7C7D
(1357041615.15512) vcan0 14FC9800#FF000000000000FF
(1357041615.15525) vcan0 0CF00C03#00FB0000FFFFFFFF
(1357041615.15538) vcan0 18FEF100#FF0000CFFFFFFFC0
(1357041615.15551) vcan0 10FDA300#FFFF26FFFFFFFFFF
(1357041615.15564) vcan0 0CF00C03#00FB0000FFFFFFFF
(1357041615.15581) vcan0 18FEE000#FB660600E5660600
(1357041615.15594) vcan0 10FCFD00#FFFFFFFF805FFFFF
(1357041615.15607) vcan0 0CF00C03#00FB0000FFFFFFFF
(1357041615.15621) vcan0 18F00E00#FFFFFFFFFFFFFFFF
(1357041615.15634) vcan0 0CF00203#000000FFF7000003
(1357041615.15647) vcan0 0CF00C03#00FB0000FFFFFFFF
(1357041615.15661) vcan0 1CFE9200#FF0C7DFFFFFF0000
(1357041615.15674) vcan0 0CF00203#000000FFF7000003
(1357041615.15687) vcan0 0CF00C03#00FB0000FFFFFFFF
(1357041615.15699) vcan0 0CF00300#D10000FFFF0F7C7D
(1357041615.15711) vcan0 18FEDF00#7DA0287D7DFFFFF0
(1357041615.15726) vcan0 0CF00400#0E7D7D000000007D
(1357041615.15739) vcan0 18FEF100#FF0000CFFFFFFFC0
(1357041615.15753) vcan0 10FDA300#FFFF26FFFFFFFFFF
(1357041615.15766) vcan0 0CF00C03#00FB0000FFFFFFFF
(1357041615.15779) vcan0 18FDC600#FC04FFFFFFFFFFFF
(1357041615.15793) vcan0 0CF00C03#00FB0000FFFFFFFF
(1357041615.15806) vcan0 0CF00C03#00FB0000FFFFFFFF
(1357041615.15819) vcan0 0C010305#FFFFE0FFFF3F3FFF
(1357041615.15835) vcan0 18FCF200#FAFFFFFFFFFFFFFF
(1357041615.15848) vcan0 10FDA300#FFFF26FFFFFFFFFF
(1357041615.15861) vcan0 1CFE9200#FF047DFFFFFF0000
(1357041615.15875) vcan0 18FEDF00#7DA0287D7DFFFFF0
(1357041615.15888) vcan0 0CF00C03#00FB0000FFFFFFFF
(1357041615.15900) vcan0 0CF00300#D10000FFFF0F7C7D
(1357041615.15913) vcan0 0CF00203#000000FFF7000003
(1357041615.15927) vcan0 18EF0503#0AFC000123014E4E
(1357041615.15940) vcan0 0CFD9200#F0FFFFFFFFFFFFFF
(1357041615.15952) vcan0 18FEDF00#7DA0287D7DFFFFF0
(1357041615.15969) vcan0 18EBFF03#0230303020524453
(1357041615.15982) vcan0 1CEBFF00#0336373030303030
(1357041615.15995) vcan0 10FCFD00#FFFFFFFF805FFFFF
(1357041616.16008) vcan0 14FC9800#FF000000000000FF
(1357041616.16021) vcan0 18F00E00#FFFFFFFFFFFFFFFF
(1357041616.16034) vcan0 18F00F00#FFFFFFFFFFFFFFFF
(1357041616.16048) vcan0 10FDA300#FFFF26FFFFFFFFFF
(1357041616.16061) vcan0 0C010305#FFFFE0FFFF3F3FFF
(1357041616.16073) vcan0 0CF00203#000000FFF7000003
(1357041616.16087) vcan0 0CF00C03#00FB0000FFFFFFFF
(1357041616.16103) vcan0 0CF00300#D10000FFFF0F7C7D
(1357041616.16116) vcan0 0CF00203#000000FFF7000003
(1357041616.16132) vcan0 18FCF200#FAFFFFFFFFFFFFFF
(1357041616.16145) vcan0 0CF00C03#00FB0000FFFFFFFF
(1357041616.16158) vcan0 18FCDC00#BFFFFFFFFFFF0000
(1357041616.16172) vcan0 18F00E00#FFFFFFFFFFFFFFFF
(1357041616.16184) vcan0 0CF00400#0E7D7D000000007D
(1357041616.16197) vcan0 10FCFD00#FFFFFFFF805FFFFF
(1357041616.16210) vcan0 18FEEF00#FFFFFF00007DFFFA
(1357041616.16224) vcan0 0CF00203#000000FFF7000003
(1357041616.16240) vcan0 18F00F00#FFFFFFFFFFFFFFFF
(1357041616.16253) vcan0 0CF00203#000000FFF7000003
(1357041616.16267) vcan0 0CF00C03#00FB0000FFFFFFFF
(1357041616.16280) vcan0 18FDC600#FC04FFFFFFFFFFFF
(1357041616.16293) vcan0 18FEDF00#7DA0287D7DFFFFF0
(1357041616.16307) vcan0 0CF00C03#00FB0000FFFFFFFF
(1357041616.16320) vcan0 18F00E00#FFFFFFFFFFFFFFFF
(1357041616.16333) vcan0 18FEDF00#7DA0287D7DFFFFF0
(1357041616.16347) vcan0 0CF00C03#00FB0000FFFFFFFF
(1357041616.16359) vcan0 1CFE9200#FF0C7DFFFFFF0000
(1357041616.16375) vcan0 18F00E00#FFFFFFFFFFFFFFFF
(1357041616.16389) vcan0 0CF00C03#00FB0000FFFFFFFF
(1357041616.16402) vcan0 0C010305#FFFFE0FFFF3F3FFF
(1357041616.16415) vcan0 0CF00203#000000FFF7000003
(1357041616.16429) vcan0 18FCF200#FAFFFFFFFFFFFFFF
(1357041616.16442) vcan0 0CFD9200#F0FFFFFFFFFFFFFF
(1357041616.16455) vcan0 0CF00203#000000FFF7000003
(1357041616.16468) vcan0 18FD9400#0000FFFFFFFFFFFF
(1357041616.16482) vcan0 0CF00300#D10000FFFF0F7C7D
(1357041616.16494) vcan0 10FCFD00#FFFFFFFF805FFFFF
(1357041616.16510) vcan0 14FC9800#FF000000000000FF
(1357041616.16526) vcan0 0CF00400#0E7D7D000000007D
(1357041616.16539) vcan0 18FEF100#FF0000CFFFFFFFC0
(1357041616.16552) vcan0 10FDA300#FFFF26FFFFFFFFFF
(1357041616.16566) vcan0 0CF00C03#00FB0000FFFFFFFF
(1357041616.16579) vcan0 0CF00300#D10000FFFF0F7C7D
(1357041616.16592) vcan0 1CEBFF00#0147F362051F0139
(1357041616.16606) vcan0 0CF00C03#00FB0000FFFFFFFF
(1357041616.16619) vcan0 0CF00300#D10000FFFF0F7C7D
(1357041616.16635) vcan0 18FEF803#FFFFFFFF5A29FBDE
(1357041616.16649) vcan0 10FDA300#FFFF26FFFFFFFFFF
(1357041616.16661) vcan0 1CFE9200#FFFC7CFFFFFF0000
(1357041616.16674) vcan0 18FEDF00#7DA0287D7DFFFFF0
(1357041616.16688) vcan0 18FCC500#8C3AFFFFFFFFFFFF
(1357041616.16701) vcan0 0CF00300#D10000FFFF0F7C7D
(1357041616.16714) vcan0 0CF00203#000000FFF7000003
(1357041616.16728) vcan0 18FE4A03#03134FE0FFF3FFFF
(1357041616.16741) vcan0 18FEF100#FF0000CFFFFFFFC0
(1357041616.16754) vcan0 0CF00203#000000FFF7000003
(1357041616.16771) vcan0 0CF00C03#00FB0000FFFFFFFF
(1357041616.16784) vcan0 18F00F00#FFFFFFFFFFFFFFFF
(1357041616.16797) vcan0 10FCFD00#FFFFFFFF805FFFFF
(1357041616.16811) vcan0 0CF00C03#00FB0000FFFFFFFF
(1357041616.16824) vcan0 18F03300#D007FFFFFFFFFFFF
(1357041616.16836) vcan0 0C010305#FFFFE0FFFF3F3FFF
(1357041616.16849) vcan0 10FDA300#FFFF26FFFFFFFFFF
(1357041616.16863) vcan0 1CFE9200#FF087DFFFFFF0000
(1357041616.16876) vcan0 18FEDF00#7DA0287D7DFFFFF0
(1357041616.16889) vcan0 0CF00C03#00FB0000FFFFFFFF
(1357041616.16906) vcan0 18F00100#FFFFFFFFFFFFFFFF
(1357041616.16919) vcan0 18FEF000#FFFFFFFFFFFFFFFF
(1357041616.16934) vcan0 0C010305#FFFFE0FFFF3F3FFF
(1357041616.16947) vcan0 0CF00C03#00FB0000FFFFFFFF
(1357041616.16960) vcan0 18FEBD00#00F00000FFFFFFFF
(1357041616.16973) vcan0 18F03300#D007FFFFFFFFFFFF
(1357041616.16987) vcan0 0CF00400#0E7D7D000000007D
(1357041617.17000) vcan0 0CF00300#D10000FFFF0F7C7D
(1357041617.17012) vcan0 14FC9800#FF000000000000FF
(1357041617.17026) vcan0 18F00503#7D00007D204E204E
(1357041617.17042) vcan0 18FEF100#FF0000CFFFFFFFC0
(1357041617.17055) vcan0 18EF0503#0AFC000123014E4E
(1357041617.17068) vcan0 0CF00A00#00000000FFFFFFFF
(1357041617.17081) vcan0 0CF00300#D10000FFFF0F7C7D
(1357041617.17094) vcan0 10FCFD00#FFFFFFFF805FFFFF
(1357041617.17107) vcan0 0CF00C03#00FB0000FFFFFFFF
(1357041617.17120) vcan0 18FEFC00#FFFAFFFFFFFFFFFF
(1357041617.17133) vcan0 18FEDF00#7DA0287D7DFFFFF0
(1357041617.17146) vcan0 1CEBFF00#062A2A2A2A2A2A2A
(1357041617.17160) vcan0 1CFE9200#FF187DFFFFFF0000
(1357041617.17176) vcan0 18F00E00#FFFFFFFFFFFFFFFF
(1357041617.17189) vcan0 0CFD9200#F0FFFFFFFFFFFFFF
(1357041617.17202) vcan0 1CECFF00#20280006FF98FD00
(1357041617.17215) vcan0 0CF00203#000000FFF7000003
(1357041617.17228) vcan0 18FCF200#FAFFFFFFFFFFFFFF
(1357041617.17242) vcan0 18FEF100#FF0000CFFFFFFFC0
(1357041617.17255) vcan0 18EF0503#0AFC000123014E4E
(1357041617.17268) vcan0 18FD9400#0000FFFFFFFFFFFF
(1357041617.17282) vcan0 18FDC600#FC04FFFFFFFFFFFF
(1357041617.17295) vcan0 10FCFD00#FFFFFFFF805FFFFF
(1357041617.17311) vcan0 0CF00C03#00FB0000FFFFFFFF
(1357041617.17325) vcan0 0CF00400#0E7D7D000000007D
(1357041617.17340) vcan0 18F00F00#FFFFFFFFFFFFFFFF
(1357041617.17353) vcan0 10FDA300#FFFF26FFFFFFFFFF
(1357041617.17367) vcan0 1CEBFF00#03FFFFFFFFFFFFFF
(1357041617.17379) vcan0 0CF00300#D10000FFFF0F7C7D
(1357041617.17392) vcan0 0CF00C03#00FB0000FFFFFFFF
(1357041617.17405) vcan0 0CF00C03#00FB0000FFFFFFFF
(1357041617.17419) vcan0 18FEF000#FFFFFFFFFFFFFFFF
(1357041617.17432) vcan0 18FCF200#FAFFFFFFFFFFFFFF
(1357041617.17443) vcan0 0CF00C03#00FB0000FFFFFFFF
(1357041617.17457) vcan0 18EF0503#0AFC000123014E4E
(1357041617.17470) vcan0 18F00E00#FFFFFFFFFFFFFFFF
(1357041617.17483) vcan0 18FD0700#430FFCFFFFFFFFFF
(1357041617.17496) vcan0 10FCFD00#FFFFFFFF805FFFFF
(1357041617.17509) vcan0 14FC9800#FF000000000000FF
(1357041617.17522) vcan0 18F00E00#FFFFFFFFFFFFFFFF
(1357041617.17536) vcan0 18F00F00#FFFFFFFFFFFFFFFF
(1357041617.17549) vcan0 10FDA300#FFFF26FFFFFFFFFF
(1357041617.17565) vcan0 0C010305#FFFFE0FFFF3F3FFF
(1357041617.17579) vcan0 0CF00300#D10000FFFF0F7C7D
(1357041617.17592) vcan0 1CEBFF00#0147F362051F0139
(1357041617.17605) vcan0 0CF00C03#00FB0000FFFFFFFF
(1357041617.17618) vcan0 18FD2000#FC2FFFFFFFFFFFFF
(1357041617.17631) vcan0 18FCF200#FAFFFFFFFFFFFFFF
(1357041617.17644) vcan0 0CF00400#0E7D7D000000007D
(1357041617.17657) vcan0 0C010305#FFFFE0FFFF3F3FFF
(1357041617.17671) vcan0 18F00E00#FFFFFFFFFFFFFFFF
(1357041617.17684) vcan0 0CF00203#000000FFF7000003
(1357041617.17700) vcan0 10FCFD00#FFFFFFFF805FFFFF
(1357041617.17714) vcan0 18FEDF00#7DA0287D7DFFFFF0
(1357041617.17727) vcan0 18FE4A03#03134FE0FFF3FFFF
(1357041617.17742) vcan0 18FEF100#FF0000CFFFFFFFC0
(1357041617.17756) vcan0 18FEF600#FF0063FFFFFFFFFF
(1357041617.17769) vcan0 18FD9400#0000FFFFFFFFFFFF
(1357041617.17782) vcan0 18FDC600#FC04FFFFFFFFFFFF
(1357041617.17796) vcan0 10FCFD00#FFFFFFFF805FFFFF
(1357041617.17809) vcan0 0CF00C03#00FB0000FFFFFFFF
(1357041617.17821) vcan0 18F00E00#FFFFFFFFFFFFFFFF
(1357041617.17838) vcan0 18F00F00#FFFFFFFFFFFFFFFF
(1357041617.17851) vcan0 0C010305#FFFFE0FFFF3F3FFF
(1357041617.17864) vcan0 0CF00400#0E7D7D000000007D
(1357041617.17878) vcan0 18FEE000#FB660600E5660600
(1357041617.17891) vcan0 0CF00C03#00FB0000FFFFFFFF
(1357041617.17904) vcan0 0CF00400#0E7D7D000000007D
(1357041617.17917) vcan0 18EBFF03#01414C4C534E2A33
(1357041617.17931) vcan0 18FCF200#FAFFFFFFFFFFFFFF
(1357041617.17944) vcan0 0CF00203#000000FFF7000003
(1357041617.17957) vcan0 18EF0503#0AFC000123014E4E
(1357041617.17974) vcan0 18F00E00#FFFFFFFFFFFFFFFF
(1357041617.17986) vcan0 0CF00C03#00FB0000FFFFFFFF
(1357041617.17999) vcan0 0CF00300#D10000FFFF0F7C7D
(1357041618.18013) vcan0 14FC9800#FF000000000000FF
(1357041618.18026) vcan0 18F00503#7D00007D204E204E
(1357041618.18038) vcan0 18FEF100#FF0000CFFFFFFFC0
(1357041618.18052) vcan0 10FDA300#FFFF26FFFFFFFFFF
(1357041618.18065) vcan0 0CF00C03#00FB0000FFFFFFFF
(1357041618.18078) vcan0 18FEE000#FB660600E5660600
(1357041618.18091) vcan0 1CEBFF00#05313335332A2A2A
(1357041618.18107) vcan0 0CF00400#0E7D7D000000007D
(1357041618.18120) vcan0 18FEFC00#FFFAFFFFFFFFFFFF
(1357041618.18134) vcan0 18FEDF00#7DA0287D7DFFFFF0
(1357041618.18148) vcan0 1CEBFF00#062A2A2A2A2A2A2A
(1357041618.18161) vcan0 1CFE9200#FF0C7DFFFFFF0000
(1357041618.18174) vcan0 18FD6E00#FFFFFFFFFF1200FF
(1357041618.18188) vcan0 0CF00C03#00FB0000FFFFFFFF
(1357041618.18201) vcan0 1CECFF00#20280006FF98FD00
(1357041618.18213) vcan0 0CF00203#000000FFF7000003
(1357041618.18227) vcan0 18FE4A03#03134FE0FFF3FFFF
(1357041618.18243) vcan0 18FEF100#FF0000CFFFFFFFC0
(1357041618.18256) vcan0 1CEBFF00#0145010000FFFFFF
(1357041618.18270) vcan0 18F00E00#FFFFFFFFFFFFFFFF
(1357041618.18283) vcan0 18FEF200#000000003D03FAFF
(1357041618.18296) vcan0 10FCFD00#FFFFFFFF805FFFFF
(1357041618.18310) vcan0 1CEBFF00#02FFFFFFFFFFFFFF
(1357041618.18322) vcan0 18F00E00#FFFFFFFFFFFFFFFF
(1357041618.18335) vcan0 0C010305#FFFFE0FFFF3F3FFF
(1357041618.18349) vcan0 10FDA300#FFFF26FFFFFFFFFF
(1357041618.18365) vcan0 1CFE9200#FF147DFFFFFF0000
(1357041618.18378) vcan0 0CF00300#D10000FFFF0F7C7D
(1357041618.18392) vcan0 0CF00C03#00FB0000FFFFFFFF
(1357041618.18405) vcan0 0CF00C03#00FB0000FFFFFFFF
(1357041618.18418) vcan0 0CF00300#D10000FFFF0F7C7D
(1357041618.18432) vcan0 18FCF200#FAFFFFFFFFFFFFFF
(1357041618.18445) vcan0 0CF00400#0E7D7D000000007D
(1357041618.18458) vcan0 18FCDC00#BFFFFFFFFFFF0000
(1357041618.18471) vcan0 18F00E00#FFFFFFFFFFFFFFFF
(1357041618.18484) vcan0 0CF00203#000000FFF7000003
(1357041618.18500) vcan0 10FCFD00#FFFFFFFF805FFFFF
(1357041618.18513) vcan0 0CF00203#000000FFF7000003
(1357041618.18527) vcan0 18FE4A03#03134FE0FFF3FFFF
(1357041618.18542) vcan0 18FEF100#FF0000CFFFFFFFC0
(1357041618.18555) vcan0 18EF0503#0AFC000123014E4E
(1357041618.18569) vcan0 18FD9400#0000FFFFFFFFFFFF
(1357041618.18582) vcan0 0CF00300#D10000FFFF0F7C7D
(1357041618.18595) vcan0 10FCFD00#FFFFFFFF805FFFFF
(1357041618.18609) vcan0 0CF00C03#00FB0000FFFFFFFF
(1357041618.18622) vcan0 18F00E00#FFFFFFFFFFFFFFFF
(1357041618.18638) vcan0 18F00F00#FFFFFFFFFFFFFFFF
(1357041618.18651) vcan0 10FDA300#FFFF26FFFFFFFFFF
(1357041618.18664) vcan0 0CF00400#0E7D7D000000007D
(1357041618.18677) vcan0 18FEDF00#7DA0287D7DFFFFF0
(1357041618.18691) vcan0 0CFD9200#F0FFFFFFFFFFFFFF
(1357041618.18704) vcan0 0CF00203#000000FFF7000003
(1357041618.18717) vcan0 0CF00203#000000FFF7000003
(1357041618.18731) vcan0 18FCF200#FAFFFFFFFFFFFFFF
(1357041618.18744) vcan0 0CF00203#000000FFF7000003
(1357041618.18757) vcan0 18EF0503#0AFC000123014E4E
(1357041618.18774) vcan0 18F00E00#FFFFFFFFFFFFFFFF
(1357041618.18786) vcan0 0CF00C03#00FB0000FFFFFFFF
(1357041618.18799) vcan0 0CF00300#D10000FFFF0F7C7D
(1357041618.18812) vcan0 1CEBFF00#03CC8057FFFFFE03
(1357041618.18826) vcan0 18F00503#7D00007D204E204E
(1357041618.18839) vcan0 18FEF100#FF0000CFFFFFFFC0
(1357041618.18852) vcan0 10FDA300#FFFF26FFFFFFFFFF
(1357041618.18866) vcan0 18ECFF03#20110003FFEBFE00
(1357041618.18879) vcan0 0CF00300#D10000FFFF0F7C7D
(1357041618.18892) vcan0 0CF00C03#00FB0000FFFFFFFF
(1357041618.18909) vcan0 0CF00C03#00FB0000FFFFFFFF
(1357041618.18922) vcan0 18F00E00#FFFFFFFFFFFFFFFF
(1357041618.18935) vcan0 18F00F00#FFFFFFFFFFFFFFFF
(1357041618.18951) vcan0 10FDA300#FFFF26FFFFFFFFFF
(1357041618.18963) vcan0 18FEBD00#00F00000FFFFFFFF
(1357041618.18976) vcan0 18FEDF00#7DA0287D7DFFFFF0
(1357041618.18990) vcan0 0CF00C03#00FB0000FFFFFFFF
(1357041619.19003) vcan0 18FD7C00#F8830100C31F03FF
(1357041619.19016) vcan0 18EBFF03#032A2A2AFFFFFFFF
(1357041619.19030) vcan0 18FCF200#FAFFFFFFFFFFFFFF
(1357041619.19046) vcan0 18FEF100#FF0000CFFFFFFFC0
(1357041619.19059) vcan0 1CFE9200#FF107DFFFFFF0000
(1357041619.19072) vcan0 18F00E00#FFFFFFFFFFFFFFFF
(1357041619.19085) vcan0 0CF00C03#00FB0000FFFFFFFF
(1357041619.19098) vcan0 18FD8C00#FFFF0000FFFFFFFF
(1357041619.19111) vcan0 0C010305#FFFFE0FFFF3F3FFF
(1357041619.19125) vcan0 0CF00400#0E7D7D000000007D
(1357041619.19137) vcan0 1CEBFF00#0430302A37333932
(1357041619.19150) vcan0 10FDA300#FFFF26FFFFFFFFFF
(1357041619.19164) vcan0 0CF00203#000000FFF7000003
(1357041619.19174) vcan0 18FEDF00#7DA0287D7DFFFFF0
(1357041619.19187) vcan0 0CF00C03#00FB0000FFFFFFFF
(1357041619.19201) vcan0 0CF00300#D10000FFFF0F7C7D
(1357041619.19214) vcan0 18FEDF00#7DA0287D7DFFFFF0
(1357041619.19227) vcan0 18FE4A03#03134FE0FFF3FFFF
(1357041619.19239) vcan0 18FEF100#FF0000CFFFFFFFC0
(1357041619.19253) vcan0 10FDA300#FFFF26FFFFFFFFFF
(1357041619.19266) vcan0 0CF00C03#00FB0000FFFFFFFF
(1357041619.19279) vcan0 18FDC600#FC04FFFFFFFFFFFF
(1357041619.19295) vcan0 0CF00C03#00FB0000FFFFFFFF
(1357041619.19308) vcan0 0CF00C03#00FB0000FFFFFFFF
(1357041619.19321) vcan0 18F00E00#FFFFFFFFFFFFFFFF
(1357041619.19335) vcan0 18F00F00#FFFFFFFFFFFFFFFF
(1357041619.19350) vcan0 10FDA300#FFFF26FFFFFFFFFF
(1357041619.19363) vcan0 1CFE9200#FF107DFFFFFF0000
(1357041619.19377) vcan0 18FEDF00#7DA0287D7DFFFFF0
(1357041619.19390) vcan0 0CF00C03#00FB0000FFFFFFFF
(1357041619.19403) vcan0 18F00100#FFFFFFFFFFFFFFFF
(1357041619.19417) vcan0 0CF00203#000000FFF7000003
(1357041619.19433) vcan0 18FCF200#FAFFFFFFFFFFFFFF
(1357041619.19446) vcan0 0CF00C03#00FB0000FFFFFFFF
(1357041619.19459) vcan0 1CFE9200#FF047DFFFFFF0000
(1357041619.19472) vcan0 18F00E00#FFFFFFFFFFFFFFFF
(1357041619.19485) vcan0 0CF00400#0E7D7D000000007D
(1357041619.19499) vcan0 0CF00300#D10000FFFF0F7C7D
(1357041619.19512) vcan0 14FC9800#FF000000000000FF
(1357041619.19525) vcan0 0CF00C03#00FB0000FFFFFFFF
(1357041619.19538) vcan0 0CF00300#D10000FFFF0F7C7D
(1357041619.19552) vcan0 10FDA300#FFFF26FFFFFFFFFF
(1357041619.19568) vcan0 0CF00C03#00FB0000FFFFFFFF
(1357041619.19581) vcan0 0CF00300#D10000FFFF0F7C7D
(1357041619.19595) vcan0 0CF00203#000000FFF7000003
(1357041619.19607) vcan0 0CF00C03#00FB0000FFFFFFFF
(1357041619.19620) vcan0 18F00E00#FFFFFFFFFFFFFFFF
(1357041619.19634) vcan0 0CF00203#000000FFF7000003
(1357041619.19647) vcan0 0CF00C03#00FB0000FFFFFFFF
(1357041619.19660) vcan0 1CFE9200#FF147DFFFFFF0000
(1357041619.19674) vcan0 18F03300#D007FFFFFFFFFFFF
(1357041619.19687) vcan0 1CEBFF00#0147F362051F0139
(1357041619.19703) vcan0 0CF00300#D10000FFFF0F7C7D
(1357041619.19717) vcan0 0CF00203#000000FFF7000003
(1357041619.19730) vcan0 18FCF200#FAFFFFFFFFFFFFFF
(1357041619.19744) vcan0 1CEBFF00#02040901FFFFFFFF
(1357041619.19758) vcan0 18FCDC00#BFFFFFFFFFFF0000
(1357041619.19771) vcan0 18F00E00#FFFFFFFFFFFFFFFF
(1357041619.19784) vcan0 0CF00203#000000FFF7000003
(1357041619.19798) vcan0 10FCFD00#FFFFFFFF805FFFFF
(1357041619.19811) vcan0 0CF00C03#00FB0000FFFFFFFF
(1357041619.19824) vcan0 0CF00203#000000FFF7000003
(1357041619.19841) vcan0 0C010305#FFFFE0FFFF3F3FFF
(1357041619.19854) vcan0 18FEDF00#7DA0287D7DFFFFF0
(1357041619.19867) vcan0 18ECFF03#20110003FFEBFE00
(1357041619.19880) vcan0 0CF00300#D10000FFFF0F7C7D
(1357041619.19893) vcan0 18FEDF00#7DA0287D7DFFFFF0
(1357041619.19906) vcan0 0CF00C03#00FB0000FFFFFFFF
(1357041619.19919) vcan0 18FEDD00#FF0000FFFFFFFFFF
(1357041619.19933) vcan0 0C010305#FFFFE0FFFF3F3FFF
(1357041619.19946) vcan0 0CF00C03#00FB0000FFFFFFFF
(1357041619.19959) vcan0 1CFE9200#FF147DFFFFFF0000
(1357041619.19976) vcan0 18F00E00#FFFFFFFFFFFFFFFF
(1357041619.19989) vcan0 0CF00C03#00FB0000FFFFFFFF
(1357041620.20002) vcan0 0CF00300#D10000FFFF0F7C7D
(1357041620.20016) vcan0 18EBFF03#032A2A2AFFFFFFFF
(1357041620.20029) vcan0 0C010305#FFFFE0FFFF3F3FFF
(1357041620.20042) vcan0 18FEF100#FF0000CFFFFFFFC0
(1357041620.20056) vcan0 18EF0503#0AFC000123014E4E
(1357041620.20068) vcan0 0CF00A00#00000000FFFFFFFF
(1357041620.20081) vcan0 0CF00300#D10000FFFF0F7C7D
(1357041620.20098) vcan0 10FCFD00#FFFFFFFF805FFFFF
(1357041620.20111) vcan0 0CF00C03#00FB0000FFFFFFFF
(1357041620.20124) vcan0 0CF00203#000000FFF7000003
(1357041620.20137) vcan0 18F00F00#FFFFFFFFFFFFFFFF
(1357041620.20152) vcan0 10FDA300#FFFF26FFFFFFFFFF
(1357041620.20165) vcan0 0CF00400#0E7D7D000000007D
(1357041620.20178) vcan0 0CF00300#D10000FFFF0F7C7D
(1357041620.20192) vcan0 0CFD9200#F0FFFFFFFFFFFFFF
(1357041620.20204) vcan0 0CF00400#0E7D7D000000007D
(1357041620.20217) vcan0 0CF00203#000000FFF7000003
(1357041620.20243) vcan0 18FCF200#FAFFFFFFFFFFFFFF
(1357041620.20255) vcan0 1CEBFF00#0145010000FFFFFF
(1357041620.20269) vcan0 18FD9400#0000FFFFFFFFFFFF
(1357041620.20282) vcan0 18FDC600#FC04FFFFFFFFFFFF
(1357041620.20295) vcan0 10FCFD00#FFFFFFFF805FFFFF
(1357041620.20307) vcan0 0CF00C03#00FB0000FFFFFFFF
(1357041620.20321) vcan0 18F00E00#FFFFFFFFFFFFFFFF
(1357041620.20334) vcan0 0CF00203#000000FFF7000003
(1357041620.20347) vcan0 0CF00C03#00FB0000FFFFFFFF
(1357041620.20361) vcan0 1CFE9200#FF107DFFFFFF0000
(1357041620.20376) vcan0 18F03300#D007FFFFFFFFFFFF
(1357041620.20389) vcan0 0CF00C03#00FB0000FFFFFFFF
(1357041620.20403) vcan0 18F00100#FFFFFFFFFFFFFFFF
(1357041620.20416) vcan0 0C010305#FFFFE0FFFF3F3FFF
(1357041620.20429) vcan0 18FCF200#FAFFFFFFFFFFFFFF
(1357041620.20443) vcan0 0CFD9200#F0FFFFFFFFFFFFFF
(1357041620.20456) vcan0 18EF0503#0AFC000123014E4E
(1357041620.20469) vcan0 18FD9400#0000FFFFFFFFFFFF
(1357041620.20483) vcan0 0CF00300#D10000FFFF0F7C7D
(1357041620.20496) vcan0 10FCFD00#FFFFFFFF805FFFFF
(1357041620.20512) vcan0 14FC9800#FF000000000000FF
(1357041620.20526) vcan0 0CF00400#0E7D7D000000007D
(1357041620.20540) vcan0 0CF00300#D10000FFFF0F7C7D
(1357041620.20553) vcan0 18FDB300#FFFF8C33FFFFFFFF
(1357041620.20567) vcan0 0CF00400#0E7D7D000000007D
(1357041620.20580) vcan0 0CF00300#D10000FFFF0F7C7D
(1357041620.20593) vcan0 1CEBFF00#0147F362051F0139
(1357041620.20606) vcan0 0CF00400#0E7D7D000000007D
(1357041620.20620) vcan0 0CF00A00#00000000FFFFFFFF
(1357041620.20633) vcan0 18FCF200#FAFFFFFFFFFFFFFF
(1357041620.20649) vcan0 0CF00400#0E7D7D000000007D
(1357041620.20663) vcan0 1CFE9200#FF0C7DFFFFFF0000
(1357041620.20676) vcan0 18FEDF00#7DA0287D7DFFFFF0
(1357041620.20688) vcan0 0CFD9200#F0FFFFFFFFFFFFFF
(1357041620.20702) vcan0 0CF00300#D10000FFFF0F7C7D
(1357041620.20715) vcan0 0CF00203#000000FFF7000003
(1357041620.20728) vcan0 18FCF200#FAFFFFFFFFFFFFFF
(1357041620.20742) vcan0 18FEF100#FF0000CFFFFFFFC0
(1357041620.20755) vcan0 0C010305#FFFFE0FFFF3F3FFF
(1357041620.20768) vcan0 0CF00A00#00000000FFFFFFFF
(1357041620.20785) vcan0 18FDC600#FC04FFFFFFFFFFFF
(1357041620.20798) vcan0 10FCFD00#FFFFFFFF805FFFFF
(1357041620.20811) vcan0 0CF00C03#00FB0000FFFFFFFF
(1357041620.20824) vcan0 0CF00203#000000FFF7000003
(1357041620.20837) vcan0 18F00F00#FFFFFFFFFFFFFFFF
(1357041620.20850) vcan0 10FDA300#FFFF26FFFFFFFFFF
(1357041620.20864) vcan0 0CF00203#000000FFF7000003
(1357041620.20877) vcan0 18FEDF00#7DA0287D7DFFFFF0
(1357041620.20890) vcan0 0CF00400#0E7D7D000000007D
(1357041620.20903) vcan0 18F00100#FFFFFFFFFFFFFFFF
(1357041620.20915) vcan0 18EBFF03#01414C4C534E2A33
(1357041620.20927) vcan0 18FE4A03#03134FE0FFF3FFFF
(1357041620.20943) vcan0 0CFD9200#F0FFFFFFFFFFFFFF
(1357041620.20956) vcan0 18EF0503#0AFC000123014E4E
(1357041620.20969) vcan0 18F00E00#FFFFFFFFFFFFFFFF
(1357041620.20982) vcan0 1CEBFF00#0336373030303030
(1357041620.20996) vcan0 10FCFD00#FFFFFFFF805FFFFF
(1357041621.21009) vcan0 14FC9800#FF000000000000FF
(1357041621.21022) vcan0 18F00E00#FFFFFFFFFFFFFFFF
(1357041621.21039) vcan0 1CEBFF00#0430302A37333932
(1357041621.21052) vcan0 10FDA300#FFFF26FFFFFFFFFF
(1357041621.21065) vcan0 0CF00400#0E7D7D000000007D
(1357041621.21079) vcan0 18FEE000#FB660600E5660600
(1357041621.21092) vcan0 1CEBFF00#05313335332A2A2A
(1357041621.21105) vcan0 0CF00C03#00FB0000FFFFFFFF
(1357041621.21117) vcan0 0CF00203#000000FFF7000003
(1357041621.21131) vcan0 18FCF200#FAFFFFFFFFFFFFFF
(1357041621.21144) vcan0 0CF00C03#00FB0000FFFFFFFF
(1357041621.21157) vcan0 18EF0503#0AFC000123014E4E
(1357041621.21174) vcan0 18F00E00#FFFFFFFFFFFFFFFF
(1357041621.21187) vcan0 0CF00400#0E7D7D000000007D
(1357041621.21200) vcan0 0CF00300#D10000FFFF0F7C7D
(1357041621.21213) vcan0 18FEEF00#FFFFFF00007DFFFA
(1357041621.21226) vcan0 18FE4A03#03134FE0FFF3FFFF
(1357041621.21239) vcan0 18FEF100#FF0000CFFFFFFFC0
(1357041621.21253) vcan0 10FDA300#FFFF26FFFFFFFFFF
(1357041621.21265) vcan0 0CF00400#0E7D7D000000007D
(1357041621.21278) vcan0 18FEE000#FB660600E5660600
(1357041621.21292) vcan0 0C010305#FFFFE0FFFF3F3FFF
(1357041621.21308) vcan0 0CF00C03#00FB0000FFFFFFFF
(1357041621.21321) vcan0 18F00E00#FFFFFFFFFFFFFFFF
(1357041621.21334) vcan0 0CF00203#000000FFF7000003
(1357041621.21349) vcan0 0CF00400#0E7D7D000000007D
(1357041621.21362) vcan0 1CFE9200#FF0C7DFFFFFF0000
(1357041621.21376) vcan0 18FEDF00#7DA0287D7DFFFFF0
(1357041621.21388) vcan0 0CF00C03#00FB0000FFFFFFFF
(1357041621.21401) vcan0 0CF00300#D10000FFFF0F7C7D
(1357041621.21414) vcan0 0CF00203#000000FFF7000003
(1357041621.21428) vcan0 18FE4A03#03134FE0FFF3FFFF
(1357041621.21443) vcan0 0CFD9200#F0FFFFFFFFFFFFFF
(1357041621.21456) vcan0 18EF0503#0AFC000123014E4E
(1357041621.21470) vcan0 18F00E00#FFFFFFFFFFFFFFFF
(1357041621.21483) vcan0 18FD0700#430FFCFFFFFFFFFF
(1357041621.21496) vcan0 10FCFD00#FFFFFFFF805FFFFF
(1357041621.21510) vcan0 14FC9800#FF000000000000FF
(1357041621.21523) vcan0 18F00E00#FFFFFFFFFFFFFFFF
(1357041621.21536) vcan0 18F00F00#FFFFFFFFFFFFFFFF
(1357041621.21550) vcan0 10FDA300#FFFF26FFFFFFFFFF
(1357041621.21563) vcan0 1CFE9200#FF087DFFFFFF0000
(1357041621.21579) vcan0 18FEDF00#7DA0287D7DFFFFF0
(1357041621.21593) vcan0 1CEBFF00#0147F362051F0139
(1357041621.21606) vcan0 0CF00400#0E7D7D000000007D
(1357041621.21618) vcan0 18FD2000#F92FFFFFFFFFFFFF
(1357041621.21632) vcan0 18FCF200#FAFFFFFFFFFFFFFF
(1357041621.21645) vcan0 0CF00400#0E7D7D000000007D
(1357041621.21658) vcan0 18FCDC00#BFFFFFFFFFFF0000
(1357041621.21671) vcan0 18F00E00#FFFFFFFFFFFFFFFF
(1357041621.21685) vcan0 18F00F00#FFFFFFFFFFFFFFFF
(1357041621.21698) vcan0 10FCFD00#FFFFFFFF805FFFFF
(1357041621.21714) vcan0 18FEEF00#FFFFFF00007DFFFA
(1357041621.21728) vcan0 18FE4A03#03134FE0FFF3FFFF
(1357041621.21741) vcan0 18FEF100#FF0000CFFFFFFFC0
(1357041621.21756) vcan0 18FEDF00#7DA0287D7DFFFFF0
(1357041621.21770) vcan0 18F00E00#FFFFFFFFFFFFFFFF
(1357041621.21782) vcan0 18FDC600#FC04FFFFFFFFFFFF
(1357041621.21795) vcan0 10FCFD00#FFFFFFFF805FFFFF
(1357041621.21809) vcan0 0CF00400#0E7D7D000000007D
(1357041621.21822) vcan0 18F00E00#FFFFFFFFFFFFFFFF
(1357041621.21838) vcan0 18F00F00#FFFFFFFFFFFFFFFF
(1357041621.21852) vcan0 10FDA300#FFFF26FFFFFFFFFF
(1357041621.21865) vcan0 0CF00400#0E7D7D000000007D
(1357041621.21878) vcan0 18FEDF00#7DA0287D7DFFFFF0
(1357041621.21892) vcan0 0CF00C03#00FB0000FFFFFFFF
(1357041621.21905) vcan0 0CF00C03#00FB0000FFFFFFFF
(1357041621.21917) vcan0 0C010305#FFFFE0FFFF3F3FFF
(1357041621.21931) vcan0 18FCF200#FAFFFFFFFFFFFFFF
(1357041621.21944) vcan0 0CF00203#000000FFF7000003
(1357041621.21957) vcan0 18EF0503#0AFC000123014E4E
(1357041621.21974) vcan0 18F00E00#FFFFFFFFFFFFFFFF
(1357041621.21987) vcan0 0CF00400#0E7D7D000000007D
(1357041622.22000) vcan0 0CF00300#D10000FFFF0F7C7D
(1357041622.22013) vcan0 0C010305#FFFFE0FFFF3F3FFF
(1357041622.22027) vcan0 18F00503#7D00007D204E204E
(1357041622.22040) vcan0 18FEF100#FF0000CFFFFFFFC0
(1357041622.22053) vcan0 10FDA300#FFFF26FFFFFFFFFF
(1357041622.22066) vcan0 0CF00400#0E7D7D000000007D
(1357041622.22079) vcan0 0CF00300#D10000FFFF0F7C7D
(1357041622.22092) vcan0 1CEBFF00#05313335332A2A2A
(1357041622.22109) vcan0 0CF00400#0E7D7D000000007D
(1357041622.22122) vcan0 18F00E00#FFFFFFFFFFFFFFFF
(1357041622.22135) vcan0 18F00F00#FFFFFFFFFFFFFFFF
(1357041622.22151) vcan0 10FDA300#FFFF26FFFFFFFFFF
(1357041622.22164) vcan0 0CF00203#000000FFF7000003
(1357041622.22177) vcan0 18FEDF00#7DA0287D7DFFFFF0
(1357041622.22191) vcan0 0CFD9200#F0FFFFFFFFFFFFFF
(1357041622.22204) vcan0 0CF00203#000000FFF7000003
(1357041622.22217) vcan0 0CF00203#000000FFF7000003
(1357041622.22231) vcan0 18FCF200#FAFFFFFFFFFFFFFF
(1357041622.22246) vcan0 18FEF100#FF0000CFFFFFFFC0
(1357041622.22259) vcan0 1CFE9200#FF047DFFFFFF0000
(1357041622.22273) vcan0 18F00E00#FFFFFFFFFFFFFFFF
(1357041622.22286) vcan0 0CF00400#0E7D7D000000007D
(1357041622.22298) vcan0 0CF00300#D10000FFFF0F7C7D
(1357041622.22311) vcan0 1CEBFF00#02FFFFFFFFFFFFFF
(1357041622.22325) vcan0 0CF00400#0E7D7D000000007D
(1357041622.22338) vcan0 18F00F00#FFFFFFFFFFFFFFFF
(1357041622.22351) vcan0 0C010305#FFFFE0FFFF3F3FFF
(1357041622.22364) vcan0 0CF00C03#00FB0000FFFFFFFF
(1357041622.22380) vcan0 18FEDF00#7DA0287D7DFFFFF0
(1357041622.22393) vcan0 0CF00400#0E7D7D000000007D
(1357041622.22407) vcan0 0CF00400#0E7D7D000000007D
(1357041622.22419) vcan0 18FEF000#FFFFFFFFFFFFFFFF
(1357041622.22432) vcan0 18FCF200#FAFFFFFFFFFFFFFF
(1357041622.22446) vcan0 0CF00400#0E7D7D000000007D
(1357041622.22459) vcan0 18FCDC00#BFFFFFFFFFFF0000
(1357041622.22471) vcan0 18F00E00#FFFFFFFFFFFFFFFF
(1357041622.22484) vcan0 18FEF200#000000003D03FAFF
(1357041622.22498) vcan0 0C010305#FFFFE0FFFF3F3FFF
(1357041622.22514) vcan0 14FC9800#FF000000000000FF
(1357041622.22528) vcan0 18FE4A03#03134FE0FFF3FFFF
(1357041622.22541) vcan0 18FEF100#FF0000CFFFFFFFC0
(1357041622.22556) vcan0 18FDB300#FFFF8C33FFFFFFFF
(1357041622.22568) vcan0 18FD9400#0000FFFFFFFFFFFF
(1357041622.22582) vcan0 0CF00300#D10000FFFF0F7C7D
(1357041622.22595) vcan0 10FCFD00#FFFFFFFF805FFFFF
(1357041622.22608) vcan0 0CF00400#0E7D7D000000007D
(1357041622.22622) vcan0 18F00E00#FFFFFFFFFFFFFFFF
(1357041622.22635) vcan0 18F00F00#FFFFFFFFFFFFFFFF
(1357041622.22646) vcan0 10FDA300#FFFF26FFFFFFFFFF
(1357041622.22660) vcan0 0CF00300#D10000FFFF0F7C7D
(1357041622.22672) vcan0 18F00E00#FFFFFFFFFFFFFFFF
(1357041622.22685) vcan0 0CF00400#0E7D7D000000007D
(1357041622.22699) vcan0 0CF00300#D10000FFFF0F7C7D
(1357041622.22712) vcan0 18FEEF00#FFFFFF00007DFFFA
(1357041622.22725) vcan0 0CF00400#0E7D7D000000007D
(1357041622.22738) vcan0 0C010305#FFFFE0FFFF3F3FFF
(1357041622.22752) vcan0 10FDA300#FFFF26FFFFFFFFFF
(1357041622.22768) vcan0 0CF00400#0E7D7D000000007D
(1357041622.22781) vcan0 18FDC600#FC04FFFFFFFFFFFF
(1357041622.22795) vcan0 0CF00203#000000FFF7000003
(1357041622.22808) vcan0 0CF00400#0E7D7D000000007D
(1357041622.22820) vcan0 18F00E00#FFFFFFFFFFFFFFFF
(1357041622.22834) vcan0 18FEDF00#7DA0287D7DFFFFF0
(1357041622.22847) vcan0 0CF00400#0E7D7D000000007D
(1357041622.22860) vcan0 1CFE9200#FF007DFFFFFF0000
(1357041622.22874) vcan0 18F03300#D007FFFFFFFFFFFF
(1357041622.22887) vcan0 0CF00400#0E7D7D000000007D
(1357041622.22903) vcan0 0CF00300#D10000FFFF0F7C7D
(1357041622.22917) vcan0 18EBFF03#01414C4C534E2A33
(1357041622.22930) vcan0 18FCF200#FAFFFFFFFFFFFFFF
(1357041622.22943) vcan0 0CFD9200#F0FFFFFFFFFFFFFF
(1357041622.22958) vcan0 18EF0503#0AFC000123014E4E
(1357041622.22971) vcan0 18F00E00#FFFFFFFFFFFFFFFF
(1357041622.22984) vcan0 18FEF200#000000003D03FAFF
(1357041622.22998) vcan0 10FCFD00#FFFFFFFF805FFFFF
(1357041623.23011) vcan0 14FC9800#FF000000000000FF
(1357041623.23024) vcan0 0CF00203#000000FFF7000003
(1357041623.23041) vcan0 1CEBFF00#0430302A37333932
(1357041623.23054) vcan0 18FDB300#FFFF8333FFFFFFFF
(1357041623.23067) vcan0 0CF00400#0E7D7D000000007D
(1357041623.23080) vcan0 0CF00300#D10000FFFF0F7C7D
(1357041623.23094) vcan0 1CEBFF00#05313335332A2A2A
(1357041623.23106) vcan0 0CF00400#0E7D7D000000007D
(1357041623.23119) vcan0 0CF00A00#00000000FFFFFFFF
(1357041623.23133) vcan0 18FCF200#FAFFFFFFFFFFFFFF
(1357041623.23146) vcan0 1CEBFF00#062A2A2A2A2A2A2A
(1357041623.23159) vcan0 0CF00300#D10000FFFF0F7C7D
(1357041623.23176) vcan0 18F00E00#FFFFFFFFFFFFFFFF
(1357041623.23189) vcan0 0CFD9200#F0FFFFFFFFFFFFFF
(1357041623.23202) vcan0 1CECFF00#20280006FF98FD00
(1357041623.23216) vcan0 18FEDF00#7DA0287D7DFFFFF0
(1357041623.23229) vcan0 18FCF200#FAFFFFFFFFFFFFFF
(1357041623.23242) vcan0 18FEF100#FF0000CFFFFFFFC0
(1357041623.23256) vcan0 18FEF600#FF0063FFFFFFFFFF
(1357041623.23268) vcan0 0CF00A00#00000000FFFFFFFF
(1357041623.23281) vcan0 18FDC600#FC04FFFFFFFFFFFF
(1357041623.23294) vcan0 10FCFD00#FFFFFFFF805FFFFF
(1357041623.23311) vcan0 0CF00400#0E7D7D000000007D
(1357041623.23324) vcan0 0CF00203#000000FFF7000003
(1357041623.23337) vcan0 18F00F00#FFFFFFFFFFFFFFFF
(1357041623.23350) vcan0 10FDA300#FFFF26FFFFFFFFFF
(1357041623.23365) vcan0 1CFE9200#FF147DFFFFFF0000
(1357041623.23378) vcan0 18FEE000#FB660600E5660600
(1357041623.23392) vcan0 0CF00400#0E7D7D000000007D
(1357041623.23405) vcan0 0CF00C03#00FB0000FFFFFFFF
(1357041623.23417) vcan0 0C010305#FFFFE0FFFF3F3FFF
(1357041623.23431) vcan0 18FCF200#FAFFFFFFFFFFFFFF
(1357041623.23447) vcan0 0CF00203#000000FFF7000003
(1357041623.23460) vcan0 1CFE9200#FF147DFFFFFF0000
(1357041623.23473) vcan0 18F00E00#FFFFFFFFFFFFFFFF
(1357041623.23486) vcan0 0CF00400#0E7D7D000000007D
(1357041623.23499) vcan0 0CF00300#D10000FFFF0F7C7D
(1357041623.23513) vcan0 0C010305#FFFFE0FFFF3F3FFF
(1357041623.23525) vcan0 0CF00400#0E7D7D000000007D
(1357041623.23538) vcan0 0CF00300#D10000FFFF0F7C7D
(1357041623.23552) vcan0 10FDA300#FFFF26FFFFFFFFFF
(1357041623.23568) vcan0 0CF00C03#00FB0000FFFFFFFF
(1357041623.23581) vcan0 0CF00300#D10000FFFF0F7C7D
(1357041623.23595) vcan0 0CF00203#000000FFF7000003
(1357041623.23608) vcan0 0CF00400#0E7D7D000000007D
(1357041623.23620) vcan0 18FEF000#FFFFFFFFFFFFFFFF
(1357041623.23633) vcan0 0CF00203#000000FFF7000003
(1357041623.23647) vcan0 0CF00400#0E7D7D000000007D
(1357041623.23660) vcan0 1CFE9200#FF187DFFFFFF0000
(1357041623.23673) vcan0 18F00E00#FFFFFFFFFFFFFFFF
(1357041623.23687) vcan0 0CF00C03#00FB0000FFFFFFFF
(1357041623.23703) vcan0 0CF00300#D10000FFFF0F7C7D
(1357041623.23716) vcan0 18FEDF00#7DA0287D7DFFFFF0
(1357041623.23730) vcan0 18FCF200#FAFFFFFFFFFFFFFF
(1357041623.23743) vcan0 18FEF100#FF0000CFFFFFFFC0
(1357041623.23756) vcan0 18FEF600#FF0063FFFFFFFFFF
(1357041623.23772) vcan0 18FD9400#0000FFFFFFFFFFFF
(1357041623.23784) vcan0 18F00F00#FFFFFFFFFFFFFFFF
(1357041623.23797) vcan0 10FCFD00#FFFFFFFF805FFFFF
(1357041623.23811) vcan0 1CEBFF00#03CC8057FFFFFE03
(1357041623.23824) vcan0 0CF00203#000000FFF7000003
(1357041623.23840) vcan0 18F00F00#FFFFFFFFFFFFFFFF
(1357041623.23854) vcan0 0CF00203#000000FFF7000003
(1357041623.23867) vcan0 18ECFF03#20110003FFEBFE00
(1357041623.23880) vcan0 0CF00300#D10000FFFF0F7C7D
(1357041623.23894) vcan0 0CF00400#0E7D7D000000007D
(1357041623.23907) vcan0 0CF00400#0E7D7D000000007D
(1357041623.23919) vcan0 18FEF000#FFFFFFFFFFFFFFFF
(1357041623.23932) vcan0 18FCF200#FAFFFFFFFFFFFFFF
(1357041623.23946) vcan0 0CF00400#0E7D7D000000007D
(1357041623.23959) vcan0 0CF00300#D10000FFFF0F7C7D
(1357041623.23975) vcan0 1CEBFF00#01434D4D4E532A36
(1357041623.23989) vcan0 0CF00400#0E7D7D000000007D
(1357041624.24002) vcan0 0CF00300#D10000FFFF0F7C7D
(1357041624.24015) vcan0 18EBFF03#032A2A2AFFFFFFFF
(1357041624.24029) vcan0 18FDB400#F32F8034FFFFFFFF
(1357041624.24042) vcan0 18FEF100#FF0000CFFFFFFFC0
(1357041624.24054) vcan0 18EF0503#0AFC000123014E4E
(1357041624.24068) vcan0 0CF00400#0E7D7D000000007D
(1357041624.24081) vcan0 1CEBFF00#0336373030303030
(1357041624.24094) vcan0 0CF00203#000000FFF7000003
(1357041624.24111) vcan0 0CF00400#0E7D7D000000007D
(1357041624.24124) vcan0 0CF00203#000000FFF7000003
(1357041624.24137) vcan0 1CEBFF00#0430302A37333932
(1357041624.24151) vcan0 10FDA300#FFFF26FFFFFFFFFF
(1357041624.24166) vcan0 1CFE9200#FFF87CFFFFFF0000
(1357041624.24179) vcan0 0CF00300#D10000FFFF0F7C7D
(1357041624.24193) vcan0 0C010305#FFFFE0FFFF3F3FFF
(1357041624.24205) vcan0 0CF00400#0E7D7D000000007D
(1357041624.24218) vcan0 0CF00300#D10000FFFF0F7C7D
(1357041624.24231) vcan0 18FCF200#FAFFFFFFFFFFFFFF
(1357041624.24248) vcan0 0CF00400#0E7D7D000000007D
(1357041624.24261) vcan0 1CFE9200#FFFC7CFFFFFF0000
(1357041624.24274) vcan0 18F03300#D007FFFFFFFFFFFF
(1357041624.24288) vcan0 0C010305#FFFFE0FFFF3F3FFF
(1357041624.24301) vcan0 1CEBFF00#072A2AFFFFFFFFFF
(1357041624.24314) vcan0 18FEDF00#7DA0287D7DFFFFF0
(1357041624.24328) vcan0 18FE4A03#03134FE0FFF3FFFF
(1357041624.24341) vcan0 18FEF100#FF0000CFFFFFFFC0
(1357041624.24354) vcan0 0CF00203#000000FFF7000003
(1357041624.24367) vcan0 0CF00400#0E7D7D000000007D
(1357041624.24378) vcan0 0CF00300#D10000FFFF0F7C7D
(1357041624.24391) vcan0 0CF00400#0E7D7D000000007D
(1357041624.24404) vcan0 0CF00203#000000FFF7000003
(1357041624.24417) vcan0 18FEDF00#7DA0287D7DFFFFF0
(1357041624.24430) vcan0 18FCF200#FAFFFFFFFFFFFFFF
(1357041624.24443) vcan0 0CFD9200#F0FFFFFFFFFFFFFF
(1357041624.24457) vcan0 18EF0503#0AFC000123014E4E
(1357041624.24469) vcan0 18F00E00#FFFFFFFFFFFFFFFF
(1357041624.24482) vcan0 0C010305#FFFFE0FFFF3F3FFF
(1357041624.24499) vcan0 10FCFD00#FFFFFFFF805FFFFF
(1357041624.24512) vcan0 14FC9800#FF000000000000FF
(1357041624.24524) vcan0 0CF00C03#00FB0000FFFFFFFF
(1357041624.24538) vcan0 18F00F00#FFFFFFFFFFFFFFFF
(1357041624.24551) vcan0 10FDA300#FFFF26FFFFFFFFFF
(1357041624.24564) vcan0 0CF00203#000000FFF7000003
(1357041624.24579) vcan0 0C010305#FFFFE0FFFF3F3FFF
(1357041624.24592) vcan0 0CF00400#0E7D7D000000007D
(1357041624.24605) vcan0 0CF00400#0E7D7D000000007D
(1357041624.24619) vcan0 18FD2000#F32FFFFFFFFFFFFF
(1357041624.24635) vcan0 1CECFF00#200A0002FFCAFE00
(1357041624.24647) vcan0 0CF00400#0E7D7D000000007D
(1357041624.24660) vcan0 1CFE9200#FF147DFFFFFF0000
(1357041624.24674) vcan0 0CF00203#000000FFF7000003
(1357041624.24687) vcan0 1CEBFF00#0147F362051F0139
(1357041624.24700) vcan0 0CF00300#D10000FFFF0F7C7D
(1357041624.24714) vcan0 0CF00203#000000FFF7000003
(1357041624.24727) vcan0 18FE4A03#03134FE0FFF3FFFF
(1357041624.24740) vcan0 18FEF100#FF0000CFFFFFFFC0
(1357041624.24754) vcan0 10FDA300#FFFF26FFFFFFFFFF
(1357041624.24770) vcan0 0CF00400#0E7D7D000000007D
(1357041624.24783) vcan0 18FDC600#FC04FFFFFFFFFFFF
(1357041624.24797) vcan0 10FCFD00#FFFFFFFF805FFFFF
(1357041624.24809) vcan0 0CF00400#0E7D7D000000007D
(1357041624.24822) vcan0 18F00E00#FFFFFFFFFFFFFFFF
(1357041624.24836) vcan0 18F00F00#FFFFFFFFFFFFFFFF
(1357041624.24849) vcan0 10FDA300#FFFF26FFFFFFFFFF
(1357041624.24862) vcan0 1CFE9200#FF0C7DFFFFFF0000
(1357041624.24876) vcan0 18FEDF00#7DA0287D7DFFFFF0
(1357041624.24889) vcan0 0CF00C03#00FB0000FFFFFFFF
(1357041624.24905) vcan0 0CF00300#D10000FFFF0F7C7D
(1357041624.24919) vcan0 0C010305#FFFFE0FFFF3F3FFF
(1357041624.24932) vcan0 18FCF200#FAFFFFFFFFFFFFFF
(1357041624.24945) vcan0 0CF00C03#00FB0000FFFFFFFF
(1357041624.24957) vcan0 18EF0503#0AFC000123014E4E
(1357041624.24973) vcan0 18F00E00#FFFFFFFFFFFFFFFF
(1357041624.24986) vcan0 0CF00400#0E7D7D000000007D
(1357041624.24999) vcan0 0CF00300#D10000FFFF0F7C7D
(1357041625.25013) vcan0 0C010305#FFFFE0FFFF3F3FFF
(1357041625.25026) vcan0 0CF00400#0E7D7D000000007D
(1357041625.25042) vcan0 18FEF100#FF0000CFFFFFFFC0
(1357041625.25082) vcan0 18FEDF00#7DA0287D7DFFFFF0
(1357041625.25096) vcan0 18FE9900#FFFFFFFFFFFFFFFF
(1357041625.25109) vcan0 0CF00400#0E7D7D000000007D
(1357041625.25122) vcan0 18F00E00#FFFFFFFFFFFFFFFF
(1357041625.25136) vcan0 18F00F00#FFFFFFFFFFFFFFFF
(1357041625.25149) vcan0 10FDA300#FFFF26FFFFFFFFFF
(1357041625.25161) vcan0 1CFE9200#FF147DFFFFFF0000
(1357041625.25175) vcan0 18FD6E00#FFFFFFFFFF1200FF
(1357041625.25188) vcan0 0CF00400#0E7D7D000000007D
(1357041625.25204) vcan0 1CECFF00#20280006FF98FD00
(1357041625.25218) vcan0 18FEDF00#7DA0287D7DFFFFF0
(1357041625.25231) vcan0 18FCF200#FAFFFFFFFFFFFFFF
(1357041625.25244) vcan0 0CF00C03#00FB0000FFFFFFFF
(1357041625.25257) vcan0 1CEBFF00#0145010000FFFFFF
(1357041625.25271) vcan0 18F00E00#FFFFFFFFFFFFFFFF
(1357041625.25284) vcan0 0CF00203#000000FFF7000003
(1357041625.25297) vcan0 10FCFD00#FFFFFFFF805FFFFF
(1357041625.25311) vcan0 1CEBFF00#02FFFFFFFFFFFFFF
(1357041625.25327) vcan0 18F03300#D007FFFFFFFFFFFF
(1357041625.25340) vcan0 18FEF100#FF0000CFFFFFFFC0
(1357041625.25353) vcan0 0C010305#FFFFE0FFFF3F3FFF
(1357041625.25366) vcan0 1CEBFF00#03FFFFFFFFFFFFFF
(1357041625.25379) vcan0 0CF00300#D10000FFFF0F7C7D
(1357041625.25393) vcan0 0CF00400#0E7D7D000000007D
(1357041625.25412) vcan0 0CF00400#0E7D7D000000007D
(1357041625.25425) vcan0 0CF00C03#00FB0000FFFFFFFF
(1357041625.25438) vcan0 18F00F00#FFFFFFFFFFFFFFFF
(1357041625.25451) vcan0 10FDA300#FFFF26FFFFFFFFFF
(1357041625.25467) vcan0 0CF00C03#00FB0000FFFFFFFF
(1357041625.25481) vcan0 0CF00300#D10000FFFF0F7C7D
(1357041625.25494) vcan0 0CF00203#000000FFF7000003
(1357041625.25506) vcan0 0CF00400#0E7D7D000000007D
(1357041625.25520) vcan0 18FEF000#FFFFFFFFFFFFFFFF
(1357041625.25533) vcan0 1CECFF00#200A0002FFCAFE00
(1357041625.25546) vcan0 0CF00400#0E7D7D000000007D
(1357041625.25560) vcan0 0CF00300#D10000FFFF0F7C7D
(1357041625.25572) vcan0 18F00E00#FFFFFFFFFFFFFFFF
(1357041625.25585) vcan0 0CF00C03#00FB0000FFFFFFFF
(1357041625.25602) vcan0 18FD8C00#FFFF0000FFFFFFFF
(1357041625.25615) vcan0 18FEDF00#7DA0287D7DFFFFF0
(1357041625.25627) vcan0 18FEF803#FFFFFFFF6529FBDE
(1357041625.25640) vcan0 1CEBFF00#02040901FFFFFFFF
(1357041625.25654) vcan0 0CF00203#000000FFF7000003
(1357041625.25667) vcan0 0CF00400#0E7D7D000000007D
(1357041625.25679) vcan0 0CF00300#D10000FFFF0F7C7D
(1357041625.25693) vcan0 0C010305#FFFFE0FFFF3F3FFF
(1357041625.25706) vcan0 0CF00400#0E7D7D000000007D
(1357041625.25719) vcan0 0CF00A00#00000000FFFFFFFF
(1357041625.25736) vcan0 18FCF200#FAFFFFFFFFFFFFFF
(1357041625.25749) vcan0 10FDA300#FFFF26FFFFFFFFFF
(1357041625.25761) vcan0 1CFE9200#FF287DFFFFFF0000
(1357041625.25775) vcan0 18FD6E00#FFFFFFFFFF1200FF
(1357041625.25788) vcan0 0C010305#FFFFE0FFFF3F3FFF
(1357041625.25801) vcan0 0CF00300#D10000FFFF0F7C7D
(1357041625.25817) vcan0 18FEDF00#7DA0287D7DFFFFF0
(1357041625.25830) vcan0 18FCF200#FAFFFFFFFFFFFFFF
(1357041625.25843) vcan0 18FEF100#FF0000CFFFFFFFC0
(1357041625.25857) vcan0 18EF0503#0AFC000123014E4E
(1357041625.25873) vcan0 18FD9400#0000FFFFFFFFFFFF
(1357041625.25886) vcan0 0CF00400#0E7D7D000000007D
(1357041625.25900) vcan0 0CF00300#D10000FFFF0F7C7D
(1357041625.25913) vcan0 0CF00400#0E7D7D000000007D
(1357041625.25926) vcan0 18F00503#7D00007D204E204E
(1357041625.25938) vcan0 0CF00300#D10000FFFF0F7C7D
(1357041625.25952) vcan0 10FDA300#FFFF26FFFFFFFFFF
(1357041625.25965) vcan0 0CF00400#0E7D7D000000007D
(1357041625.25978) vcan0 18FEE000#FB660600E5660600
(1357041625.25992) vcan0 0CF00400#0E7D7D000000007D
(1357041626.26008) vcan0 18F00100#FFFFFFFFFFFFFFFF
(1357041626.26021) vcan0 18F00E00#FFFFFFFFFFFFFFFF
(1357041626.26035) vcan0 18FEDF00#7DA0287D7DFFFFF0
(1357041626.26048) vcan0 0CF00400#0E7D7D000000007D
(1357041626.26061) vcan0 1CFE9200#FF107DFFFFFF0000
(1357041626.26075) vcan0 18FDB200#FFFFFFFF0000FFFF
(1357041626.26088) vcan0 0CF00400#0E7D7D000000007D
(1357041626.26100) vcan0 0CF00300#D10000FFFF0F7C7D
(1357041626.26114) vcan0 0CF00203#000000FFF7000003
(1357041626.26127) vcan0 18FE4A03#03134FE0FFF3FFFF
(1357041626.26138) vcan0 18FEF100#FF0000CFFFFFFFC0
(1357041626.26151) vcan0 10FDA300#FFFF26FFFFFFFFFF
(1357041626.26165) vcan0 0CF00C03#00FB0000FFFFFFFF
(1357041626.26178) vcan0 18FEDF00#7DA0287D7DFFFFF0
(1357041626.26190) vcan0 0CFD9200#F0FFFFFFFFFFFFFF
(1357041626.26204) vcan0 0CF00203#000000FFF7000003
(1357041626.26219) vcan0 18FEDF00#7DA0287D7DFFFFF0
(1357041626.26232) vcan0 18FCF200#FAFFFFFFFFFFFFFF
(1357041626.26246) vcan0 0CF00400#0E7D7D000000007D
(1357041626.26262) vcan0 18FCDC00#BFFFFFFFFFFF0000
(1357041626.26275) vcan0 18FEDF00#7DA0287D7DFFFFF0
(1357041626.26289) vcan0 0CF00400#0E7D7D000000007D
(1357041626.26302) vcan0 0CF00300#D10000FFFF0F7C7D
(1357041626.26315) vcan0 18FEDF00#7DA0287D7DFFFFF0
(1357041626.26329) vcan0 18FE4A03#03134FE0FFF3FFFF
(1357041626.26342) vcan0 18FEF100#FF0000CFFFFFFFC0
(1357041626.26355) vcan0 18FEDF00#7DA0287D7DFFFFF0
(1357041626.26368) vcan0 0C010305#FFFFE0FFFF3F3FFF
(1357041626.26381) vcan0 0CF00300#D10000FFFF0F7C7D
(1357041626.26397) vcan0 18FEDF00#7DA0287D7DFFFFF0
(1357041626.26411) vcan0 0CF00400#0E7D7D000000007D
(1357041626.26424) vcan0 18F03300#D007FFFFFFFFFFFF
(1357041626.26437) vcan0 18F00F00#FFFFFFFFFFFFFFFF
(1357041626.26450) vcan0 10FDA300#FFFF26FFFFFFFFFF
(1357041626.26464) vcan0 0CF00203#000000FFF7000003
(1357041626.26477) vcan0 1CEBFF00#05FFFFFFFFAD8B01
(1357041626.26490) vcan0 0CF00400#0E7D7D000000007D
(1357041626.26504) vcan0 0CF00300#D10000FFFF0F7C7D
(1357041626.26517) vcan0 18FEDF00#7DA0287D7DFFFFF0
(1357041626.26532) vcan0 1CEBFF00#06000F090000FFFF
(1357041626.26546) vcan0 0CF00400#0E7D7D000000007D
(1357041626.26559) vcan0 18FCDC00#BFFFFFFFFFFF0000
(1357041626.26572) vcan0 18F00E00#FFFFFFFFFFFFFFFF
(1357041626.26585) vcan0 0CF00C03#00FB0000FFFFFFFF
(1357041626.26598) vcan0 10FCFD00#FFFFFFFF805FFFFF
(1357041626.26613) vcan0 0C010305#FFFFE0FFFF3F3FFF
(1357041626.26627) vcan0 18FE4A03#03134FE0FFF3FFFF
(1357041626.26640) vcan0 18FEF100#FF0000CFFFFFFFC0
(1357041626.26652) vcan0 10FDA300#FFFF26FFFFFFFFFF
(1357041626.26669) vcan0 0CF00400#0E7D7D000000007D
(1357041626.26682) vcan0 0CF00300#D10000FFFF0F7C7D
(1357041626.26695) vcan0 10FCFD00#FFFFFFFF805FFFFF
(1357041626.26707) vcan0 0C010305#FFFFE0FFFF3F3FFF
(1357041626.26721) vcan0 18F00E00#FFFFFFFFFFFFFFFF
(1357041626.26734) vcan0 18FEDF00#7DA0287D7DFFFFF0
(1357041626.26747) vcan0 0CF00400#0E7D7D000000007D
(1357041626.26761) vcan0 1CFE9200#FF147DFFFFFF0000
(1357041626.26773) vcan0 18F00E00#FFFFFFFFFFFFFFFF
(1357041626.26786) vcan0 0CF00400#0E7D7D000000007D
(1357041626.26803) vcan0 0CF00300#D10000FFFF0F7C7D
(1357041626.26816) vcan0 18FEDF00#7DA0287D7DFFFFF0
(1357041626.26829) vcan0 18FCF200#FAFFFFFFFFFFFFFF
(1357041626.26843) vcan0 18FEF100#FF0000CFFFFFFFC0
(1357041626.26856) vcan0 18EF0503#0AFC000123014E4E
(1357041626.26869) vcan0 18FD7B00#0FFF851A0100CC82
(1357041626.26882) vcan0 0CF00300#D10000FFFF0F7C7D
(1357041626.26895) vcan0 10FCFD00#FFFFFFFF805FFFFF
(1357041626.26908) vcan0 0CF00400#0E7D7D000000007D
(1357041626.26921) vcan0 18F00E00#FFFFFFFFFFFFFFFF
(1357041626.26938) vcan0 18FEE400#FF3FFDFC007FFFFF
(1357041626.26951) vcan0 10FDA300#FFFF26FFFFFFFFFF
(1357041626.26964) vcan0 0CF00C03#00FB0000FFFFFFFF
(1357041626.26978) vcan0 18FEDF00#7DA0287D7DFFFFF0
(1357041626.26991) vcan0 0CF00400#0E7D7D000000007D
(1357041627.27004) vcan0 0CF00203#000000FFF7000003
(1357041627.27020) vcan0 18EBFF03#032A2A2AFFFFFFFF
(1357041627.27033) vcan0 18FCF200#FAFFFFFFFFFFFFFF
(1357041627.27046) vcan0 0CF00400#0E7D7D000000007D
(1357041627.27063) vcan0 0CF00300#D10000FFFF0F7C7D
(1357041627.27075) vcan0 18FEDF00#7DA0287D7DFFFFF0
(1357041627.27088) vcan0 0CF00400#0E7D7D000000007D
(1357041627.27102) vcan0 0CF00300#D10000FFFF0F7C7D
(1357041627.27115) vcan0 18FEDF00#7DA0287D7DFFFFF0
(1357041627.27128) vcan0 18FE4A03#03134FE0FFF3FFFF
(1357041627.27142) vcan0 0C010305#FFFFE0FFFF3F3FFF
(1357041627.27155) vcan0 18EF0503#0AFC000123014E4E
(1357041627.27168) vcan0 0CF00400#0E7D7D000000007D
(1357041627.27182) vcan0 0CF00300#D10000FFFF0F7C7D
(1357041627.27198) vcan0 18FEDF00#7DA0287D7DFFFFF0
(1357041627.27210) vcan0 18FEEF00#FFFFFF00007DFFFA
(1357041627.27224) vcan0 18F03300#D007FFFFFFFFFFFF
(1357041627.27237) vcan0 18F00F00#FFFFFFFFFFFFFFFF
(1357041627.27250) vcan0 10FDA300#FFFF26FFFFFFFFFF
(1357041627.27264) vcan0 0CF00203#000000FFF7000003
(1357041627.27277) vcan0 18FEDF00#7DA0287D7DFFFFF0
(1357041627.27290) vcan0 0C010305#FFFFE0FFFF3F3FFF
(1357041627.27303) vcan0 0CF00300#D10000FFFF0F7C7D
(1357041627.27317) vcan0 18FEDF00#7DA0287D7DFFFFF0
(1357041627.27333) vcan0 18FCF200#FAFFFFFFFFFFFFFF
(1357041627.27346) vcan0 0CF00400#0E7D7D000000007D
(1357041627.27360) vcan0 0CF00300#D10000FFFF0F7C7D
(1357041627.27372) vcan0 18F00E00#FFFFFFFFFFFFFFFF
(1357041627.27385) vcan0 0CF00C03#00FB0000FFFFFFFF
(1357041627.27399) vcan0 0CF00300#D10000FFFF0F7C7D
(1357041627.27412) vcan0 0CF00400#0E7D7D000000007D
(1357041627.27427) vcan0 0CF00400#0E7D7D000000007D
(1357041627.27441) vcan0 0CFD9200#F0FFFFFFFFFFFFFF
(1357041627.27454) vcan0 0CF00203#000000FFF7000003
(1357041627.27470) vcan0 0CF00400#0E7D7D000000007D
(1357041627.27484) vcan0 18FD0700#430FFCFFFFFFFFFF
(1357041627.27497) vcan0 10FCFD00#FFFFFFFF805FFFFF
(1357041627.27510) vcan0 14FC9800#FF000000000000FF
(1357041627.27524) vcan0 18F00E00#FFFFFFFFFFFFFFFF
(1357041627.27537) vcan0 18F00F00#FFFFFFFFFFFFFFFF
(1357041627.27550) vcan0 10FDA300#FFFF26FFFFFFFFFF
(1357041627.27563) vcan0 1CFE9200#FFF47CFFFFFF0000
(1357041627.27576) vcan0 18FEDF00#7DA0287D7DFFFFF0
(1357041627.27589) vcan0 1CEBFF00#0147F362051F0139
(1357041627.27606) vcan0 0CF00300#D10000FFFF0F7C7D
(1357041627.27619) vcan0 18FD2000#F32FFFFFFFFFFFFF
(1357041627.27632) vcan0 18FCF200#FAFFFFFFFFFFFFFF
(1357041627.27645) vcan0 0CF00C03#00FB0000FFFFFFFF
(1357041627.27658) vcan0 18FECA03#00FF00000000FFFF
(1357041627.27671) vcan0 18F00E00#FFFFFFFFFFFFFFFF
(1357041627.27684) vcan0 0CF00203#000000FFF7000003
(1357041627.27698) vcan0 10FCFD00#FFFFFFFF805FFFFF
(1357041627.27710) vcan0 18FEEF00#FFFFFF00FF7CFFFA
(1357041627.27723) vcan0 0C010305#FFFFE0FFFF3F3FFF
(1357041627.27740) vcan0 18F00F00#FFFFFFFFFFFFFFFF
(1357041627.27753) vcan0 10FDA300#FFFF26FFFFFFFFFF
(1357041627.27765) vcan0 0CF00400#0E7D7D000000007D
(1357041627.27779) vcan0 18FEE000#FB660600E5660600
(1357041627.27792) vcan0 0CF00400#0E7D7D000000007D
(1357041627.27805) vcan0 0CF00C03#00FB0000FFFFFFFF
(1357041627.27817) vcan0 18EAFF00#EBFE00
(1357041627.27833) vcan0 18FCF200#FAFFFFFFFFFFFFFF
(1357041627.27845) vcan0 0CF00400#0E7D7D000000007D
(1357041627.27858) vcan0 18FCDC00#BFFFFFFFFFFF0000
(1357041627.27875) vcan0 1CEBFF00#01434D4D4E532A36
(1357041627.27888) vcan0 0CF00400#0E7D7D000000007D
(1357041627.27901) vcan0 0CF00300#D10000FFFF0F7C7D
(1357041627.27915) vcan0 18FEDF00#7DA0287D7DFFFFF0
(1357041627.27928) vcan0 18FE4A03#03134FE0FFF3FFFF
(1357041627.27941) vcan0 0CFD9200#F0FFFFFFFFFFFFFF
(1357041627.27955) vcan0 0CF00203#000000FFF7000003
(1357041627.27967) vcan0 18EBFF03#0230303020524453
(1357041627.27980) vcan0 18E0FF00#00FFFFFFFFF3FFFF
(1357041627.27994) vcan0 0CF00203#000000FFF7000003
(1357041628.28010) vcan0 0CF00400#0E7D7D000000007D
(1357041628.28023) vcan0 18F00E00#FFFFFFFFFFFFFFFF
(1357041628.28037) vcan0 1CEBFF00#0430302A37333932
(1357041628.28050) vcan0 10FDA300#FFFF26FFFFFFFFFF
(1357041628.28063) vcan0 0C010305#FFFFE0FFFF3F3FFF
(1357041628.28077) vcan0 18FEDF00#7DA0287D7DFFFFF0
(1357041628.28090) vcan0 0CF00400#0E7D7D000000007D
(1357041628.28103) vcan0 0CF00300#D10000FFFF0F7C7D
(1357041628.28116) vcan0 18FEDF00#7DA0287D7DFFFFF0
(1357041628.28133) vcan0 18FCF200#FAFFFFFFFFFFFFFF
(1357041628.28145) vcan0 0CF00400#0E7D7D000000007D
(1357041628.28158) vcan0 18FCDC00#BFFFFFFFFFFF0000
(1357041628.28172) vcan0 18F00E00#FFFFFFFFFFFFFFFF
(1357041628.28185) vcan0 18F00F00#FFFFFFFFFFFFFFFF
(1357041628.28198) vcan0 10FCFD00#FFFFFFFF805FFFFF
(1357041628.28212) vcan0 18FEEF00#FFFFFF00007DFFFA
(1357041628.28227) vcan0 0CF00C03#00FB0000FFFFFFFF
(1357041628.28240) vcan0 18FEF100#FF0000CFFFFFFFC0
(1357041628.28254) vcan0 10FDA300#FFFF26FFFFFFFFFF
(1357041628.28270) vcan0 0CF00400#0E7D7D000000007D
(1357041628.28283) vcan0 18FDC600#FC04FFFFFFFFFFFF
(1357041628.28296) vcan0 10FCFD00#FFFFFFFF805FFFFF
(1357041628.28309) vcan0 0CF00400#0E7D7D000000007D
(1357041628.28322) vcan0 18F00E00#FFFFFFFFFFFFFFFF
(1357041628.28336) vcan0 18F00F00#FFFFFFFFFFFFFFFF
(1357041628.28349) vcan0 10FDA300#FFFF26FFFFFFFFFF
(1357041628.28362) vcan0 1CFE9200#FF087DFFFFFF0000
(1357041628.28376) vcan0 18FEDF00#7DA0287D7DFFFFF0
(1357041628.28389) vcan0 0CF00400#0E7D7D000000007D
(1357041628.28405) vcan0 0C010305#FFFFE0FFFF3F3FFF
(1357041628.28419) vcan0 18FEDF00#7DA0287D7DFFFFF0
(1357041628.28432) vcan0 18FCF200#FAFFFFFFFFFFFFFF
(1357041628.28444) vcan0 0CF00C03#00FB0000FFFFFFFF
(1357041628.28457) vcan0 18EF0503#0AFC000123014E4E
(1357041628.28471) vcan0 18F00E00#FFFFFFFFFFFFFFFF
(1357041628.28484) vcan0 0CF00203#000000FFF7000003
(1357041628.28497) vcan0 0C010305#FFFFE0FFFF3F3FFF
(1357041628.28511) vcan0 14FC9800#FF000000000000FF
(1357041628.28524) vcan0 18F03300#D007FFFFFFFFFFFF
(1357041628.28540) vcan0 18F00F00#FFFFFFFFFFFFFFFF
(1357041628.28554) vcan0 10FDA300#FFFF26FFFFFFFFFF
(1357041628.28567) vcan0 0CF00400#0E7D7D000000007D
(1357041628.28580) vcan0 0CF00300#D10000FFFF0F7C7D
(1357041628.28594) vcan0 0C010305#FFFFE0FFFF3F3FFF
(1357041628.28607) vcan0 0CF00400#0E7D7D000000007D
(1357041628.28619) vcan0 0CF00300#D10000FFFF0F7C7D
(1357041628.28635) vcan0 18FCF200#FAFFFFFFFFFFFFFF
(1357041628.28648) vcan0 0CF00400#0E7D7D000000007D
(1357041628.28661) vcan0 1CFE9200#FF107DFFFFFF0000
(1357041628.28678) vcan0 18F03300#D007FFFFFFFFFFFF
(1357041628.28691) vcan0 0C010305#FFFFE0FFFF3F3FFF
(1357041628.28704) vcan0 18F00100#FFFFFFFFFFFFFFFF
(1357041628.28717) vcan0 18FEDF00#7DA0287D7DFFFFF0
(1357041628.28730) vcan0 18FCF200#FAFFFFFFFFFFFFFF
(1357041628.28743) vcan0 18FEF100#FF0000CFFFFFFFC0
(1357041628.28756) vcan0 18FEF600#FF0063FFFFFFFFFF
(1357041628.28770) vcan0 18FD9400#0000FFFFFFFFFFFF
(1357041628.28782) vcan0 18FDC600#FC04FFFFFFFFFFFF
(1357041628.28795) vcan0 10FCFD00#FFFFFFFF805FFFFF
(1357041628.28820) vcan0 1CEBFF00#03CC8057FFFFFE03
(1357041628.28833) vcan0 0CF00203#000000FFF7000003
(1357041628.28847) vcan0 0CF00400#0E7D7D000000007D
(1357041628.28860) vcan0 0CF00300#D10000FFFF0F7C7D
(1357041628.28873) vcan0 18F00E00#FFFFFFFFFFFFFFFF
(1357041628.28886) vcan0 18F00F00#FFFFFFFFFFFFFFFF
(1357041628.28899) vcan0 0CF00300#D10000FFFF0F7C7D
(1357041628.28912) vcan0 0CF00400#0E7D7D000000007D
(1357041628.28925) vcan0 0CF00C03#00FB0000FFFFFFFF
(1357041628.28942) vcan0 14FD0500#4000000000000000
(1357041628.28954) vcan0 18FEDF00#7DA0287D7DFFFFF0
(1357041628.28967) vcan0 0CF00400#0E7D7D000000007D
(1357041628.28981) vcan0 18E0FF00#00FFFFFFFFF3FFFF
(1357041628.28994) vcan0 0CF00203#000000FFF7000003
(1357041629.29007) vcan0 0CF00400#0E7D7D000000007D
(1357041629.29023) vcan0 18F00E00#FFFFFFFFFFFFFFFF
(1357041629.29036) vcan0 18F00F00#FFFFFFFFFFFFFFFF
(1357041629.29049) vcan0 10FDA300#FFFF26FFFFFFFFFF
(1357041629.29063) vcan0 1CFE9200#FFF87CFFFFFF0000
(1357041629.29079) vcan0 18FEDF00#7DA0287D7DFFFFF0
(1357041629.29092) vcan0 0CF00400#0E7D7D000000007D
(1357041629.29106) vcan0 0CF00C03#00FB0000FFFFFFFF
(1357041629.29118) vcan0 18FEDF00#7DA0287D7DFFFFF0
(1357041629.29131) vcan0 18FCF200#FAFFFFFFFFFFFFFF
(1357041629.29145) vcan0 0CF00C03#00FB0000FFFFFFFF
(1357041629.29158) vcan0 18EF0503#0AFC000123014E4E
(1357041629.29171) vcan0 18F00E00#FFFFFFFFFFFFFFFF
(1357041629.29185) vcan0 18FEF200#000000003E03FAFF
(1357041629.29198) vcan0 10FCFD00#FFFFFFFF805FFFFF
(1357041629.29214) vcan0 18FEEF00#FFFFFF00007DFFFA
(1357041629.29228) vcan0 18FE4A03#03134FE0FFF3FFFF
(1357041629.29241) vcan0 18FEF100#FF0000CFFFFFFFC0
(1357041629.29254) vcan0 0CF00203#000000FFF7000003
(1357041629.29266) vcan0 0CF00400#0E7D7D000000007D
(1357041629.29280) vcan0 18FDC600#FC04FFFFFFFFFFFF
(1357041629.29293) vcan0 0CF00400#0E7D7D000000007D
(1357041629.29306) vcan0 0CF00400#0E7D7D000000007D
(1357041629.29320) vcan0 0CF00300#D10000FFFF0F7C7D
(1357041629.29333) vcan0 18FCF200#FAFFFFFFFFFFFFFF
(1357041629.29349) vcan0 0CF00400#0E7D7D000000007D
(1357041629.29363) vcan0 1CFE9200#FF0C7DFFFFFF0000
(1357041629.29376) vcan0 18FEDF00#7DA0287D7DFFFFF0
(1357041629.29389) vcan0 0CF00400#0E7D7D000000007D
(1357041629.29402) vcan0 0CF00300#D10000FFFF0F7C7D
(1357041629.29415) vcan0 18FEDF00#7DA0287D7DFFFFF0
(1357041629.29430) vcan0 18FE4A03#03134FE0FFF3FFFF
(1357041629.29444) vcan0 0CF00203#000000FFF7000003
(1357041629.29457) vcan0 18EF0503#0AFC000123014E4E
(1357041629.29470) vcan0 18F00E00#FFFFFFFFFFFFFFFF
(1357041629.29487) vcan0 0CF00300#D10000FFFF0F7C7D
(1357041629.29500) vcan0 0CF00300#D10000FFFF0F7C7D
(1357041629.29513) vcan0 0C010305#FFFFE0FFFF3F3FFF
(1357041629.29527) vcan0 18F00503#7D00007D204E204E
(1357041629.29540) vcan0 18FEF100#FF0000CFFFFFFFC0
(1357041629.29553) vcan0 10FDA300#FFFF26FFFFFFFFFF
(1357041629.29565) vcan0 0CF00400#0E7D7D000000007D
(1357041629.29579) vcan0 18FEE000#FB660600E5660600
(1357041629.29592) vcan0 0CF00400#0E7D7D000000007D
(1357041629.29605) vcan0 0CF00400#0E7D7D000000007D
(1357041629.29622) vcan0 18FEDF00#7DA0287D7DFFFFF0
(1357041629.29635) vcan0 18F00F00#FFFFFFFFFFFFFFFF
(1357041629.29648) vcan0 0CF00400#0E7D7D000000007D
(1357041629.29662) vcan0 1CFE9200#FFF87CFFFFFF0000
(1357041629.29675) vcan0 18F03300#D007FFFFFFFFFFFF
(1357041629.29688) vcan0 1CEBFF00#0147F362051F0139
(1357041629.29702) vcan0 0CF00300#D10000FFFF0F7C7D
(1357041629.29715) vcan0 18FEDF00#7DA0287D7DFFFFF0
(1357041629.29727) vcan0 18FE4A03#03134FE0FFF3FFFF
(1357041629.29741) vcan0 18FEF100#FF0000CFFFFFFFC0
(1357041629.29757) vcan0 0CF00203#000000FFF7000003
(1357041629.29770) vcan0 18F00E00#FFFFFFFFFFFFFFFF
(1357041629.29784) vcan0 18FDC600#FC04FFFFFFFFFFFF
(1357041629.29797) vcan0 10FCFD00#FFFFFFFF805FFFFF
(1357041629.29809) vcan0 0CF00400#0E7D7D000000007D
(1357041629.29825) vcan0 18F00E00#FFFFFFFFFFFFFFFF
(1357041629.29838) vcan0 18F00F00#FFFFFFFFFFFFFFFF
(1357041629.29851) vcan0 0C010305#FFFFE0FFFF3F3FFF
(1357041629.29864) vcan0 0CF00203#000000FFF7000003
(1357041629.29880) vcan0 18FEDF00#7DA0287D7DFFFFF0
(1357041629.29893) vcan0 0CF00400#0E7D7D000000007D
(1357041629.29906) vcan0 0CF00400#0E7D7D000000007D
(1357041629.29920) vcan0 0CF00A00#00000000FFFFFFFF
(1357041629.29932) vcan0 18FCF200#FAFFFFFFFFFFFFFF
(1357041629.29945) vcan0 0CF00400#0E7D7D000000007D
(1357041629.29959) vcan0 18EF0503#0AFC000123014E4E
(1357041629.29972) vcan0 18F00E00#FFFFFFFFFFFFFFFF
(1357041629.29984) vcan0 18FD0700#470FFCFFFFFFFFFF
(1357041629.29998) vcan0 0C010305#FFFFE0FFFF3F3FFF
(1357041630.30014) vcan0 14FC9800#FF000000000000FF
(1357041630.30027) vcan0 18FE4A03#03134FE0FFF3FFFF
(1357041630.30041) vcan0 18FEF100#FF0000CFFFFFFFC0
(1357041630.30054) vcan0 10FDA300#FFFF26FFFFFFFFFF
(1357041630.30067) vcan0 0CF00400#0E7D7D000000007D
(1357041630.30081) vcan0 0CF00300#D10000FFFF0F7C7D
(1357041630.30093) vcan0 0C010305#FFFFE0FFFF3F3FFF
(1357041630.30106) vcan0 0CF00400#0E7D7D000000007D
(1357041630.30119) vcan0 0CF00300#D10000FFFF0F7C7D
(1357041630.30133) vcan0 18FCF200#FAFFFFFFFFFFFFFF
(1357041630.30149) vcan0 1CEBFF00#062A2A2A2A2A2A2A
(1357041630.30162) vcan0 1CFE9200#FF0C7DFFFFFF0000
(1357041630.30176) vcan0 18FEDF00#7DA0287D7DFFFFF0
(1357041630.30189) vcan0 18FCC500#803AFFFFFFFFFFFF
(1357041630.30202) vcan0 1CECFF00#20280006FF98FD00
(1357041630.30216) vcan0 18FEDF00#7DA0287D7DFFFFF0
(1357041630.30231) vcan0 18FE4A03#03134FE0FFF3FFFF
(1357041630.30244) vcan0 0CF00203#000000FFF7000003
(1357041630.30257) vcan0 1CEBFF00#0145010000FFFFFF
(1357041630.30270) vcan0 18F00E00#FFFFFFFFFFFFFFFF
(1357041630.30286) vcan0 18FDC600#FC04FFFFFFFFFFFF
(1357041630.30300) vcan0 0CF00300#D10000FFFF0F7C7D
(1357041630.30313) vcan0 1CEBFF00#02FFFFFFFFFFFFFF
(1357041630.30326) vcan0 18F00503#7D00007D204E204E
(1357041630.30340) vcan0 18FEF100#FF0000CFFFFFFFC0
(1357041630.30353) vcan0 10FDA300#FFFF26FFFFFFFFFF
(1357041630.30366) vcan0 1CEBFF00#03FFFFFFFFFFFFFF
(1357041630.30380) vcan0 18FEE000#FB660600E5660600
(1357041630.30393) vcan0 0CF00400#0E7D7D000000007D
(1357041630.30405) vcan0 0CF00400#0E7D7D000000007D
(1357041630.30422) vcan0 18FEDF00#7DA0287D7DFFFFF0
(1357041630.30435) vcan0 18F00F00#FFFFFFFFFFFFFFFF
(1357041630.30448) vcan0 0CF00400#0E7D7D000000007D
(1357041630.30461) vcan0 1CFE9200#FFF47CFFFFFF0000
(1357041630.30475) vcan0 18F03300#D007FFFFFFFFFFFF
(1357041630.30488) vcan0 0CF00400#0E7D7D000000007D
(1357041630.30501) vcan0 0CF00300#D10000FFFF0F7C7D
(1357041630.30515) vcan0 18FEDF00#7DA0287D7DFFFFF0
(1357041630.30528) vcan0 18FE4A03#03134FE0FFF3FFFF
(1357041630.30540) vcan0 18FEF100#FF0000CFFFFFFFC0
(1357041630.30557) vcan0 0CF00203#000000FFF7000003
(1357041630.30570) vcan0 18F00E00#FFFFFFFFFFFFFFFF
(1357041630.30583) vcan0 0CF00300#D10000FFFF0F7C7D
(1357041630.30597) vcan0 10FCFD00#FFFFFFFF805FFFFF
(1357041630.30610) vcan0 0CF00400#0E7D7D000000007D
(1357041630.30623) vcan0 18F00E00#FFFFFFFFFFFFFFFF
(1357041630.30639) vcan0 18F00F00#FFFFFFFFFFFFFFFF
(1357041630.30652) vcan0 10FDA300#FFFF26FFFFFFFFFF
(1357041630.30665) vcan0 0CF00C03#00FB0000FFFFFFFF
(1357041630.30682) vcan0 18FEDF00#7DA0287D7DFFFFF0
(1357041630.30695) vcan0 18FEDF00#7DA0287D7DFFFFF0
(1357041630.30708) vcan0 0CF00400#0E7D7D000000007D
(1357041630.30722) vcan0 18F00E00#FFFFFFFFFFFFFFFF
(1357041630.30734) vcan0 18FEDF00#7DA0287D7DFFFFF0
(1357041630.30747) vcan0 0CF00400#0E7D7D000000007D
(1357041630.30760) vcan0 1CFE9200#FFF87CFFFFFF0000
(1357041630.30774) vcan0 0CF00203#000000FFF7000003
(1357041630.30787) vcan0 0CF00400#0E7D7D000000007D
(1357041630.30800) vcan0 0CF00300#D10000FFFF0F7C7D
(1357041630.30817) vcan0 0CF00400#0E7D7D000000007D
(1357041630.30830) vcan0 18FCF200#FAFFFFFFFFFFFFFF
(1357041630.30842) vcan0 18FEF100#FF0000CFFFFFFFC0
(1357041630.30856) vcan0 18EF0503#0AFC000123014E4E
(1357041630.30869) vcan0 18FD7B00#0FFF851A0100CC82
(1357041630.30882) vcan0 0CF00300#D10000FFFF0F7C7D
(1357041630.30895) vcan0 10FCFD00#FFFFFFFF805FFFFF
(1357041630.30908) vcan0 0CF00400#0E7D7D000000007D
(1357041630.30921) vcan0 18FEDD00#FF0000FFFFFFFFFF
(1357041630.30935) vcan0 18FEDF00#7DA0287D7DFFFFF0
(1357041630.30950) vcan0 0CF00400#0E7D7D000000007D
(1357041630.30963) vcan0 18FEBD00#00F00000FFFFFFFF
(1357041630.30977) vcan0 18FEDF00#7DA0287D7DFFFFF0
(1357041630.30990) vcan0 0CF00400#0E7D7D000000007D
(1357041631.31002) vcan0 0CF00300#D10000FFFF0F7C7D
(1357041631.31015) vcan0 18EBFF03#032A2A2AFFFFFFFF
(1357041631.31029) vcan0 18FE4A03#03134FE0FFF3FFFF
(1357041631.31044) vcan0 18FEF100#FF0000CFFFFFFFC0
(1357041631.31057) vcan0 18FEDF00#7DA0287D7DFFFFF0
(1357041631.31070) vcan0 18FE9A00#5727FFFFFFFFFFFF
(1357041631.31086) vcan0 0CF00300#D10000FFFF0F7C7D
(1357041631.31099) vcan0 18FD8C00#FFFF0000FFFFFFFF
(1357041631.31113) vcan0 0C010305#FFFFE0FFFF3F3FFF
(1357041631.31126) vcan0 0CF00400#0E7D7D000000007D
(1357041631.31139) vcan0 0CF00300#D10000FFFF0F7C7D
(1357041631.31153) vcan0 10FDA300#FFFF26FFFFFFFFFF
(1357041631.31166) vcan0 0CF00400#0E7D7D000000007D
(1357041631.31179) vcan0 18FEDF00#7DA0287D7DFFFFF0
(1357041631.31192) vcan0 0CFD9200#F0FFFFFFFFFFFFFF
(1357041631.31205) vcan0 0CF00C03#00FB0000FFFFFFFF
(1357041631.31221) vcan0 18FEDF00#7DA0287D7DFFFFF0
(1357041631.31235) vcan0 18FEDB00#FFFF2D00FFFFFFFF
(1357041631.31248) vcan0 0CF00400#0E7D7D000000007D
(1357041631.31261) vcan0 1CFE9200#FF007DFFFFFF0000
(1357041631.31275) vcan0 18F03300#D007FFFFFFFFFFFF
(1357041631.31288) vcan0 0CF00400#0E7D7D000000007D
(1357041631.31301) vcan0 0CF00300#D10000FFFF0F7C7D
(1357041631.31314) vcan0 0CF00203#000000FFF7000003
(1357041631.31328) vcan0 18FE4A03#03134FE0FFF3FFFF
(1357041631.31341) vcan0 18FEF100#FF0000CFFFFFFFC0
(1357041631.31357) vcan0 0CF00203#000000FFF7000003
(1357041631.31370) vcan0 18F00E00#FFFFFFFFFFFFFFFF
(1357041631.31383) vcan0 0CF00300#D10000FFFF0F7C7D
(1357041631.31396) vcan0 10FCFD00#FFFFFFFF805FFFFF
(1357041631.31410) vcan0 0CF00400#0E7D7D000000007D
(1357041631.31423) vcan0 1CEBFF00#04FFFFFFFFFFFFFF
(1357041631.31438) vcan0 18F00F00#FFFFFFFFFFFFFFFF
(1357041631.31452) vcan0 10FDA300#FFFF26FFFFFFFFFF
(1357041631.31465) vcan0 0CF00C03#00FB0000FFFFFFFF
(1357041631.31478) vcan0 1CEBFF00#05FFFFFFFFAD8B01
(1357041631.31495) vcan0 0CF00400#0E7D7D000000007D
(1357041631.31508) vcan0 0CF00400#0E7D7D000000007D
(1357041631.31520) vcan0 18FEF000#FFFFFFFFFFFFFFFF
(1357041631.31534) vcan0 0CF00203#000000FFF7000003
(1357041631.31547) vcan0 0CF00400#0E7D7D000000007D
(1357041631.31560) vcan0 1CFE9200#FF087DFFFFFF0000
(1357041631.31574) vcan0 18F00E00#FFFFFFFFFFFFFFFF
(1357041631.31587) vcan0 1CEBFF00#0147F362051F0139
(1357041631.31600) vcan0 0CF00300#D10000FFFF0F7C7D
(1357041631.31617) vcan0 0CF00400#0E7D7D000000007D
(1357041631.31630) vcan0 18FCF200#FAFFFFFFFFFFFFFF
(1357041631.31643) vcan0 1CEBFF00#02040901FFFFFFFF
(1357041631.31655) vcan0 18FECA03#00FF00000000FFFF
(1357041631.31669) vcan0 18FD4000#FF3F00FFFFFFFFFF
(1357041631.31682) vcan0 0CF00300#D10000FFFF0F7C7D
(1357041631.31695) vcan0 10FCFD00#FFFFFFFF805FFFFF
(1357041631.31709) vcan0 0CF00400#0E7D7D000000007D
(1357041631.31722) vcan0 18F00E00#FFFFFFFFFFFFFFFF
(1357041631.31735) vcan0 18FEDB00#FFFF1700FFFFFFFF
(1357041631.31752) vcan0 0CF00400#0E7D7D000000007D
(1357041631.31765) vcan0 0CF00C03#00FB0000FFFFFFFF
(1357041631.31778) vcan0 18FEDF00#7DA0287D7DFFFFF0
(1357041631.31792) vcan0 0C010305#FFFFE0FFFF3F3FFF
(1357041631.31805) vcan0 18F00100#FFFFFFFFFFFFFFFF
(1357041631.31817) vcan0 1CECFF00#202C0007FFEBFE00
(1357041631.31831) vcan0 18FCF200#FAFFFFFFFFFFFFFF
(1357041631.31846) vcan0 0CF00203#000000FFF7000003
(1357041631.31859) vcan0 18FCDC00#BFFFFFFFFFFF0000
(1357041631.31873) vcan0 1CEBFF00#01434D4D4E532A36
(1357041631.31889) vcan0 18F00F00#FFFFFFFFFFFFFFFF
(1357041631.31902) vcan0 0CF00300#D10000FFFF0F7C7D
(1357041631.31916) vcan0 18FEDF00#7DA0287D7DFFFFF0
(1357041631.31928) vcan0 18FE4A03#03134FE0FFF3FFFF
(1357041631.31941) vcan0 0CFD9200#F0FFFFFFFFFFFFFF
(1357041631.31954) vcan0 18EF0503#0AFC000123014E4E
(1357041631.31968) vcan0 0CF00400#0E7D7D000000007D
(1357041631.31980) vcan0 0C010305#FFFFE0FFFF3F3FFF
(1357041631.31993) vcan0 0CF00400#0E7D7D000000007D
(1357041632.32007) vcan0 0CF00400#0E7D7D000000007D
(1357041632.32023) vcan0 0CF00A00#00000000FFFFFFFF
(1357041632.32035) vcan0 18F00F00#FFFFFFFFFFFFFFFF
(1357041632.32049) vcan0 10FDA300#FFFF26FFFFFFFFFF
(1357041632.32062) vcan0 1CFE9200#FFF47CFFFFFF0000
(1357041632.32075) vcan0 18F03300#D007FFFFFFFFFFFF
(1357041632.32089) vcan0 0CF00400#0E7D7D000000007D
(1357041632.32101) vcan0 0CF00300#D10000FFFF0F7C7D
(1357041632.32114) vcan0 18FEDF00#7DA0287D7DFFFFF0
(1357041632.32128) vcan0 18FE4A03#03134FE0FFF3FFFF
(1357041632.32141) vcan0 18FEF100#FF0000CFFFFFFFC0
(1357041632.32156) vcan0 10FDA300#FFFF26FFFFFFFFFF
(1357041632.32169) vcan0 0CF00A00#00000000FFFFFFFF
(1357041632.32183) vcan0 0CF00300#D10000FFFF0F7C7D
(1357041632.32196) vcan0 10FCFD00#FFFFFFFF805FFFFF
(1357041632.32209) vcan0 18FEEF00#FFFFFF00007DFFFA
(1357041632.32223) vcan0 0C010305#FFFFE0FFFF3F3FFF
(1357041632.32236) vcan0 18F00F00#FFFFFFFFFFFFFFFF
(1357041632.32251) vcan0 10FDA300#FFFF26FFFFFFFFFF
(1357041632.32265) vcan0 0CF00C03#00FB0000FFFFFFFF
(1357041632.32278) vcan0 18FEDF00#7DA0287D7DFFFFF0
(1357041632.32294) vcan0 0CF00400#0E7D7D000000007D
(1357041632.32308) vcan0 0CF00400#0E7D7D000000007D
(1357041632.32320) vcan0 18FEF000#FFFFFFFFFFFFFFFF
(1357041632.32333) vcan0 0CF00203#000000FFF7000003
(1357041632.32347) vcan0 0CF00400#0E7D7D000000007D
(1357041632.32360) vcan0 0CF00300#D10000FFFF0F7C7D
(1357041632.32373) vcan0 18F00E00#FFFFFFFFFFFFFFFF
(1357041632.32387) vcan0 0CF00400#0E7D7D000000007D
(1357041632.32400) vcan0 0CF00300#D10000FFFF0F7C7D
(1357041632.32416) vcan0 0CF00400#0E7D7D000000007D
(1357041632.32430) vcan0 18FCF200#FAFFFFFFFFFFFFFF
(1357041632.32443) vcan0 0CFD9200#F0FFFFFFFFFFFFFF
(1357041632.32456) vcan0 18FEDF00#7DA0287D7DFFFFF0
(1357041632.32468) vcan0 0CF00400#0E7D7D000000007D
(1357041632.32482) vcan0 0CF00300#D10000FFFF0F7C7D
(1357041632.32495) vcan0 10FCFD00#FFFFFFFF805FFFFF
(1357041632.32508) vcan0 0CF00400#0E7D7D000000007D
(1357041632.32522) vcan0 18F00E00#FFFFFFFFFFFFFFFF
(1357041632.32535) vcan0 18FEDF00#7DA0287D7DFFFFF0
(1357041632.32551) vcan0 0CF00400#0E7D7D000000007D
(1357041632.32565) vcan0 0CF00C03#00FB0000FFFFFFFF
(1357041632.32578) vcan0 18FEDF00#7DA0287D7DFFFFF0
(1357041632.32591) vcan0 1CEBFF00#0147F362051F0139
(1357041632.32604) vcan0 0CF00203#000000FFF7000003
(1357041632.32617) vcan0 18FEDF00#7DA0287D7DFFFFF0
(1357041632.32630) vcan0 18FCF200#FAFFFFFFFFFFFFFF
(1357041632.32646) vcan0 1CEBFF00#02040901FFFFFFFF
(1357041632.32659) vcan0 0C010305#FFFFE0FFFF3F3FFF
(1357041632.32672) vcan0 18F00E00#FFFFFFFFFFFFFFFF
(1357041632.32689) vcan0 0CF00C03#00FB0000FFFFFFFF
(1357041632.32702) vcan0 0CF00300#D10000FFFF0F7C7D
(1357041632.32715) vcan0 18FEDF00#7DA0287D7DFFFFF0
(1357041632.32729) vcan0 18FE4A03#03134FE0FFF3FFFF
(1357041632.32742) vcan0 18FEF100#FF0000CFFFFFFFC0
(1357041632.32754) vcan0 0C010305#FFFFE0FFFF3F3FFF
(1357041632.32768) vcan0 0CF00400#0E7D7D000000007D
(1357041632.32781) vcan0 18FDC600#FC04FFFFFFFFFFFF
(1357041632.32794) vcan0 0CF00203#000000FFF7000003
(1357041632.32807) vcan0 0CF00400#0E7D7D000000007D
(1357041632.32824) vcan0 18FEF000#FFFFFFFFFFFFFFFF
(1357041632.32837) vcan0 18F00F00#FFFFFFFFFFFFFFFF
(1357041632.32850) vcan0 10FDA300#FFFF26FFFFFFFFFF
(1357041632.32864) vcan0 1CFE9200#FF207DFFFFFF0000
(1357041632.32877) vcan0 18FEDF00#7DA0287D7DFFFFF0
(1357041632.32890) vcan0 0CF00400#0E7D7D000000007D
(1357041632.32904) vcan0 0C010305#FFFFE0FFFF3F3FFF
(1357041632.32917) vcan0 18FEDF00#7DA0287D7DFFFFF0
(1357041632.32929) vcan0 18FCF200#FAFFFFFFFFFFFFFF
(1357041632.32943) vcan0 0CFD9200#F0FFFFFFFFFFFFFF
(1357041632.32959) vcan0 18FEDF00#7DA0287D7DFFFFF0
(1357041632.32972) vcan0 18F00E00#FFFFFFFFFFFFFFFF
(1357041632.32986) vcan0 18FEF200#000000003D03FAFF
(1357041632.32999) vcan0 0C010305#FFFFE0FFFF3F3FFF
(1357041633.33011) vcan0 14FC9800#FF000000000000FF
(1357041633.33025) vcan0 18F03300#D007FFFFFFFFFFFF
(1357041633.33038) vcan0 1CEBFF00#0430302A37333932
(1357041633.33053) vcan0 10FDA300#FFFF26FFFFFFFFFF
(1357041633.33065) vcan0 0CF00400#0E7D7D000000007D
(1357041633.33079) vcan0 18FEE000#FB660600E5660600
(1357041633.33095) vcan0 1CEBFF00#05313335332A2A2A
(1357041633.33108) vcan0 0CF00400#0E7D7D000000007D
(1357041633.33121) vcan0 18FEF000#FFFFFFFFFFFFFFFF
(1357041633.33134) vcan0 0CF00203#000000FFF7000003
(1357041633.33147) vcan0 1CEBFF00#062A2A2A2A2A2A2A
(1357041633.33161) vcan0 1CFE9200#FFFC7CFFFFFF0000
(1357041633.33174) vcan0 18F00E00#FFFFFFFFFFFFFFFF
(1357041633.33186) vcan0 0CF00400#0E7D7D000000007D
(1357041633.33200) vcan0 0CF00300#D10000FFFF0F7C7D
(1357041633.33213) vcan0 18FEEF00#FFFFFF00007DFFFA
(1357041633.33229) vcan0 0CF00400#0E7D7D000000007D
(1357041633.33243) vcan0 18FEF100#FF0000CFFFFFFFC0
(1357041633.33255) vcan0 18FEDF00#7DA0287D7DFFFFF0
(1357041633.33268) vcan0 0CF00400#0E7D7D000000007D
(1357041633.33282) vcan0 18FDC600#FC04FFFFFFFFFFFF
(1357041633.33295) vcan0 18FEDF00#7DA0287D7DFFFFF0
(1357041633.33308) vcan0 0CF00400#0E7D7D000000007D
(1357041633.33321) vcan0 18F00E00#FFFFFFFFFFFFFFFF
(1357041633.33335) vcan0 18FEDF00#7DA0287D7DFFFFF0
(1357041633.33351) vcan0 0CF00400#0E7D7D000000007D
(1357041633.33364) vcan0 0CF00203#000000FFF7000003
(1357041633.33378) vcan0 18FEDF00#7DA0287D7DFFFFF0
(1357041633.33391) vcan0 0CF00400#0E7D7D000000007D
(1357041633.33404) vcan0 0CF00203#000000FFF7000003
(1357041633.33417) vcan0 18FEDF00#7DA0287D7DFFFFF0
(1357041633.33430) vcan0 18FCF200#FAFFFFFFFFFFFFFF
(1357041633.33443) vcan0 0CFD9200#F0FFFFFFFFFFFFFF
(1357041633.33459) vcan0 18FEDF00#7DA0287D7DFFFFF0
(1357041633.33472) vcan0 18F00E00#FFFFFFFFFFFFFFFF
(1357041633.33488) vcan0 0CF00C03#00FB0000FFFFFFFF
(1357041633.33502) vcan0 0CF00300#D10000FFFF0F7C7D
(1357041633.33515) vcan0 18FEDF00#7DA0287D7DFFFFF0
(1357041633.33528) vcan0 18FE4A03#03134FE0FFF3FFFF
(1357041633.33542) vcan0 18FEF100#FF0000CFFFFFFFC0
(1357041633.33555) vcan0 18EF0503#0AFC000123014E4E
(1357041633.33567) vcan0 0CF00400#0E7D7D000000007D
(1357041633.33581) vcan0 0CF00300#D10000FFFF0F7C7D
(1357041633.33594) vcan0 0CF00203#000000FFF7000003
(1357041633.33607) vcan0 0CF00400#0E7D7D000000007D
(1357041633.33624) vcan0 0CF00A00#00000000FFFFFFFF
(1357041633.33637) vcan0 18F00F00#FFFFFFFFFFFFFFFF
(1357041633.33650) vcan0 10FDA300#FFFF26FFFFFFFFFF
(1357041633.33664) vcan0 1CFE9200#FF0C7DFFFFFF0000
(1357041633.33677) vcan0 18FEDF00#7DA0287D7DFFFFF0
(1357041633.33690) vcan0 18FCC500#7C3AFFFFFFFFFFFF
(1357041633.33702) vcan0 0CF00300#D10000FFFF0F7C7D
(1357041633.33716) vcan0 18FEDF00#7DA0287D7DFFFFF0
(1357041633.33729) vcan0 18FCF200#FAFFFFFFFFFFFFFF
(1357041633.33742) vcan0 18FEF100#FF0000CFFFFFFFC0
(1357041633.33759) vcan0 18FEF600#FF0063FFFFFFFFFF
(1357041633.33772) vcan0 18F00E00#FFFFFFFFFFFFFFFF
(1357041633.33785) vcan0 0CF00C03#00FB0000FFFFFFFF
(1357041633.33799) vcan0 10FCFD00#FFFFFFFF805FFFFF
(1357041633.33812) vcan0 1CEBFF00#03CC8057FFFFFE03
(1357041633.33825) vcan0 0CF00C03#00FB0000FFFFFFFF
(1357041633.33839) vcan0 18F00F00#FFFFFFFFFFFFFFFF
(1357041633.33854) vcan0 10FDA300#FFFF26FFFFFFFFFF
(1357041633.33867) vcan0 0CF00400#0E7D7D000000007D
(1357041633.33880) vcan0 0CF00300#D10000FFFF0F7C7D
(1357041633.33896) vcan0 0CF00400#0E7D7D000000007D
(1357041633.33909) vcan0 0CF00400#0E7D7D000000007D
(1357041633.33923) vcan0 18F00E00#FFFFFFFFFFFFFFFF
(1357041633.33936) vcan0 18F00F00#FFFFFFFFFFFFFFFF
(1357041633.33949) vcan0 10FDA300#FFFF26FFFFFFFFFF
(1357041633.33963) vcan0 18FEBD00#00F00000FFFFFFFF
(1357041633.33976) vcan0 18FEDF00#7DA0287D7DFFFFF0
(1357041633.33989) vcan0 0CF00400#0E7D7D000000007D
(1357041634.34002) vcan0 0CF00300#D10000FFFF0F7C7D
(1357041634.34016) vcan0 18FEDF00#7DA0287D7DFFFFF0
(1357041634.34032) vcan0 18FE4A03#03134FE0FFF3FFFF
(1357041634.34044) vcan0 0CF00C03#00FB0000FFFFFFFF
(1357041634.34058) vcan0 18FEDF00#7DA0287D7DFFFFF0
(1357041634.34071) vcan0 18F00E00#FFFFFFFFFFFFFFFF
(1357041634.34084) vcan0 0CF00203#000000FFF7000003
(1357041634.34097) vcan0 18FE9900#FFFFFFFFFFFFFFFF
(1357041634.34110) vcan0 0C010305#FFFFE0FFFF3F3FFF
(1357041634.34123) vcan0 18F00E00#FFFFFFFFFFFFFFFF
(1357041634.34137) vcan0 18F00F00#FFFFFFFFFFFFFFFF
(1357041634.34152) vcan0 10FDA300#FFFF26FFFFFFFFFF
(1357041634.34165) vcan0 0CF00400#0E7D7D000000007D
(1357041634.34179) vcan0 18FEDF00#7DA0287D7DFFFFF0
(1357041634.34192) vcan0 1CEBFF00#05313335332A2A2A
(1357041634.34204) vcan0 18F00100#FFFFFFFFFFFFFFFF
(1357041634.34217) vcan0 18FEDF00#7DA0287D7DFFFFF0
(1357041634.34231) vcan0 18FCF200#FAFFFFFFFFFFFFFF
(1357041634.34244) vcan0 0CF00203#000000FFF7000003
(1357041634.34259) vcan0 18FEF600#FF0063FFFFFFFFFF
(1357041634.34272) vcan0 18F00E00#FFFFFFFFFFFFFFFF
(1357041634.34288) vcan0 0CF00C03#00FB0000FFFFFFFF
(1357041634.34301) vcan0 1CEBFF00#072A2AFFFFFFFFFF
(1357041634.34315) vcan0 18FEDF00#7DA0287D7DFFFFF0
(1357041634.34328) vcan0 18FE4A03#03134FE0FFF3FFFF
(1357041634.34341) vcan0 18FEF100#FF0000CFFFFFFFC0
(1357041634.34355) vcan0 18EF0503#0AFC000123014E4E
(1357041634.34368) vcan0 0CF00400#0E7D7D000000007D
(1357041634.34381) vcan0 0CF00300#D10000FFFF0F7C7D
(1357041634.34394) vcan0 0CF00203#000000FFF7000003
(1357041634.34407) vcan0 0CF00400#0E7D7D000000007D
(1357041634.34423) vcan0 18FEF000#FFFFFFFFFFFFFFFF
(1357041634.34437) vcan0 18F00F00#FFFFFFFFFFFFFFFF
(1357041634.34450) vcan0 10FDA300#FFFF26FFFFFFFFFF
(1357041634.34463) vcan0 1CFE9200#FF007DFFFFFF0000
(1357041634.34477) vcan0 18FEDF00#7DA0287D7DFFFFF0
(1357041634.34490) vcan0 0CF00400#0E7D7D000000007D
(1357041634.34503) vcan0 0CF00300#D10000FFFF0F7C7D
(1357041634.34516) vcan0 18FEDF00#7DA0287D7DFFFFF0
(1357041634.34530) vcan0 18FDB400#F02F7034FFFFFFFF
(1357041634.34543) vcan0 18FEF100#FF0000CFFFFFFFC0
(1357041634.34560) vcan0 18FEDF00#7DA0287D7DFFFFF0
(1357041634.34572) vcan0 18F00E00#FFFFFFFFFFFFFFFF
(1357041634.34585) vcan0 0CF00C03#00FB0000FFFFFFFF
(1357041634.34598) vcan0 10FCFD00#FFFFFFFF805FFFFF
(1357041634.34612) vcan0 0CF00400#0E7D7D000000007D
(1357041634.34625) vcan0 0CF00C03#00FB0000FFFFFFFF
(1357041634.34638) vcan0 18F00F00#FFFFFFFFFFFFFFFF
(1357041634.34652) vcan0 10FDA300#FFFF26FFFFFFFFFF
(1357041634.34667) vcan0 0CF00C03#00FB0000FFFFFFFF
(1357041634.34680) vcan0 0CF00300#D10000FFFF0F7C7D
(1357041634.34697) vcan0 0CFD9200#F0FFFFFFFFFFFFFF
(1357041634.34709) vcan0 18FEEF00#FFFFFF00FF7CFFFA
(1357041634.34722) vcan0 18F00E00#FFFFFFFFFFFFFFFF
(1357041634.34736) vcan0 18F00F00#FFFFFFFFFFFFFFFF
(1357041634.34749) vcan0 0CF00400#0E7D7D000000007D
(1357041634.34762) vcan0 1CFE9200#FFF47CFFFFFF0000
(1357041634.34776) vcan0 18FD6E00#FFFFFFFFFF1200FF
(1357041634.34789) vcan0 0C010305#FFFFE0FFFF3F3FFF
(1357041634.34802) vcan0 0CF00300#D10000FFFF0F7C7D
(1357041634.34816) vcan0 18FEDF00#7DA0287D7DFFFFF0
(1357041634.34832) vcan0 18FE4A03#03134FE0FFF3FFFF
(1357041634.34845) vcan0 18FE5600#FA3DFFFF1F1F00FF
(1357041634.34857) vcan0 18FEDF00#7DA0287D7DFFFFF0
(1357041634.34871) vcan0 18F00E00#FFFFFFFFFFFFFFFF
(1357041634.34884) vcan0 0CF00203#000000FFF7000003
(1357041634.34897) vcan0 10FCFD00#FFFFFFFF805FFFFF
(1357041634.34911) vcan0 0CF00400#0E7D7D000000007D
(1357041634.34924) vcan0 0CF00203#000000FFF7000003
(1357041634.34937) vcan0 14FD0500#4000000000000000
(1357041634.34951) vcan0 10FDA300#FFFF26FFFFFFFFFF
(1357041634.34967) vcan0 18FEBD00#00F00000FFFFFFFF
(1357041634.34980) vcan0 0CF00300#D10000FFFF0F7C7D
(1357041635.35020) vcan0 0CF00400#0E7D7D000000007D
(1357041635.35034) vcan0 18FCF200#FAFFFFFFFFFFFFFF
(1357041635.35047) vcan0 0CF00400#0E7D7D000000007D
(1357041635.35059) vcan0 18FCDC00#BFFFFFFFFFFF0000
(1357041635.35073) vcan0 18F00E00#FFFFFFFFFFFFFFFF
(1357041635.35088) vcan0 0CF00400#0E7D7D000000007D
(1357041635.35101) vcan0 0CF00300#D10000FFFF0F7C7D
(1357041635.35118) vcan0 18FEDF00#7DA0287D7DFFFFF0
(1357041635.35131) vcan0 18FCF200#FAFFFFFFFFFFFFFF
(1357041635.35144) vcan0 0CF00203#000000FFF7000003
(1357041635.35158) vcan0 18FEDF00#7DA0287D7DFFFFF0
(1357041635.35170) vcan0 0CF00A00#00000000FFFFFFFF
(1357041635.35183) vcan0 0CF00300#D10000FFFF0F7C7D
(1357041635.35196) vcan0 10FCFD00#FFFFFFFF805FFFFF
(1357041635.35210) vcan0 18FEEF00#FFFFFF00FF7CFFFA
(1357041635.35223) vcan0 0C010305#FFFFE0FFFF3F3FFF
(1357041635.35235) vcan0 18FEDB00#FFFF0000FFFFFFFF
(1357041635.35252) vcan0 0CF00400#0E7D7D000000007D
(1357041635.35265) vcan0 0CF00C03#00FB0000FFFFFFFF
(1357041635.35278) vcan0 18FEDF00#7DA0287D7DFFFFF0
(1357041635.35291) vcan0 0CF00400#0E7D7D000000007D
(1357041635.35304) vcan0 0CF00203#000000FFF7000003
(1357041635.35317) vcan0 18FEDF00#7DA0287D7DFFFFF0
(1357041635.35331) vcan0 18FCF200#FAFFFFFFFFFFFFFF
(1357041635.35343) vcan0 18FEF100#FF0000CFFFFFFFC0
(1357041635.35356) vcan0 18FEDF00#7DA0287D7DFFFFF0
(1357041635.35369) vcan0 0CF00A00#00000000FFFFFFFF
(1357041635.35386) vcan0 0CF00300#D10000FFFF0F7C7D
(1357041635.35399) vcan0 10FCFD00#FFFFFFFF805FFFFF
(1357041635.35412) vcan0 0CF00400#0E7D7D000000007D
(1357041635.35426) vcan0 0CF00C03#00FB0000FFFFFFFF
(1357041635.35438) vcan0 18F00F00#FFFFFFFFFFFFFFFF
(1357041635.35451) vcan0 10FDA300#FFFF26FFFFFFFFFF
(1357041635.35465) vcan0 0CF00C03#00FB0000FFFFFFFF
(1357041635.35478) vcan0 1CEBFF00#05FFFFFFFFAD8B01
(1357041635.35493) vcan0 0CF00400#0E7D7D000000007D
(1357041635.35507) vcan0 0CF00400#0E7D7D000000007D
(1357041635.35523) vcan0 0CF00A00#00000000FFFFFFFF
(1357041635.35536) vcan0 18F00F00#FFFFFFFFFFFFFFFF
(1357041635.35550) vcan0 10FDA300#FFFF26FFFFFFFFFF
(1357041635.35563) vcan0 0C010305#FFFFE0FFFF3F3FFF
(1357041635.35576) vcan0 18FD6E00#FFFFFFFFFF1200FF
(1357041635.35590) vcan0 1CEBFF00#0147F362051F0139
(1357041635.35603) vcan0 0CF00300#D10000FFFF0F7C7D
(1357041635.35616) vcan0 18FEDF00#7DA0287D7DFFFFF0
(1357041635.35630) vcan0 18FEF803#FFFFFFFF6029FBDE
(1357041635.35643) vcan0 1CEBFF00#02040901FFFFFFFF
(1357041635.35659) vcan0 18FECA03#00FF00000000FFFF
(1357041635.35673) vcan0 18F00E00#FFFFFFFFFFFFFFFF
(1357041635.35686) vcan0 0CF00C03#00FB0000FFFFFFFF
(1357041635.35698) vcan0 10FCFD00#FFFFFFFF805FFFFF
(1357041635.35712) vcan0 18FEEF00#FFFFFF00FF7CFFFA
(1357041635.35725) vcan0 0CF00C03#00FB0000FFFFFFFF
(1357041635.35738) vcan0 18F00F00#FFFFFFFFFFFFFFFF
(1357041635.35751) vcan0 10FDA300#FFFF26FFFFFFFFFF
(1357041635.35765) vcan0 0CF00C03#00FB0000FFFFFFFF
(1357041635.35778) vcan0 18FEDF00#7DA0287D7DFFFFF0
(1357041635.35794) vcan0 0CF00400#0E7D7D000000007D
(1357041635.35808) vcan0 0CF00400#0E7D7D000000007D
(1357041635.35821) vcan0 18FEF000#FFFFFFFFFFFFFFFF
(1357041635.35833) vcan0 0CF00203#000000FFF7000003
(1357041635.35847) vcan0 0CF00400#0E7D7D000000007D
(1357041635.35860) vcan0 0CF00300#D10000FFFF0F7C7D
(1357041635.35873) vcan0 1CEBFF00#01434D4D4E532A36
(1357041635.35887) vcan0 0CF00400#0E7D7D000000007D
(1357041635.35905) vcan0 0CF00300#D10000FFFF0F7C7D
(1357041635.35921) vcan0 18FEDF00#7DA0287D7DFFFFF0
(1357041635.35935) vcan0 18FEDF00#7DA0287D7DFFFFF0
(1357041635.35948) vcan0 0C010305#FFFFE0FFFF3F3FFF
(1357041635.35961) vcan0 18FEBD00#00F00000FFFFFFFF
(1357041635.35975) vcan0 0CF00203#000000FFF7000003
(1357041635.35988) vcan0 0CF00400#0E7D7D000000007D
(1357041636.36001) vcan0 0CF00300#D10000FFFF0F7C7D
(1357041636.36015) vcan0 0CF00203#000000FFF7000003
(1357041636.36028) vcan0 18FE4A03#03134FE0FFF3FFFF
(1357041636.36040) vcan0 18FEF100#FF0000CFFFFFFFC0
(1357041636.36058) vcan0 0CF00203#000000FFF7000003
(1357041636.36070) vcan0 18FD9400#0000FFFFFFFFFFFF
(1357041636.36083) vcan0 0CF00300#D10000FFFF0F7C7D
(1357041636.36097) vcan0 18FE9900#FFFFFFFFFFFFFFFF
(1357041636.36110) vcan0 0CF00400#0E7D7D000000007D
(1357041636.36123) vcan0 18F00E00#FFFFFFFFFFFFFFFF
(1357041636.36136) vcan0 18F00F00#FFFFFFFFFFFFFFFF
(1357041636.36150) vcan0 10FDA300#FFFF26FFFFFFFFFF
(1357041636.36163) vcan0 1CFE9200#FF007DFFFFFF0000
(1357041636.36176) vcan0 18FEDF00#7DA0287D7DFFFFF0
(1357041636.36193) vcan0 18FCC500#793AFFFFFFFFFFFF
(1357041636.36205) vcan0 0CF00400#0E7D7D000000007D
(1357041636.36218) vcan0 18FEDF00#7DA0287D7DFFFFF0
(1357041636.36232) vcan0 18FCF200#FAFFFFFFFFFFFFFF
(1357041636.36245) vcan0 0CF00C03#00FB0000FFFFFFFF
(1357041636.36258) vcan0 1CEBFF00#0145010000FFFFFF
(1357041636.36271) vcan0 18F00E00#FFFFFFFFFFFFFFFF
(1357041636.36284) vcan0 0CF00203#000000FFF7000003
(1357041636.36300) vcan0 10FCFD00#FFFFFFFF805FFFFF
(1357041636.36314) vcan0 1CEBFF00#02FFFFFFFFFFFFFF
(1357041636.36329) vcan0 0CF00400#0E7D7D000000007D
(1357041636.36342) vcan0 18FEF100#FF0000CFFFFFFFC0
(1357041636.36356) vcan0 18FEDF00#7DA0287D7DFFFFF0
(1357041636.36369) vcan0 1CEBFF00#03FFFFFFFFFFFFFF
(1357041636.36381) vcan0 0CF00300#D10000FFFF0F7C7D
(1357041636.36395) vcan0 18FEDF00#7DA0287D7DFFFFF0
(1357041636.36408) vcan0 0CF00400#0E7D7D000000007D
(1357041636.36421) vcan0 18FEF000#FFFFFFFFFFFFFFFF
(1357041636.36433) vcan0 0CF00203#000000FFF7000003
(1357041636.36447) vcan0 0CF00400#0E7D7D000000007D
(1357041636.36463) vcan0 0CF00300#D10000FFFF0F7C7D
(1357041636.36476) vcan0 18FEDF00#7DA0287D7DFFFFF0
(1357041636.36490) vcan0 0CF00400#0E7D7D000000007D
(1357041636.36503) vcan0 0CF00300#D10000FFFF0F7C7D
(1357041636.36516) vcan0 18FEDF00#7DA0287D7DFFFFF0
(1357041636.36530) vcan0 0C010305#FFFFE0FFFF3F3FFF
(1357041636.36543) vcan0 18FEF100#FF0000CFFFFFFFC0
(1357041636.36555) vcan0 18FEDF00#7DA0287D7DFFFFF0
(1357041636.36569) vcan0 0CF00400#0E7D7D000000007D
(1357041636.36582) vcan0 0CF00300#D10000FFFF0F7C7D
(1357041636.36598) vcan0 10FCFD00#FFFFFFFF805FFFFF
(1357041636.36612) vcan0 0CF00400#0E7D7D000000007D
(1357041636.36625) vcan0 0CF00C03#00FB0000FFFFFFFF
(1357041636.36638) vcan0 18F00F00#FFFFFFFFFFFFFFFF
(1357041636.36652) vcan0 10FDA300#FFFF26FFFFFFFFFF
(1357041636.36665) vcan0 0CF00C03#00FB0000FFFFFFFF
(1357041636.36678) vcan0 18FEDF00#7DA0287D7DFFFFF0
(1357041636.36691) vcan0 0CFD9200#F0FFFFFFFFFFFFFF
(1357041636.36707) vcan0 18F00100#FFFFFFFFFFFFFFFF
(1357041636.36720) vcan0 0CF00300#D10000FFFF0F7C7D
(1357041636.36737) vcan0 18FCF200#FAFFFFFFFFFFFFFF
(1357041636.36749) vcan0 0CF00400#0E7D7D000000007D
(1357041636.36762) vcan0 1CFE9200#FF007DFFFFFF0000
(1357041636.36775) vcan0 18FD6E00#FFFFFFFFFF1200FF
(1357041636.36789) vcan0 0CF00400#0E7D7D000000007D
(1357041636.36802) vcan0 0CF00300#D10000FFFF0F7C7D
(1357041636.36815) vcan0 18FEDF00#7DA0287D7DFFFFF0
(1357041636.36829) vcan0 18FE4A03#03134FE0FFF3FFFF
(1357041636.36842) vcan0 18FEF100#FF0000CFFFFFFFC0
(1357041636.36858) vcan0 18EF0503#0AFC000123014E4E
(1357041636.36872) vcan0 18F00E00#FFFFFFFFFFFFFFFF
(1357041636.36885) vcan0 18FEF200#000000003D03FAFF
(1357041636.36897) vcan0 10FCFD00#FFFFFFFF805FFFFF
(1357041636.36911) vcan0 0CF00400#0E7D7D000000007D
(1357041636.36924) vcan0 0CF00203#000000FFF7000003
(1357041636.36937) vcan0 14FD0500#4000000000000000
(1357041636.36951) vcan0 10FDA300#FFFF26FFFFFFFFFF
(1357041636.36964) vcan0 0C010305#FFFFE0FFFF3F3FFF
(1357041636.36977) vcan0 18FEDF00#7DA0287D7DFFFFF0
(1357041636.36994) vcan0 0CF00400#0E7D7D000000007D
(1357041637.37007) vcan0 18FEF500#C6FFFFB225FFFFFF
(1357041637.37020) vcan0 0CF00300#D10000FFFF0F7C7D
(1357041637.37033) vcan0 18FCF200#FAFFFFFFFFFFFFFF
(1357041637.37046) vcan0 0CF00400#0E7D7D000000007D
(1357041637.37059) vcan0 18FCDC00#BFFFFFFFFFFF0000
(1357041637.37072) vcan0 18F00E00#FFFFFFFFFFFFFFFF
(1357041637.37086) vcan0 18F00F00#FFFFFFFFFFFFFFFF
(1357041637.37099) vcan0 18FE9900#FFFFFFFFFFFFFFFF
(1357041637.37114) vcan0 0C010305#FFFFE0FFFF3F3FFF
(1357041637.37131) vcan0 18FE4A03#03134FE0FFF3FFFF
(1357041637.37144) vcan0 0CF00203#000000FFF7000003
(1357041637.37157) vcan0 0C010305#FFFFE0FFFF3F3FFF
(1357041637.37171) vcan0 0CF00A00#00000000FFFFFFFF
(1357041637.37184) vcan0 0CF00300#D10000FFFF0F7C7D
(1357041637.37197) vcan0 10FCFD00#FFFFFFFF805FFFFF
(1357041637.37211) vcan0 18FEEF00#FFFFFF00FF7CFFFA
(1357041637.37224) vcan0 18F00E00#FFFFFFFFFFFFFFFF
(1357041637.37237) vcan0 18F00F00#FFFFFFFFFFFFFFFF
(1357041637.37250) vcan0 10FDA300#FFFF26FFFFFFFFFF
(1357041637.37266) vcan0 1CFE9200#FF0C7DFFFFFF0000
(1357041637.37279) vcan0 18FEE000#FB660600E5660600
(1357041637.37293) vcan0 0CF00400#0E7D7D000000007D
(1357041637.37306) vcan0 18F00100#FFFFFFFFFFFFFFFF
(1357041637.37318) vcan0 18FEDF00#7DA0287D7DFFFFF0
(1357041637.37331) vcan0 18FCF200#FAFFFFFFFFFFFFFF
(1357041637.37345) vcan0 0CF00C03#00FB0000FFFFFFFF
(1357041637.37358) vcan0 18FEDF00#7DA0287D7DFFFFF0
(1357041637.37371) vcan0 18F00E00#FFFFFFFFFFFFFFFF
(1357041637.37384) vcan0 0CF00203#000000FFF7000003
(1357041637.37409) vcan0 10FCFD00#FFFFFFFF805FFFFF
(1357041637.37423) vcan0 1CEBFF00#04FFFFFFFFFFFFFF
(1357041637.37435) vcan0 18FEDF00#7DA0287D7DFFFFF0
(1357041637.37448) vcan0 0C010305#FFFFE0FFFF3F3FFF
(1357041637.37462) vcan0 1CFE9200#FF007DFFFFFF0000
(1357041637.37475) vcan0 0CF00203#000000FFF7000003
(1357041637.37487) vcan0 0CF00400#0E7D7D000000007D
(1357041637.37502) vcan0 0CF00300#D10000FFFF0F7C7D
(1357041637.37516) vcan0 18FEDF00#7DA0287D7DFFFFF0
(1357041637.37529) vcan0 18FE4A03#03134FE0FFF3FFFF
(1357041637.37545) vcan0 18FEF100#FF0000CFFFFFFFC0
(1357041637.37559) vcan0 18FEDF00#7DA0287D7DFFFFF0
(1357041637.37571) vcan0 18F00E00#FFFFFFFFFFFFFFFF
(1357041637.37584) vcan0 0CF00C03#00FB0000FFFFFFFF
(1357041637.37598) vcan0 10FCFD00#FFFFFFFF805FFFFF
(1357041637.37611) vcan0 0CF00400#0E7D7D000000007D
(1357041637.37624) vcan0 0CF00C03#00FB0000FFFFFFFF
(1357041637.37638) vcan0 18F00F00#FFFFFFFFFFFFFFFF
(1357041637.37651) vcan0 10FDA300#FFFF26FFFFFFFFFF
(1357041637.37667) vcan0 0CF00203#000000FFF7000003
(1357041637.37681) vcan0 0CF00300#D10000FFFF0F7C7D
(1357041637.37694) vcan0 0CFD9200#F0FFFFFFFFFFFFFF
(1357041637.37707) vcan0 0CF00400#0E7D7D000000007D
(1357041637.37721) vcan0 0CF00A00#00000000FFFFFFFF
(1357041637.37733) vcan0 18FCF200#FAFFFFFFFFFFFFFF
(1357041637.37746) vcan0 0CF00400#0E7D7D000000007D
(1357041637.37760) vcan0 18FCDC00#BFFFFFFFFFFF0000
(1357041637.37773) vcan0 18F00E00#FFFFFFFFFFFFFFFF
(1357041637.37786) vcan0 0CF00400#0E7D7D000000007D
(1357041637.37803) vcan0 10FCFD00#FFFFFFFF805FFFFF
(1357041637.37816) vcan0 18FEDF00#7DA0287D7DFFFFF0
