84731 2014 International ProStar EPA13 Cummins ISX Eaton Autoshift- Key on diagnostics

Time,ID,DLC,Data
(1357041620.20537) vcan0 18FF2921#00000080F800FFFF
(1357041620.20552) vcan0 18FF2921#00000080F800FFFF
(1357041620.20591) vcan0 18EF2117#02000000FFFFDCAD
(1357041621.21047) vcan0 18EF2117#02000000FFFFDCAD
(1357041621.21548) vcan0 18EF2117#02000000FFFFDCAD
(1357041622.22047) vcan0 18EF2117#02000000FFFFDCAD
(1357041622.22548) vcan0 18EF2117#02000000FFFFDCAD
(1357041623.23049) vcan0 18EF2117#02000000FFFFDCAD
(1357041623.23548) vcan0 18EF2117#02000000FFFFDCAD
(1357041624.24049) vcan0 18EF2117#02000000FFFFDCAD
(1357041624.24550) vcan0 18EF2117#02000000FFFFDCAD
(1357041625.25051) vcan0 18EF2117#02000000FFFFDCAD
(1357041625.25550) vcan0 18EF2117#02000000FFFFDCAD
(1357041626.26051) vcan0 18EF2117#02000000FFFFDCAD
(1357041626.26552) vcan0 18EF2117#02000000FFFFDCAD
(1357041627.27053) vcan0 18EF2117#02000000FFFFDCAD
(1357041627.27552) vcan0 18EF2117#02000000FFFFDCAD
(1357041628.28053) vcan0 18EF2117#02000000FFFFDCAD
(1357041628.28554) vcan0 18EF2117#02000000FFFFDCAD
(1357041629.29054) vcan0 18EF2117#02000000FFFFDCAD
(1357041629.29554) vcan0 18EF2117#02000000FFFFDCAD
(1357041630.30055) vcan0 18EF2117#02000000FFFFDCAD
(1357041630.30556) vcan0 18EF2117#02000000FFFFDCAD
(1357041631.31056) vcan0 18EF2117#02000000FFFFDCAD
(1357041636.36412) vcan0 18EF1721#0200000100000000
(1357041636.36426) vcan0 18E00021#00FFFFFFFFF8FFFF
(1357041636.36440) vcan0 18FF2921#00000088F800FFFF
(1357041636.36453) vcan0 18EF2117#02000000FFFFDCAD
(1357041636.36466) vcan0 18FF2921#00000088F800FFFF
(1357041636.36480) vcan0 18FF2921#00000088F800FFFF
(1357041636.36496) vcan0 18D0FF17#00FFFFFFFFFFFFFF
(1357041636.36509) vcan0 18FF2617#00000000AD019C03
(1357041636.36523) vcan0 18FEF121#F7FFFFC300FFFFF0
(1357041636.36536) vcan0 18EF1721#0240000100000000
(1357041636.36549) vcan0 18EEFF17#4347600500130000
(1357041636.36572) vcan0 18F00121#FFFFD3FF00FFFFFF
(1357041636.36587) vcan0 18F0010B#C0FFC0FFFF5CFF3F
(1357041636.36599) vcan0 18FEF021#FFFFFFFFFFFC00FF
(1357041636.36613) vcan0 18EAFFFE#00EE00
(1357041636.36626) vcan0 18FEF121#F7FFFFC300FFFFF0
(1357041636.36642) vcan0 18EA1C17#E8FE00
(1357041636.36655) vcan0 18EAFFFE#00EE00
(1357041636.36667) vcan0 18FEF10B#FF0000FFFFFFFFFF
(1357041636.36680) vcan0 18EEFF17#4347600500130000
(1357041636.36694) vcan0 18EAFF00#EBFE00
(1357041636.36706) vcan0 18FEF021#FFFFFFFFFFFC00FF
(1357041636.36719) vcan0 0CF00400#4E7D7D0000FE007D
(1357041636.36732) vcan0 18FEF121#F7FFFFC300FFFFF0
(1357041636.36746) vcan0 18FEF721#FFFFFFFF0201FC00
(1357041636.36759) vcan0 18EA0017#E9FE00
(1357041636.36774) vcan0 0CF00300#C10000FFFF0F667E
(1357041636.36788) vcan0 18FEDF00#7EA0287D7DFFFFF0
(1357041636.36801) vcan0 18F0010B#C0FFC0FFFF5CFF3F
(1357041636.36818) vcan0 0CF00400#4E7D7D000000007D
(1357041636.36834) vcan0 0CF00300#C10000FFFF0F667E
(1357041636.36846) vcan0 18F00121#FFFFD3FF00FFFFFF
(1357041636.36859) vcan0 18EBFF17#032A303133313931
(1357041636.36873) vcan0 0CF00300#C10000FFFF0F667E
(1357041636.36886) vcan0 18EA2117#EAFE00
(1357041636.36898) vcan0 0CF00203#CE0000FFF00000FF
(1357041636.36915) vcan0 18FEBF0B#00007D7D7D7DFFFF
(1357041636.36928) vcan0 18FEDF00#7EA0287D7DFFFFF0
(1357041636.36941) vcan0 0CF00203#CE0000FFF00000FF
(1357041636.36955) vcan0 0CF00400#4E7D7D0000000F7D
(1357041636.36968) vcan0 18FEDF00#7EA0287D7DFFFFF0
(1357041636.36981) vcan0 0CF00203#CE0000FFF00000FF
(1357041636.36995) vcan0 0CF00400#4E7D7D0000000F7D
(1357041637.37008) vcan0 0CF00A00#00000000FFFFFFFF
(1357041637.37021) vcan0 0CF00203#CE0000FFF00000FF
(1357041637.37035) vcan0 0CF00C03#FFFF0000FFFFFFFF
(1357041637.37050) vcan0 18F00121#FFFFD3FF00FFFFFF
(1357041637.37063) vcan0 18FEF10B#FF0000FFFFFFFFFF
(1357041637.37076) vcan0 0CF00400#4E7D7D0000000F7D
(1357041637.37090) vcan0 0CF00203#CE0000FFF00000FF
(1357041637.37102) vcan0 18F0010B#C0FFC0FFFF5CFF3F
(1357041637.37115) vcan0 0CF00400#4E7D7D0000000F7D
(1357041637.37129) vcan0 0CF00300#C10000FFFF0F667E
(1357041637.37142) vcan0 0CF00203#CE0000FFF00000FF
(1357041637.37154) vcan0 0CF00400#4E7D7D0000000F7D
(1357041637.37168) vcan0 18FEDF00#7EA0287D7DFFFFF0
(1357041637.37184) vcan0 0CF00203#CE0000FFF00000FF
(1357041637.37197) vcan0 0CF00400#4E7D7D0000000F7D
(1357041637.37211) vcan0 0CF00203#CE0000FFF00000FF
(1357041637.37225) vcan0 18F00F00#FFFFFFFFC09FFFFF
(1357041637.37238) vcan0 0CF00400#4E7D7D0000000F7D
(1357041637.37252) vcan0 18F00E00#FFFFFFFFFFFFFFFF
(1357041637.37265) vcan0 18FEF10B#FF0000FFFFFFFFFF
(1357041637.37278) vcan0 1CECFF03#201F0005FFEBFE00
(1357041637.37291) vcan0 18FCF200#FAFFFFFFFFFFFFFF
(1357041637.37304) vcan0 18F0010B#C0FFC0FFFF5CFF3F
(1357041637.37320) vcan0 0CF00400#4E7D7D0000000F7D
(1357041637.37334) vcan0 0CF00C03#FFFF0000FFFFFFFF
(1357041637.37347) vcan0 18FEF021#FFFFFFFFFFFC00FF
(1357041637.37360) vcan0 0CF00203#CE0000FFF00000FF
(1357041637.37373) vcan0 18FEF100#FF0000FCFF6100C0
(1357041637.37386) vcan0 0CF00203#CE0000FFF00000FF
(1357041637.37399) vcan0 0CF00203#CE0000FFF00000FF
(1357041637.37412) vcan0 18FD9400#935BFFFFFFFFFFFF
(1357041637.37426) vcan0 18FDC40B#1FFFFFFFFFFFFFFF
(1357041637.37439) vcan0 0CF00400#4E7D7D0000000F7D
(1357041637.37455) vcan0 1CEBFF00#0430302A37393637
(1357041637.37469) vcan0 18FEDF00#7EA0287D7DFFFFF0
(1357041637.37482) vcan0 18EBFF17#043739303332302A
(1357041637.37495) vcan0 0CF00400#4E7D7D0000000F7D
(1357041637.37509) vcan0 10F03300#D007FFFFFFFFFFFF
(1357041637.37522) vcan0 18EA0017#E5FE00
(1357041637.37534) vcan0 0CF00400#4E7D7D0000000F7D
(1357041637.37548) vcan0 18FEF021#FFFFFFFFFFFC00FF
(1357041637.37561) vcan0 1CEBFF00#0634303800000000
(1357041637.37574) vcan0 18F00F00#FFFFFFFFC09FFFFF
(1357041637.37591) vcan0 0CF00203#CE0000FFF00000FF
(1357041637.37603) vcan0 14FD3E00#FC25FF1C25FFFFFF
(1357041637.37616) vcan0 18FEBF0B#00007D7D7D7DFFFF
(1357041637.37632) vcan0 0CF00203#CE0000FFF00000FF
(1357041637.37645) vcan0 18FEF200#000000001006FAFF
(1357041637.37658) vcan0 10F03300#D007FFFFFFFFFFFF
(1357041637.37671) vcan0 0CF00203#CE0000FFF00000FF
(1357041637.37685) vcan0 0CF00203#CE0000FFF00000FF
(1357041637.37698) vcan0 0CF00400#4E7D7D0000000F7D
(1357041637.37711) vcan0 18FD9400#267FFFFFFFFFFFFF
(1357041637.37728) vcan0 18EEFF03#0000400200030000
(1357041637.37741) vcan0 18EEFF17#4347600500130000
(1357041637.37753) vcan0 0CF00A00#00000000FFFFFFFF
(1357041637.37767) vcan0 18FEF10B#FF0000FFFFFFFFFF
(1357041637.37780) vcan0 0CF00203#CE0000FFF00000FF
(1357041637.37793) vcan0 18FCDC00#FFFFFFFFFC610000
(1357041637.37807) vcan0 18F0010B#C0FFC0FFFF5CFF3F
(1357041637.37820) vcan0 0CF00203#CE0000FFF00000FF
(1357041637.37833) vcan0 0CF00C03#FFFF0000FFFFFFFF
(1357041637.37847) vcan0 1CEBFF00#021CBD401FC9E02E
(1357041637.37857) vcan0 0CF00203#CE0000FFF00000FF
(1357041637.37870) vcan0 0CF00203#CE0000FFF00000FF
(1357041637.37883) vcan0 18EA2117#EAFE00
(1357041637.37896) vcan0 0CF00400#4E7D7D0000000F7D
(1357041637.37909) vcan0 0CF00300#D10000FFFF0F667E
(1357041637.37922) vcan0 18E0FF00#00FFFFFFFFFFFFFF
(1357041637.37936) vcan0 18EA0300#E2FE00
(1357041637.37948) vcan0 18F00121#FFFFD3FF00FFFFFF
(1357041637.37961) vcan0 0CF00203#CE0000FFF00000FF
(1357041637.37975) vcan0 0CF00400#4E7D7D0000000F7D
(1357041637.37991) vcan0 18FDB400#C0251627FFFFFFFF
(1357041638.38004) vcan0 0CF00A00#00000000FFFFFFFF
(1357041638.38018) vcan0 18FEBF0B#00007D7D7D7DFFFF
(1357041638.38033) vcan0 18FE9900#FFFFFFFFFFFFFFFF
(1357041638.38046) vcan0 18FEF200#000000001006FAFF
(1357041638.38060) vcan0 0CF00203#CE0000FFF00000FF
(1357041638.38073) vcan0 0CF00203#CE0000FFF00000FF
(1357041638.38086) vcan0 0CF00203#CE0000FFF00000FF
(1357041638.38099) vcan0 1885FF00#FFFFFFFF26D4FFFF
(1357041638.38112) vcan0 18FD9400#0000FFFFFFFFFFFF
(1357041638.38128) vcan0 18F00F00#FFFFFFFFC09FFFFF
(1357041638.38141) vcan0 0CF00203#CE0000FFF00000FF
(1357041638.38155) vcan0 18F0000F#F07D7DF30FFFFF7D
(1357041638.38168) vcan0 18FC2B00#FFFF9C68FFFFFFFF
(1357041638.38180) vcan0 0CF00203#CE0000FFF00000FF
(1357041638.38194) vcan0 18FEDB00#FFFFED27FFFFFFFF
(1357041638.38207) vcan0 0CF00A00#00000000FFFFFFFF
(1357041638.38220) vcan0 18FEBF0B#00007D7D7D7DFFFF
(1357041638.38233) vcan0 0CF00C03#FFFF0000FFFFFFFF
(1357041638.38249) vcan0 18EEFF03#0000400200030000
(1357041638.38262) vcan0 0CF00203#CE0000FFF00000FF
(1357041638.38276) vcan0 0CF00400#4E7D7D0000000F7D
(1357041638.38289) vcan0 18FEDF00#7EA0287D7DFFFFF0
(1357041638.38301) vcan0 0C010305#FFFF7DFFFFFFFFFF
(1357041638.38315) vcan0 0CF00400#4E7D7D0000000F7D
(1357041638.38328) vcan0 18F00F00#FFFFFFFFC09FFFFF
(1357041638.38341) vcan0 0CF00203#CE0000FFF00000FF
(1357041638.38353) vcan0 18FEF000#FFFFFF1815FFFFFF
(1357041638.38367) vcan0 18F00100#FFFFFFFFFFFFFFFF
(1357041638.38383) vcan0 0CF00203#CE0000FFF00000FF
(1357041638.38396) vcan0 0CF00400#4E7D7D0000000F7D
(1357041638.38410) vcan0 0CF00203#CE0000FFF00000FF
(1357041638.38423) vcan0 18FEBF0B#00007D7D7D7DFFFF
(1357041638.38438) vcan0 0CF00400#4E7D7D0000000F7D
(1357041638.38451) vcan0 18F00E00#FFFFFFFFFFFFFFFF
(1357041638.38464) vcan0 18F00100#FFFFFFFFFFFFFFFF
(1357041638.38477) vcan0 0CF00400#4E7D7D0000000F7D
(1357041638.38491) vcan0 10FDA300#FFFF65FFFFFFFFFF
(1357041638.38504) vcan0 0CF00A00#00000000FFFFFFFF
(1357041638.38520) vcan0 0CF00400#4E7D7D0000000F7D
(1357041638.38534) vcan0 18FEF703#FFFFFFFFFA00F300
(1357041638.38547) vcan0 18FEF200#000000001006FAFF
(1357041638.38560) vcan0 0CF00203#CE0000FFF00000FF
(1357041638.38574) vcan0 18FEF100#FF0000FCFF6100C0
(1357041638.38587) vcan0 0CF00203#CE0000FFF00000FF
(1357041638.38600) vcan0 0CF00203#CE0000FFF00000FF
(1357041638.38612) vcan0 18F0010B#C0FFC0FFFF5CFF3F
(1357041638.38626) vcan0 18F00F00#FFFFFFFFC09FFFFF
(1357041638.38639) vcan0 0CF00203#CE0000FFF00000FF
(1357041638.38656) vcan0 18F00121#FFFFD3FF00FFFFFF
(1357041638.38669) vcan0 0CF00300#D10000FFFF0F667E
(1357041638.38682) vcan0 0CF00203#CE0000FFF00000FF
(1357041638.38695) vcan0 0CF00400#4E7D7D0000000F7D
(1357041638.38709) vcan0 10F03300#D007FFFFFFFFFFFF
(1357041638.38722) vcan0 0CF00203#CE0000FFF00000FF
(1357041638.38735) vcan0 0CF00400#4E7D7D0000000F7D
(1357041638.38748) vcan0 18FEDF00#7EA0287D7DFFFFF0
(1357041638.38761) vcan0 10F03300#D007FFFFFFFFFFFF
(1357041638.38774) vcan0 18F00F00#FFFFFFFFC09FFFFF
(1357041638.38791) vcan0 18EEFF17#4347600500130000
(1357041638.38804) vcan0 0CF00A00#00000000FFFFFFFF
(1357041638.38817) vcan0 0CF00400#4E7D7D0000000F7D
(1357041638.38833) vcan0 0CF00203#DF0000FFF00000FF
(1357041638.38846) vcan0 18FEF200#000000001006FAFF
(1357041638.38859) vcan0 10F03300#D007FFFFFFFFFFFF
(1357041638.38873) vcan0 0CF00203#DF0000FFF00000FF
(1357041638.38885) vcan0 18EA2117#EAFE00
(1357041638.38898) vcan0 1CFE9200#FFB87EFFFFFF0000
(1357041638.38912) vcan0 0CF00203#DF0000FFF00000FF
(1357041638.38928) vcan0 0CFD9200#F0FFFFFFFFFFFFFF
(1357041638.38941) vcan0 0CF00203#DF0000FFF00000FF
(1357041638.38953) vcan0 18FEF000#FFFFFF1815FFFFFF
(1357041638.38967) vcan0 18FEA400#FFFFD124FFFFD824
(1357041638.38980) vcan0 0C000F03#C2FFFF7DFFFFFF73
(1357041638.38993) vcan0 18FCDC00#FFFFFFFFFC610000
(1357041639.39007) vcan0 0CF00A00#00000000FFFFFFFF
(1357041639.39020) vcan0 0C000003#C2FFFF7DFFFFFF74
(1357041639.39033) vcan0 18FE4A03#FFFDFF7DFFF3FFFF
(1357041639.39047) vcan0 18FEF200#000000001006FAFF
(1357041639.39063) vcan0 0C000003#C2FFFF7DFFFFFF30
(1357041639.39076) vcan0 0CF00400#4E7D7D0000030F7D
(1357041639.39090) vcan0 0C000003#C2FFFF7DFFFFFF63
(1357041639.39103) vcan0 0C010305#FFFF7DFFFFFFFFFF
(1357041639.39116) vcan0 0CF00400#4E7D7D0000030F7D
(1357041639.39129) vcan0 0CF00300#D10000FFFF0F667E
(1357041639.39142) vcan0 0CF00203#DF0000FFF00000FF
(1357041639.39155) vcan0 0CF00400#4E7D7D0000030F7D
(1357041639.39169) vcan0 18FEDF00#7EA0287D7DFFFFF0
(1357041639.39182) vcan0 0C000F03#C2FFFF7DFFFFFF37
(1357041639.39198) vcan0 0CF00400#4E7D7D0000030F7D
(1357041639.39212) vcan0 18FD9400#0000FFFFFFFFFFFF
(1357041639.39224) vcan0 18F00F00#FFFFFFFFC09FFFFF
(1357041639.39239) vcan0 18FDC40B#1FFFFFFFFFFFFFFF
(1357041639.39252) vcan0 0C010305#FFFF7DFFFFFFFFFF
(1357041639.39266) vcan0 18F00100#FFFFFFFFFFFFFFFF
(1357041639.39279) vcan0 18EAFF00#00EE00
(1357041639.39291) vcan0 18EEFF17#4347600500130000
(1357041639.39305) vcan0 0CF00A00#00000000FFFFFFFF
(1357041639.39317) vcan0 18F0010B#C0FFC0FFFF5CFF3F
(1357041639.39333) vcan0 0CF00203#DF0000FFF00000FF
(1357041639.39347) vcan0 18FEF200#000000001006FAFF
(1357041639.39360) vcan0 0C000003#C2FFFF7DFFFFFF16
(1357041639.39372) vcan0 0CF00203#DF0000FFF00000FF
(1357041639.39386) vcan0 0C000F03#C2FFFF7DFFFFFF73
(1357041639.39399) vcan0 18F00E00#FFFFFFFFFFFFFFFF
(1357041639.39412) vcan0 18FD9400#0000FFFFFFFFFFFF
(1357041639.39426) vcan0 18F00F00#FFFFFFFFC09FFFFF
(1357041639.39438) vcan0 18FDC40B#1FFFFFFFFFFFFFFF
(1357041639.39454) vcan0 18FEF021#FFFFFFFFFFFC00FF
(1357041639.39468) vcan0 18F00100#FFFFFFFFFFFFFFFF
(1357041639.39481) vcan0 0CF00203#CF0000FFF00000FF
(1357041639.39494) vcan0 18FCDC00#FFFFFFFFFC610000
(1357041639.39507) vcan0 0CF00A00#00000000FFFFFFFF
(1357041639.39521) vcan0 18FC9600#1E00FFFFFFFFFFFF
(1357041639.39534) vcan0 18FEF703#FFFFFFFFF900F200
(1357041639.39547) vcan0 18FEF200#000000001006FAFF
(1357041639.39560) vcan0 0CF00203#CF0000FFF00000FF
(1357041639.39573) vcan0 18FEF100#FF0000FCFF6100C0
(1357041639.39589) vcan0 0CF00203#CF0000FFF00000FF
(1357041639.39603) vcan0 0C010305#FFFF7DFFFFFFFFFF
(1357041639.39616) vcan0 0CF00400#4E7D7D0000000F7D
(1357041639.39629) vcan0 0CF00300#D10000FFFF0F667E
(1357041639.39645) vcan0 18EA1C17#E8FE00
(1357041639.39657) vcan0 18FECA96#00FF00000000FFFF
(1357041639.39670) vcan0 18FEEF00#FFFFFF00FF7CFFFA
(1357041639.39684) vcan0 0CF00203#CF0000FFF00000FF
(1357041639.39697) vcan0 0CF00400#4E7D7D0000000F7D
(1357041639.39710) vcan0 0CF00300#D10000FFFF0F667E
(1357041639.39727) vcan0 18FC9600#2000FFFFFFFFFFFF
(1357041639.39740) vcan0 0CF00203#CF0000FFF00000FF
(1357041639.39753) vcan0 18FEF121#F7FFFFC300FFFFF0
(1357041639.39766) vcan0 18F00100#FFFFFFFFFFFFFFFF
(1357041639.39779) vcan0 18FEF10B#FF0000FFFFFFFFFF
(1357041639.39792) vcan0 18FCF200#FAFFFFFFFFFFFFFF
(1357041639.39805) vcan0 0CF00A00#00000000FFFFFFFF
(1357041639.39819) vcan0 18FEE000#88D21F006BD21F00
(1357041639.39832) vcan0 18FE4A03#FFDDFF7DFFF3FFFF
(1357041639.39845) vcan0 18FEF200#000000001006FAFF
(1357041639.39862) vcan0 10F03300#D007FFFFFFFFFFFF
(1357041639.39875) vcan0 18F00F00#FFFFFFFFC09FFFFF
(1357041639.39888) vcan0 18EA2117#EAFE00
(1357041639.39901) vcan0 18F00E00#FFFFFFFFFFFFFFFF
(1357041639.39914) vcan0 18FD9400#0000FFFFFFFFFFFF
(1357041639.39927) vcan0 18F00F00#FFFFFFFFC09FFFFF
(1357041639.39941) vcan0 18FDC40B#1FFFFFFFFFFFFFFF
(1357041639.39953) vcan0 0CF00A00#00000000FFFFFFFF
(1357041639.39966) vcan0 18FEA400#FFFFD124FFFFD924
(1357041639.39980) vcan0 0CF00203#CF0000FFF00000FF
(1357041639.39996) vcan0 18FCF200#FAFFFFFFFFFFFFFF
(1357041640.40009) vcan0 18FEDF00#7EA0287D7DFFFFF0
(1357041640.40023) vcan0 18F0010B#C0FFC0FFFF1CFF3F
(1357041640.40038) vcan0 0CF00400#4E7D7D0000000F7D
(1357041640.40051) vcan0 18FEF121#F7FFFFC300FFFFF0
(1357041640.40065) vcan0 18F00100#FFFFFFFFFFFFFFFF
(1357041640.40078) vcan0 0CF00400#4E7D7D0000000F7D
(1357041640.40091) vcan0 18FCF200#FAFFFFFFFFFFFFFF
(1357041640.40104) vcan0 0CF00A00#00000000FFFFFFFF
(1357041640.40117) vcan0 0CF00400#4E7D7D0000000F7D
(1357041640.40133) vcan0 10FCFD00#FFFFFFFFC92FFFFF
(1357041640.40146) vcan0 18FECA00#43FF9A0C0A01FFFF
(1357041640.40160) vcan0 0CF00203#CF0000FFF00000FF
(1357041640.40173) vcan0 18FEEF00#FFFFFF00007DFFFA
(1357041640.40186) vcan0 18FEF10B#FF0000FFFFFFFFFF
(1357041640.40200) vcan0 18F00E00#FFFFFFFFFFFFFFFF
(1357041640.40213) vcan0 18FD9400#0000FFFFFFFFFFFF
(1357041640.40226) vcan0 18F00F00#FFFFFFFFC09FFFFF
(1357041640.40240) vcan0 0CF00203#CF0000FFF00000FF
(1357041640.40253) vcan0 18FEF021#FFFFFFFFFFFC00FF
(1357041640.40269) vcan0 18F00100#FFFFFFFFFFFFFFFF
(1357041640.40282) vcan0 18FEF10B#FF0000FFFFFFFFFF
(1357041640.40295) vcan0 0CF00400#4E7D7D0000000F7D
(1357041640.40308) vcan0 0CF00A00#00000000FFFFFFFF
(1357041640.40322) vcan0 18FC9600#1F00FFFFFFFFFFFF
(1357041640.40334) vcan0 18FEBF0B#00007D7D7D7DFFFF
(1357041640.40347) vcan0 18FEF200#000000001106FAFF
(1357041640.40360) vcan0 0CF00203#CF0000FFF00000FF
(1357041640.40374) vcan0 18FEF100#FF0000FCFF6100C0
(1357041640.40386) vcan0 18FEF10B#FF0000FFFFFFFFFF
(1357041640.40402) vcan0 0CF00203#CF0000FFF00000FF
(1357041640.40416) vcan0 0CF00400#4E7D7D0000000F7D
(1357041640.40429) vcan0 0CF00203#CF0000FFF00000FF
(1357041640.40443) vcan0 0CF00203#CF0000FFF00000FF
(1357041640.40457) vcan0 0CF00400#4E7D7D0000000F7D
(1357041640.40470) vcan0 0CF00300#D10000FFFF0F667E
(1357041640.40483) vcan0 18FEF10B#FF0000FFFFFFFFFF
(1357041640.40496) vcan0 0CF00400#4E7D7D0000000F7D
(1357041640.40509) vcan0 0CF00203#CF0000FFF00000FF
(1357041640.40522) vcan0 18FC9600#1F00FFFFFFFFFFFF
(1357041640.40539) vcan0 0CF00400#4E7D7D0000000F7D
(1357041640.40552) vcan0 18FEF121#F7FFFFC300FFFFF0
(1357041640.40565) vcan0 18F00100#FFFFFFFFFFFFFFFF
(1357041640.40579) vcan0 0CF00400#4E7D7D0000000F7D
(1357041640.40591) vcan0 18FCF200#FAFFFFFFFFFFFFFF
(1357041640.40604) vcan0 0CF00A00#00000000FFFFFFFF
(1357041640.40617) vcan0 0CF00400#4E7D7D0000000F7D
(1357041640.40631) vcan0 18F00503#7D00007D204E204E
(1357041640.40644) vcan0 18FDC40B#1FFFFFFFFFFFFFFF
(1357041640.40660) vcan0 18FECA96#00FF00000000FFFF
(1357041640.40674) vcan0 18FEF100#FF0000FCFF6100C0
(1357041640.40687) vcan0 18FEF10B#FF0000FFFFFFFFFF
(1357041640.40700) vcan0 18F00E00#FFFFFFFFFFFFFFFF
(1357041640.40714) vcan0 18FEF600#FF003EFFFFFFFFFF
(1357041640.40727) vcan0 18F0010B#C0FFD0FFFF0DFF3F
(1357041640.40740) vcan0 0CF00203#CF0000FFF00000FF
(1357041640.40753) vcan0 18FEF721#FFFFFFFF0001FA00
(1357041640.40766) vcan0 18F00100#FFFFFFFFFFFFFFFF
(1357041640.40779) vcan0 0CF00203#CF0000FFF00000FF
(1357041640.40796) vcan0 18FCF200#FAFFFFFFFFFFFFFF
(1357041640.40809) vcan0 0CF00203#CF0000FFF00000FF
(1357041640.40822) vcan0 18FC9600#1F00FFFFFFFFFFFF
(1357041640.40836) vcan0 18FEBF0B#00007D7D7D7DFFFF
(1357041640.40851) vcan0 18FEDF00#7EA0287D7DFFFFF0
(1357041640.40864) vcan0 18F00100#FFFFFFFFFFFFFFFF
(1357041640.40878) vcan0 0CF00400#4E7D7D0000000F7D
(1357041640.40891) vcan0 0CF00300#D10000FFFF0F667E
(1357041640.40903) vcan0 0CF00A00#00000000FFFFFFFF
(1357041640.40916) vcan0 0CF00400#4E7D7D0000000F7D
(1357041640.40933) vcan0 0CF00300#D10000FFFF0F667E
(1357041640.40946) vcan0 18FDC40B#1FFFFFFFFFFFFFFF
(1357041640.40960) vcan0 0CF00203#CF0000FFF00000FF
(1357041640.40973) vcan0 0CF00300#D10000FFFF0F667E
(1357041640.40986) vcan0 0CF00203#CF0000FFF00000FF
(1357041640.40999) vcan0 0CF00203#CF0000FFF00000FF
(1357041641.41013) vcan0 18FE9A00#F324FFFFFFFFFFFF
(1357041641.41026) vcan0 18F00F00#FFFFFFFFC09FFFFF
(1357041641.41038) vcan0 18FDB200#FFFFFFFF0000FFFF
(1357041641.41052) vcan0 0C010305#FFFF7DFFFFFFFFFF
(1357041641.41068) vcan0 18F00100#FFFFFFFFFFFFFFFF
(1357041641.41081) vcan0 0CF00203#CF0000FFF00000FF
(1357041641.41095) vcan0 0CF00400#4E7D7D0000000F7D
(1357041641.41108) vcan0 0CF00A00#00000000FFFFFFFF
(1357041641.41121) vcan0 18FC9600#2000FFFFFFFFFFFF
(1357041641.41135) vcan0 0CF00C03#FFFF0000FFFFFFFF
(1357041641.41148) vcan0 18FDC40B#1FFFFFFFFFFFFFFF
(1357041641.41161) vcan0 0CF00203#CF0000FFF00000FF
(1357041641.41175) vcan0 0CFD9200#F0FFFFFFFFFFFFFF
(1357041641.41187) vcan0 0CF00203#CF0000FFF00000FF
(1357041641.41203) vcan0 18F00E00#FFFFFFFFFFFFFFFF
(1357041641.41217) vcan0 0CF00400#4E7D7D0000000F7D
(1357041641.41230) vcan0 10FCFD00#FFFFFFFF462FFFFF
(1357041641.41245) vcan0 0CF00203#CF0000FFF00000FF
(1357041641.41259) vcan0 10F03300#D007FFFFFFFFFFFF
(1357041641.41272) vcan0 0CF00300#D10000FFFF0F667E
(1357041641.41285) vcan0 0CF00203#CF0000FFF00000FF
(1357041641.41298) vcan0 0CF00400#4E7D7D0000000F7D
(1357041641.41312) vcan0 18FD9400#0000FFFFFFFFFFFF
(1357041641.41325) vcan0 18F00F00#FFFFFFFFC09FFFFF
(1357041641.41341) vcan0 0CF00400#4E7D7D0000000F7D
(1357041641.41354) vcan0 18F00121#FFFFD3FF00FFFFFF
(1357041641.41367) vcan0 18F00100#FFFFFFFFFFFFFFFF
(1357041641.41380) vcan0 0CF00203#CF0000FFF00000FF
(1357041641.41394) vcan0 18FCDC00#FFFFFFFFFC610000
(1357041641.41406) vcan0 0CF00A00#00000000FFFFFFFF
(1357041641.41419) vcan0 0CF00203#CF0000FFF00000FF
(1357041641.41433) vcan0 0CF00C03#FFFF0000FFFFFFFF
(1357041641.41446) vcan0 18FEF200#000000001006FAFF
(1357041641.41458) vcan0 10F03300#D007FFFFFFFFFFFF
(1357041641.41469) vcan0 0CF00300#D10000FFFF0F667E
(1357041641.41483) vcan0 0CF00203#CF0000FFF00000FF
(1357041641.41496) vcan0 0CF00400#4E7D7D0000000F7D
(1357041641.41508) vcan0 10F03300#D007FFFFFFFFFFFF
(1357041641.41522) vcan0 18FC9600#1E00FFFFFFFFFFFF
(1357041641.41535) vcan0 0CF00400#4E7D7D0000000F7D
(1357041641.41548) vcan0 18FEF200#000000001006FAFF
(1357041641.41561) vcan0 10F03300#D007FFFFFFFFFFFF
(1357041641.41574) vcan0 18F00F00#FFFFFFFFC09FFFFF
(1357041641.41590) vcan0 0CF00203#CF0000FFF00000FF
(1357041641.41604) vcan0 14FD3E00#FC25FF1C25FFFFFF
(1357041641.41617) vcan0 0CF00400#4E7D7D0000000F7D
(1357041641.41630) vcan0 0CF00300#D10000FFFF0F667E
(1357041641.41646) vcan0 18FEBF0B#00007D7D7D7DFFFF
(1357041641.41659) vcan0 18FECA96#00FF00000000FFFF
(1357041641.41671) vcan0 18FEEF00#FFFFFF00007DFFFA
(1357041641.41684) vcan0 0CF00203#CF0000FFF00000FF
(1357041641.41698) vcan0 0CF00400#4E7D7D0000000F7D
(1357041641.41711) vcan0 18FD9400#0000FFFFFFFFFFFF
(1357041641.41728) vcan0 18F00F00#FFFFFFFFC09FFFFF
(1357041641.41741) vcan0 0CF00203#CF0000FFF00000FF
(1357041641.41754) vcan0 0CF00A00#00000000FFFFFFFF
(1357041641.41767) vcan0 18EA0017#E9FE00
(1357041641.41780) vcan0 0CF00203#CF0000FFF00000FF
(1357041641.41793) vcan0 18FEF10B#FF0000FFFFFFFFFF
(1357041641.41806) vcan0 0CF00A00#00000000FFFFFFFF
(1357041641.41820) vcan0 18FEE000#88D21F006BD21F00
(1357041641.41833) vcan0 18FE4A03#FFDDFF7DFFF3FFFF
(1357041641.41846) vcan0 18FEF200#000000001006FAFF
(1357041641.41863) vcan0 10F03300#D007FFFFFFFFFFFF
(1357041641.41876) vcan0 0CF00400#4E7D7D0000000F7D
(1357041641.41888) vcan0 18FEDF00#7EA0287D7DFFFFF0
(1357041641.41902) vcan0 0C010305#FFFF7DFFFFFFFFFF
(1357041641.41915) vcan0 0CF00400#4E7D7D0000000F7D
(1357041641.41928) vcan0 18F00F00#FFFFFFFFC09FFFFF
(1357041641.41942) vcan0 0CF00203#CC0000FFF00000FF
(1357041641.41955) vcan0 18FEF000#FFFFFF1815FFFFFF
(1357041641.41968) vcan0 18FEA400#FFFFD324FFFFD824
(1357041641.41981) vcan0 0CF00203#CC0000FFF00000FF
(1357041641.41998) vcan0 18FCDC00#FFFFFFFFFC610000
(1357041642.42011) vcan0 0CF00300#D10000FFFF0F667E
(1357041642.42023) vcan0 18F00F00#FFFFFFFFC09FFFFF
(1357041642.42037) vcan0 0CF00400#4E7D7D0000000F7D
(1357041642.42052) vcan0 18F00E00#FFFFFFFFFFFFFFFF
(1357041642.42065) vcan0 18F00100#FFFFFFFFFFFFFFFF
(1357041642.42079) vcan0 0CF00203#CC0000FFF00000FF
(1357041642.42092) vcan0 18FCF200#FAFFFFFFFFFFFFFF
(1357041642.42105) vcan0 0CF00A00#00000000FFFFFFFF
(1357041642.42119) vcan0 0CF00400#4E7D7D0000000F7D
(1357041642.42135) vcan0 18FE4A03#FFDDFF7DFFF3FFFF
(1357041642.42148) vcan0 18FECA00#43FF9A0C0A01FFFF
(1357041642.42162) vcan0 0CF00203#CC0000FFF00000FF
(1357041642.42174) vcan0 0CFD9200#F0FFFFFFFFFFFFFF
(1357041642.42187) vcan0 0CF00203#CC0000FFF00000FF
(1357041642.42201) vcan0 18F00E00#FFFFFFFFFFFFFFFF
(1357041642.42214) vcan0 18FEF600#FF003EFFFFFFFFFF
(1357041642.42227) vcan0 18F00F00#FFFFFFFFC09FFFFF
(1357041642.42241) vcan0 0CF00203#CC0000FFF00000FF
(1357041642.42254) vcan0 0CF00A00#00000000FFFFFFFF
(1357041642.42270) vcan0 18F00100#FFFFFFFFFFFFFFFF
(1357041642.42284) vcan0 0CF00203#CC0000FFF00000FF
(1357041642.42297) vcan0 0CF00400#4E7D7D0000000F7D
(1357041642.42310) vcan0 18FEDF00#7EA0287D7DFFFFF0
(1357041642.42323) vcan0 18FC9600#1F00FFFFFFFFFFFF
(1357041642.42336) vcan0 0CF00400#4E7D7D0000000F7D
(1357041642.42349) vcan0 0CF00203#CC0000FFF00000FF
(1357041642.42362) vcan0 0CF00203#CC0000FFF00000FF
(1357041642.42376) vcan0 0CF00400#4E7D7D0000000F7D
(1357041642.42416) vcan0 18FEDF00#7EA0287D7DFFFFF0
(1357041642.42432) vcan0 18FEDF00#7EA0287D7DFFFFF0
(1357041642.42445) vcan0 18FEF200#000000001006FAFF
(1357041642.42459) vcan0 18F00121#FFFFD3FF00FFFFFF
(1357041642.42475) vcan0 0CF00300#D10000FFFF0F667E
(1357041642.42490) vcan0 0CF00203#CC0000FFF00000FF
(1357041642.42504) vcan0 0C010305#FFFF7DFFFFFFFFFF
(1357041642.42516) vcan0 0CF00400#4E7D7D0000000F7D
(1357041642.42529) vcan0 18FEDF00#7EA0287D7DFFFFF0
(1357041642.42543) vcan0 18FDB200#FFFFFFFF0000FFFF
(1357041642.42559) vcan0 18F0000F#F07D7DF30FFFFF7D
(1357041642.42571) vcan0 0CF00300#D10000FFFF0F667E
(1357041642.42585) vcan0 18FD2000#C025FFFFFFFFFFFF
(1357041642.42598) vcan0 18FEF10B#FF0000FFFFFFFFFF
(1357041642.42611) vcan0 18FD9400#0000FFFFFFFFFFFF
(1357041642.42625) vcan0 18FCC500#F625FFFFFFFFFFFF
(1357041642.42637) vcan0 18F0010B#C0FFD0FFFF0DFF3F
(1357041642.42650) vcan0 18F00E00#FFFFFFFFFFFFFFFF
(1357041642.42663) vcan0 10F03300#D007FFFFFFFFFFFF
(1357041642.42677) vcan0 0CF00400#4E7D7D0000000F7D
(1357041642.42692) vcan0 18FEDF00#7EA0287D7DFFFFF0
(1357041642.42705) vcan0 0CF00A00#00000000FFFFFFFF
(1357041642.42719) vcan0 0CF00203#CC0000FFF00000FF
(1357041642.42732) vcan0 0CF00C03#FFFF0000FFFFFFFF
(1357041642.42745) vcan0 18FEF200#000000001006FAFF
(1357041642.42759) vcan0 18EF1721#0240000100000000
(1357041642.42772) vcan0 0CF00300#D10000FFFF0F667E
(1357041642.42785) vcan0 0CF00203#CC0000FFF00000FF
(1357041642.42799) vcan0 18FEF10B#FF0000FFFFFFFFFF
(1357041642.42812) vcan0 18FD9400#0000FFFFFFFFFFFF
(1357041642.42828) vcan0 18F00F00#FFFFFFFFC09FFFFF
(1357041642.42842) vcan0 0CF00203#CC0000FFF00000FF
(1357041642.42854) vcan0 18FEF000#FFFFFF1815FFFFFF
(1357041642.42867) vcan0 18F00100#FFFFFFFFFFFFFFFF
(1357041642.42883) vcan0 0CF00203#CC0000FFF00000FF
(1357041642.42896) vcan0 18EA0017#CEFE00
(1357041642.42909) vcan0 0CF00203#CC0000FFF00000FF
(1357041642.42921) vcan0 18E0FF00#00FFFFFFFFFFFFFF
(1357041642.42935) vcan0 0CF00400#4E7D7D0000000F7D
(1357041642.42948) vcan0 18FEF200#000000001006FAFF
(1357041642.42964) vcan0 10F03300#D007FFFFFFFFFFFF
(1357041642.42978) vcan0 0CF00400#4E7D7D0000000F7D
(1357041642.42991) vcan0 10FDA300#FFFF3FFFFFFFFFFF
(1357041643.43004) vcan0 0CF00A00#00000000FFFFFFFF
(1357041643.43018) vcan0 18FF2617#00000000FE03A103
(1357041643.43031) vcan0 18F00503#7D00007D204E204E
(1357041643.43044) vcan0 18FEF200#000000001006FAFF
(1357041643.43058) vcan0 18FEF021#FFFFFFFFFFFC00FF
(1357041643.43070) vcan0 0CF00300#D10000FFFF0F667E
(1357041643.43083) vcan0 0CF00203#CC0000FFF00000FF
(1357041643.43100) vcan0 0CF00400#4E7D7D0000000F7D
(1357041643.43113) vcan0 18FD9400#0000FFFFFFFFFFFF
(1357041643.43126) vcan0 18F00F00#FFFFFFFFC09FFFFF
(1357041643.43140) vcan0 0CF00203#CC0000FFF00000FF
(1357041643.43153) vcan0 0C010305#FFFF7DFFFFFFFFFF
(1357041643.43166) vcan0 18FC2B00#FFFF9C68FFFFFFFF
(1357041643.43180) vcan0 0CF00203#CC0000FFF00000FF
(1357041643.43193) vcan0 18FCE700#8489848587898DFF
(1357041643.43205) vcan0 0CF00A00#00000000FFFFFFFF
(1357041643.43218) vcan0 0CF00203#CC0000FFF00000FF
(1357041643.43235) vcan0 0CF00C03#FFFF0000FFFFFFFF
(1357041643.43248) vcan0 18FEF200#000000001006FAFF
(1357041643.43261) vcan0 18FDC40B#1FFFFFFFFFFFFFFF
(1357041643.43275) vcan0 18F00F00#FFFFFFFFC09FFFFF
(1357041643.43290) vcan0 0CF00203#CC0000FFF00000FF
(1357041643.43303) vcan0 0C010305#FFFF7DFFFFFFFFFF
(1357041643.43317) vcan0 1CEBFF0F#0215E02E19203514
(1357041643.43330) vcan0 0CF00300#D10000FFFF0F667E
(1357041643.43343) vcan0 18F0010B#C0FFD0FFFF0DFF3F
(1357041643.43357) vcan0 18FEF121#F7FFFFC300FFFFF0
(1357041643.43373) vcan0 0CF00203#CC0000FFF00000FF
(1357041643.43386) vcan0 1CFEC20F#FFD081FFFFFFFFFF
(1357041643.43400) vcan0 1CFE9200#FFE07EFFFFFF0000
(1357041643.43412) vcan0 18FD9400#0000FFFFFFFFFFFF
(1357041643.43425) vcan0 18F00F00#FFFFFFFFC09FFFFF
(1357041643.43439) vcan0 0CF00203#CC0000FFF00000FF
(1357041643.43452) vcan0 0C010305#FFFF7DFFFFFFFFFF
(1357041643.43465) vcan0 18F00100#FFFFFFFFFFFFFFFF
(1357041643.43479) vcan0 0CF00203#CC0000FFF00000FF
(1357041643.43492) vcan0 18FCF200#FAFFFFFFFFFFFFFF
(1357041643.43508) vcan0 0CF00A00#00000000FFFFFFFF
(1357041643.43522) vcan0 18FC9600#2000FFFFFFFFFFFF
(1357041643.43534) vcan0 18FEF703#FFFFFFFFF900F100
(1357041643.43547) vcan0 18FEF200#000000001006FAFF
(1357041643.43560) vcan0 10F03300#D007FFFFFFFFFFFF
(1357041643.43574) vcan0 0CF00300#D10000FFFF0F667E
(1357041643.43586) vcan0 18FD2000#BC25FFFFFFFFFFFF
(1357041643.43599) vcan0 18F00E00#FFFFFFFFFFFFFFFF
(1357041643.43613) vcan0 18FD9400#0000FFFFFFFFFFFF
(1357041643.43629) vcan0 18F00F00#FFFFFFFFC09FFFFF
(1357041643.43642) vcan0 0CF00203#CC0000FFF00000FF
(1357041643.43655) vcan0 18F0000F#F07D7DF30FFFFF7D
(1357041643.43668) vcan0 18F00100#FFFFFFFFFFFFFFFF
(1357041643.43681) vcan0 0CF00203#CC0000FFF00000FF
(1357041643.43697) vcan0 18FEDB00#FFFFC727FFFFFFFF
(1357041643.43709) vcan0 10F03300#D007FFFFFFFFFFFF
(1357041643.43722) vcan0 18FC9600#2000FFFFFFFFFFFF
(1357041643.43736) vcan0 0CF00400#4E7D7D0000000F7D
(1357041643.43749) vcan0 0CF00203#CC0000FFF00000FF
(1357041643.43765) vcan0 18FEF021#FFFFFFFFFFFC00FF
(1357041643.43778) vcan0 0CF00400#4E7D7D0000000F7D
(1357041643.43791) vcan0 10FDA300#FFFF3FFFFFFFFFFF
(1357041643.43804) vcan0 18FEF10B#FF0000FFFFFFFFFF
(1357041643.43817) vcan0 0CF00400#4E7D7D0000000F7D
(1357041643.43831) vcan0 0CF00300#D10000FFFF0F667E
(1357041643.43844) vcan0 18FEF200#000000001006FAFF
(1357041643.43857) vcan0 18FEF021#FFFFFFFFFFFC00FF
(1357041643.43871) vcan0 0CF00300#D10000FFFF0F667E
(1357041643.43884) vcan0 0CF00203#CC0000FFF00000FF
(1357041643.43900) vcan0 0CF00400#4E7D7D0000000F7D
(1357041643.43914) vcan0 18FD9400#0000FFFFFFFFFFFF
(1357041643.43927) vcan0 18F00F00#FFFFFFFFC09FFFFF
(1357041643.43939) vcan0 18FEF500#C6FFFF4124FFFFFF
(1357041643.43953) vcan0 0C010305#FFFF7DFFFFFFFFFF
(1357041643.43966) vcan0 18FDC40B#1FFFFFFFFFFFFFFF
(1357041643.43979) vcan0 0CF00203#CC0000FFF00000FF
(1357041643.43993) vcan0 18FCF200#FAFFFFFFFFFFFFFF
(1357041644.44006) vcan0 18FEF10B#FF0000FFFFFFFFFF
(1357041644.44019) vcan0 18FEE000#88D21F006BD21F00
(1357041644.44036) vcan0 0CF00C03#FFFF0000FFFFFFFF
(1357041644.44049) vcan0 0CF00203#CC0000FFF00000FF
(1357041644.44062) vcan0 10F03300#D007FFFFFFFFFFFF
(1357041644.44076) vcan0 0CF00400#4E7D7D0000000F7D
(1357041644.44091) vcan0 0CF00203#CC0000FFF00000FF
(1357041644.44104) vcan0 0C010305#FFFF7DFFFFFFFFFF
(1357041644.44116) vcan0 0CF00400#4E7D7D0000000F7D
(1357041644.44130) vcan0 18F00503#7D00007D204E204E
(1357041644.44143) vcan0 0CF00203#CC0000FFF00000FF
(1357041644.44156) vcan0 18FEBF0B#00007D7D7D7DFFFF
(1357041644.44173) vcan0 18FEDF00#7EA0287D7DFFFFF0
(1357041644.44186) vcan0 0CF00203#CC0000FFF00000FF
(1357041644.44199) vcan0 1CFE9200#FFF07EFFFFFF0000
(1357041644.44213) vcan0 18FD9400#0000FFFFFFFFFFFF
(1357041644.44226) vcan0 18F00F00#FFFFFFFFC09FFFFF
(1357041644.44239) vcan0 0CF00203#CC0000FFF00000FF
(1357041644.44253) vcan0 0C010305#FFFF7DFFFFFFFFFF
(1357041644.44265) vcan0 18F00100#FFFFFFFFFFFFFFFF
(1357041644.44278) vcan0 0CF00203#CC0000FFF00000FF
(1357041644.44292) vcan0 18FCF200#FAFFFFFFFFFFFFFF
(1357041644.44308) vcan0 0CF00A00#00000000FFFFFFFF
(1357041644.44321) vcan0 18FC9600#1F00FFFFFFFFFFFF
(1357041644.44335) vcan0 0CF00C03#FFFF0000FFFFFFFF
(1357041644.44348) vcan0 18F0010B#C0FFD0FFFF0DFF3F
(1357041644.44361) vcan0 18F00121#FFFFD3FF00FFFFFF
(1357041644.44375) vcan0 18FEF100#FF0000FCFF6100C0
(1357041644.44388) vcan0 1CFEC20F#FFD081FFFFFFFFFF
(1357041644.44401) vcan0 18F00E00#FFFFFFFFFFFFFFFF
(1357041644.44414) vcan0 18FD9400#0000FFFFFFFFFFFF
(1357041644.44428) vcan0 18F00F00#FFFFFFFFC09FFFFF
(1357041644.44438) vcan0 0CF00203#CC0000FFF00000FF
(1357041644.44451) vcan0 18F00E00#FFFFFFFFFFFFFFFF
(1357041644.44465) vcan0 18F00100#FFFFFFFFFFFFFFFF
(1357041644.44478) vcan0 0CF00400#4E7D7D0000000F7D
(1357041644.44493) vcan0 18FCF200#FAFFFFFFFFFFFFFF
(1357041644.44507) vcan0 0CF00A00#00000000FFFFFFFF
(1357041644.44520) vcan0 18FC9600#1E00FFFFFFFFFFFF
(1357041644.44533) vcan0 18FEF703#FFFFFFFFF900F100
(1357041644.44547) vcan0 18FEF200#000000001006FAFF
(1357041644.44563) vcan0 18F00121#FFFFD3FF00FFFFFF
(1357041644.44575) vcan0 0CF00400#4E7D7D0000000F7D
(1357041644.44589) vcan0 0CF00203#CC0000FFF00000FF
(1357041644.44602) vcan0 18F00E00#FFFFFFFFFFFFFFFF
(1357041644.44615) vcan0 18FD9400#0000FFFFFFFFFFFF
(1357041644.44627) vcan0 18F00F00#FFFFFFFFC09FFFFF
(1357041644.44641) vcan0 0CF00203#CC0000FFF00000FF
(1357041644.44654) vcan0 0CF00A00#00000000FFFFFFFF
(1357041644.44667) vcan0 18F00100#FFFFFFFFFFFFFFFF
(1357041644.44680) vcan0 0CF00203#CC0000FFF00000FF
(1357041644.44705) vcan0 18FCF200#FAFFFFFFFFFFFFFF
(1357041644.44719) vcan0 0CF00203#CC0000FFF00000FF
(1357041644.44732) vcan0 18FE4A03#FFDDFF7DFFF3FFFF
(1357041644.44744) vcan0 18FEF200#000000001006FAFF
(1357041644.44758) vcan0 18FEFC21#FFFAFFFFFFFFFFFF
(1357041644.44771) vcan0 18FDC40B#1FFFFFFFFFFFFFFF
(1357041644.44784) vcan0 0CF00203#CC0000FFF00000FF
(1357041644.44797) vcan0 0CF00400#4E7D7D0000000F7D
(1357041644.44810) vcan0 0CF00300#D10000FFFF0F667E
(1357041644.44823) vcan0 18FC9600#2100FFFFFFFFFFFF
(1357041644.44839) vcan0 0CF00400#4E7D7D0000000F7D
(1357041644.44853) vcan0 0C010305#FFFF7DFFFFFFFFFF
(1357041644.44866) vcan0 18F00100#FFFFFFFFFFFFFFFF
(1357041644.44879) vcan0 0CF00203#CC0000FFF00000FF
(1357041644.44895) vcan0 18FCF200#FAFFFFFFFFFFFFFF
(1357041644.44908) vcan0 0CF00A00#00000000FFFFFFFF
(1357041644.44920) vcan0 18E0FF00#00FFFFFFFFFFFFFF
(1357041644.44934) vcan0 0CF00C03#FFFF0000FFFFFFFF
(1357041644.44947) vcan0 18FEF200#000000001006FAFF
(1357041644.44960) vcan0 18FEF021#FFFFFFFFFFFC00FF
(1357041644.44977) vcan0 18FDC40B#1FFFFFFFFFFFFFFF
(1357041644.44990) vcan0 0CF00300#D10000FFFF0F667E
(1357041645.45003) vcan0 0C010305#FFFF7DFFFFFFFFFF
(1357041645.45017) vcan0 0CF00400#4E7D7D0000000F7D
(1357041645.45030) vcan0 0CF00300#D10000FFFF0F667E
(1357041645.45043) vcan0 18FDB200#FFFFFFFF0000FFFF
(1357041645.45057) vcan0 18F0000F#F07D7DF30FFFFF7D
(1357041645.45070) vcan0 18FEDF00#7EA0287D7DFFFFF0
(1357041645.45083) vcan0 18FD2000#C025FFFFFFFFFFFF
(1357041645.45095) vcan0 0CF00400#4E7D7D0000000F7D
(1357041645.45112) vcan0 10F03300#D007FFFFFFFFFFFF
(1357041645.45125) vcan0 18F00F00#FFFFFFFFC09FFFFF
(1357041645.45138) vcan0 0CF00203#CC0000FFF00000FF
(1357041645.45152) vcan0 18F00E00#FFFFFFFFFFFFFFFF
(1357041645.45165) vcan0 18FC2B00#FFFF9C68FFFFFFFF
(1357041645.45178) vcan0 0CF00203#CC0000FFF00000FF
(1357041645.45192) vcan0 18FCF200#FAFFFFFFFFFFFFFF
(1357041645.45205) vcan0 0CF00A00#00000000FFFFFFFF
(1357041645.45218) vcan0 0CF00400#4E7D7D0000000F7D
(1357041645.45232) vcan0 10FCFD00#FFFFFFFF262EFFFF
(1357041645.45248) vcan0 18FEF200#000000001006FAFF
(1357041645.45260) vcan0 18FEF021#FFFFFFFFFFFC00FF
(1357041645.45274) vcan0 18FDC40B#1FFFFFFFFFFFFFFF
(1357041645.45289) vcan0 0CF00203#CC0000FFF00000FF
(1357041645.45302) vcan0 0C010305#FFFF7DFFFFFFFFFF
(1357041645.45316) vcan0 0CF00400#4E7D7D0000000F7D
(1357041645.45329) vcan0 18FEDF00#7EA0287D7DFFFFF0
(1357041645.45342) vcan0 0CF00203#CC0000FFF00000FF
(1357041645.45356) vcan0 18FEF000#FFFFFF1815FFFFFF
(1357041645.45372) vcan0 0CF00203#CC0000FFF00000FF
(1357041645.45385) vcan0 1CFEC20F#FFD081FFFFFFFFFF
(1357041645.45399) vcan0 18FECA17#00FF00000000FFFF
(1357041645.45412) vcan0 18FD9400#0000FFFFFFFFFFFF
(1357041645.45425) vcan0 18F00F00#FFFFFFFFC09FFFFF
(1357041645.45437) vcan0 18EF2117#02000000FFFFDCAD
(1357041645.45451) vcan0 18F00E00#FFFFFFFFFFFFFFFF
(1357041645.45464) vcan0 18F00100#FFFFFFFFFFFFFFFF
(1357041645.45477) vcan0 0CF00400#4E7D7D0000000F7D
(1357041645.45491) vcan0 10FDA300#FFFF3FFFFFFFFFFF
(1357041645.45507) vcan0 0CF00A00#00000000FFFFFFFF
(1357041645.45520) vcan0 18FC9600#2000FFFFFFFFFFFF
(1357041645.45534) vcan0 18FEF703#FFFFFFFFF900F200
(1357041645.45547) vcan0 18FEF200#000000001006FAFF
(1357041645.45560) vcan0 18FEF121#F7FFFFC300FFFFF0
(1357041645.45574) vcan0 0CF00300#D10000FFFF0F667E
(1357041645.45587) vcan0 18FD2000#BC25FFFFFFFFFFFF
(1357041645.45599) vcan0 1CFE9200#FFE07EFFFFFF0000
(1357041645.45613) vcan0 18FD9400#0000FFFFFFFFFFFF
(1357041645.45626) vcan0 18F00F00#FFFFFFFFC09FFFFF
(1357041645.45642) vcan0 0CF00203#CC0000FFF00000FF
(1357041645.45656) vcan0 18F0000F#F07D7DF30FFFFF7D
(1357041645.45669) vcan0 0CF00203#CC0000FFF00000FF
(1357041645.45681) vcan0 0CF00203#CC0000FFF00000FF
(1357041645.45697) vcan0 18FEDB00#FFFFC427FFFFFFFF
(1357041645.45710) vcan0 18FEDF00#7EA0287D7DFFFFF0
(1357041645.45723) vcan0 18FC9600#1F00FFFFFFFFFFFF
(1357041645.45736) vcan0 0CF00400#4E7D7D0000000F7D
(1357041645.45749) vcan0 18FEDF00#7EA0287D7DFFFFF0
(1357041645.45762) vcan0 18EF1721#0240000100000000
(1357041645.45778) vcan0 0CF00400#4E7D7D0000000F7D
(1357041645.45792) vcan0 18FCF200#FAFFFFFFFFFFFFFF
(1357041645.45804) vcan0 0CF00A00#00000000FFFFFFFF
(1357041645.45817) vcan0 18FEF10B#FF0000FFFFFFFFFF
(1357041645.45831) vcan0 0CF00300#D10000FFFF0F667E
(1357041645.45844) vcan0 0CF00203#CC0000FFF00000FF
(1357041645.45857) vcan0 0CF00400#4E7D7D0000000F7D
(1357041645.45870) vcan0 0CF00300#D10000FFFF0F667E
(1357041645.45883) vcan0 0CF00203#CC0000FFF00000FF
(1357041645.45896) vcan0 0CF00400#4E7D7D0000000F7D
(1357041645.45913) vcan0 10F03300#D007FFFFFFFFFFFF
(1357041645.45926) vcan0 18F00F00#FFFFFFFFC09FFFFF
(1357041645.45939) vcan0 0CF00203#CC0000FFF00000FF
(1357041645.45952) vcan0 18F00E00#FFFFFFFFFFFFFFFF
(1357041645.45965) vcan0 18F00100#FFFFFFFFFFFFFFFF
(1357041645.45978) vcan0 18FDC40B#1FFFFFFFFFFFFFFF
(1357041645.45991) vcan0 18FCF200#FAFFFFFFFFFFFFFF
(1357041646.46005) vcan0 0CF00A00#00000000FFFFFFFF
(1357041646.46018) vcan0 18FF2617#00000000FE03A503
(1357041646.46031) vcan0 10FCFD00#FFFFFFFF032EFFFF
(1357041646.46048) vcan0 18FEF200#000000001006FAFF
(1357041646.46061) vcan0 18FEF121#F7FFFFC300FFFFF0
(1357041646.46074) vcan0 18FEF100#FF0000FCFF6100C0
(1357041646.46088) vcan0 18FD2000#BC25FFFFFFFFFFFF
(1357041646.46103) vcan0 18F00E00#FFFFFFFFFFFFFFFF
(1357041646.46116) vcan0 0CF00400#4E7D7D0000000F7D
(1357041646.46129) vcan0 18FEDF00#7EA0287D7DFFFFF0
(1357041646.46142) vcan0 0CF00203#CC0000FFF00000FF
(1357041646.46155) vcan0 18F0000F#F07D7DF30FFFFF7D
(1357041646.46169) vcan0 0CF00203#CC0000FFF00000FF
(1357041646.46180) vcan0 18FDC40B#1FFFFFFFFFFFFFFF
(1357041646.46193) vcan0 18FCF200#FAFFFFFFFFFFFFFF
(1357041646.46206) vcan0 0CF00A00#00000000FFFFFFFF
(1357041646.46220) vcan0 18FEE000#88D21F006BD21F00
(1357041646.46232) vcan0 0CF00C03#FFFF0000FFFFFFFF
(1357041646.46245) vcan0 18FEF200#000000001006FAFF
(1357041646.46259) vcan0 0CF00203#CC0000FFF00000FF
(1357041646.46272) vcan0 18FEBF0B#00007D7D7D7DFFFF
(1357041646.46285) vcan0 18FDC40B#1FFFFFFFFFFFFFFF
(1357041646.46302) vcan0 0CF00203#CC0000FFF00000FF
(1357041646.46315) vcan0 18FD9400#0000FFFFFFFFFFFF
(1357041646.46328) vcan0 0CF00203#CC0000FFF00000FF
(1357041646.46342) vcan0 0CF00203#CC0000FFF00000FF
(1357041646.46355) vcan0 0CF00A00#00000000FFFFFFFF
(1357041646.46367) vcan0 18F00100#FFFFFFFFFFFFFFFF
(1357041646.46381) vcan0 18FDC40B#1FFFFFFFFFFFFFFF
(1357041646.46394) vcan0 18FCDC00#FFFFFFFFFC610000
(1357041646.46407) vcan0 0CF00A00#00000000FFFFFFFF
(1357041646.46420) vcan0 18FC9600#2000FFFFFFFFFFFF
(1357041646.46437) vcan0 0CF00C03#FFFF0000FFFFFFFF
(1357041646.46450) vcan0 0CF00300#D10000FFFF0F667E
(1357041646.46464) vcan0 18F00121#FFFFD3FF00FFFFFF
(1357041646.46477) vcan0 0CF00400#4E7D7D0000000F7D
(1357041646.46490) vcan0 18FEDF00#7EA0287D7DFFFFF0
(1357041646.46505) vcan0 0C010305#FFFF7DFFFFFFFFFF
(1357041646.46519) vcan0 0CF00203#CC0000FFF00000FF
(1357041646.46531) vcan0 10FCFD00#FFFFFFFFEC2DFFFF
(1357041646.46544) vcan0 18FEF200#000000001006FAFF
(1357041646.46558) vcan0 0CF00203#CC0000FFF00000FF
(1357041646.46574) vcan0 0CF00300#D10000FFFF0F667E
(1357041646.46587) vcan0 18FDC40B#1FFFFFFFFFFFFFFF
(1357041646.46601) vcan0 18F00E00#FFFFFFFFFFFFFFFF
(1357041646.46614) vcan0 18FD9400#0000FFFFFFFFFFFF
(1357041646.46627) vcan0 18F00F00#FFFFFFFFC09FFFFF
(1357041646.46641) vcan0 0CF00203#CC0000FFF00000FF
(1357041646.46654) vcan0 0C010305#FFFF7DFFFFFFFFFF
(1357041646.46667) vcan0 18F00100#FFFFFFFFFFFFFFFF
(1357041646.46681) vcan0 0CF00203#CC0000FFF00000FF
(1357041646.46693) vcan0 18FCF200#FAFFFFFFFFFFFFFF
(1357041646.46709) vcan0 0CF00A00#00000000FFFFFFFF
(1357041646.46723) vcan0 18FEF10B#FF0000FFFFFFFFFF
(1357041646.46736) vcan0 0CF00400#4E7D7D0000000F7D
(1357041646.46749) vcan0 0CF00203#CC0000FFF00000FF
(1357041646.46761) vcan0 18FEF721#FFFFFFFFFF00F900
(1357041646.46775) vcan0 18F00F00#FFFFFFFFC09FFFFF
(1357041646.46788) vcan0 0CF00203#CC0000FFF00000FF
(1357041646.46801) vcan0 18F00E00#FFFFFFFFFFFFFFFF
(1357041646.46814) vcan0 18FD9400#0000FFFFFFFFFFFF
(1357041646.46827) vcan0 18F00F00#FFFFFFFFC09FFFFF
(1357041646.46843) vcan0 0CF00203#CC0000FFF00000FF
(1357041646.46857) vcan0 0CF00400#4E7D7D0000000F7D
(1357041646.46870) vcan0 18FEDF00#7EA0287D7DFFFFF0
(1357041646.46882) vcan0 0CF00203#CC0000FFF00000FF
(1357041646.46896) vcan0 0CF00400#4E7D7D0000000F7D
(1357041646.46911) vcan0 0CF00203#CC0000FFF00000FF
(1357041646.46924) vcan0 18FEF10B#FF0000FFFFFFFFFF
(1357041646.46937) vcan0 18EA0300#E2FE00
(1357041646.46950) vcan0 0CF00300#D10000FFFF0F667E
(1357041646.46962) vcan0 18F00121#FFFFD3FF00FFFFFF
(1357041646.46979) vcan0 18F00F00#FFFFFFFFC09FFFFF
(1357041646.46992) vcan0 18FCF200#FAFFFFFFFFFFFFFF
(1357041647.47005) vcan0 0CF00A00#00000000FFFFFFFF
(1357041647.47019) vcan0 0CF00203#CC0000FFF00000FF
(1357041647.47032) vcan0 18FE4A03#FFDDFF7DFFF3FFFF
(1357041647.47045) vcan0 18FEF200#000000001006FAFF
(1357041647.47058) vcan0 0CF00203#CC0000FFF00000FF
(1357041647.47072) vcan0 0CF00300#D10000FFFF0F667E
(1357041647.47084) vcan0 18FD2000#C025FFFFFFFFFFFF
(1357041647.47097) vcan0 0CF00400#4E7D7D0000000F7D
(1357041647.47114) vcan0 18FD9400#0000FFFFFFFFFFFF
(1357041647.47127) vcan0 18FEF10B#FF0000FFFFFFFFFF
(1357041647.47140) vcan0 0CF00203#CC0000FFF00000FF
(1357041647.47154) vcan0 0C010305#FFFF7DFFFFFFFFFF
(1357041647.47167) vcan0 18F0010B#C0FFD0FFFF0DFF3F
(1357041647.47180) vcan0 0CF00203#CC0000FFF00000FF
(1357041647.47194) vcan0 18FCF200#FAFFFFFFFFFFFFFF
(1357041647.47207) vcan0 0CF00A00#00000000FFFFFFFF
(1357041647.47220) vcan0 18FEE000#88D21F006BD21F00
(1357041647.47237) vcan0 0CF00C03#FFFF0000FFFFFFFF
(1357041647.47249) vcan0 18FEDF00#7EA0287D7DFFFFF0
(1357041647.47262) vcan0 18EF1721#0240000100000000
(1357041647.47276) vcan0 0CF00400#4E7D7D0000000F7D
(1357041647.47289) vcan0 0CF00203#CC0000FFF00000FF
(1357041647.47304) vcan0 18F00E00#FFFFFFFFFFFFFFFF
(1357041647.47318) vcan0 0CF00400#4E7D7D0000000F7D
(1357041647.47331) vcan0 0CF00300#D10000FFFF0F667E
(1357041647.47344) vcan0 0CF00203#CC0000FFF00000FF
(1357041647.47357) vcan0 0CF00400#4E7D7D0000000F7D
(1357041647.47374) vcan0 0CF00300#D10000FFFF0F667E
(1357041647.47386) vcan0 1CFEC20F#FFD081FFFFFFFFFF
(1357041647.47399) vcan0 18FECA17#00FF00000000FFFF
(1357041647.47413) vcan0 18FD9400#0000FFFFFFFFFFFF
(1357041647.47426) vcan0 18F00F00#FFFFFFFFC09FFFFF
(1357041647.47439) vcan0 18EF2117#02000000FFFFDCAD
(1357041647.47453) vcan0 0C010305#FFFF7DFFFFFFFFFF
(1357041647.47466) vcan0 18F00100#FFFFFFFFFFFFFFFF
(1357041647.47479) vcan0 0CF00203#CC0000FFF00000FF
(1357041647.47493) vcan0 18FCF200#FAFFFFFFFFFFFFFF
(1357041647.47509) vcan0 0CF00A00#00000000FFFFFFFF
(1357041647.47521) vcan0 18FC9600#1F00FFFFFFFFFFFF
(1357041647.47535) vcan0 18FEF703#FFFFFFFFF900F100
(1357041647.47548) vcan0 0CF00203#CC0000FFF00000FF
(1357041647.47561) vcan0 10F03300#D007FFFFFFFFFFFF
(1357041647.47575) vcan0 18FEF100#FF0000FCFF6100C0
(1357041647.47588) vcan0 0CF00203#CC0000FFF00000FF
(1357041647.47601) vcan0 18F00E00#FFFFFFFFFFFFFFFF
(1357041647.47614) vcan0 18FD9400#0000FFFFFFFFFFFF
(1357041647.47628) vcan0 18F00F00#FFFFFFFFC09FFFFF
(1357041647.47644) vcan0 0CF00203#CC0000FFF00000FF
(1357041647.47657) vcan0 0CF00400#4E7D7D0000000F7D
(1357041647.47671) vcan0 0CF00300#D10000FFFF0F667E
(1357041647.47683) vcan0 18FEBF0B#00007D7D7D7DFFFF
(1357041647.47696) vcan0 0CF00400#4E7D7D0000000F7D
(1357041647.47712) vcan0 18FEDF00#7EA0287D7DFFFFF0
(1357041647.47725) vcan0 18F00F00#FFFFFFFFC09FFFFF
(1357041647.47738) vcan0 0CF00203#CC0000FFF00000FF
(1357041647.47752) vcan0 18F00E00#FFFFFFFFFFFFFFFF
(1357041647.47765) vcan0 18F00100#FFFFFFFFFFFFFFFF
(1357041647.47781) vcan0 0CF00203#CC0000FFF00000FF
(1357041647.47795) vcan0 18FCDC00#FFFFFFFFFC610000
(1357041647.47807) vcan0 0CF00A00#00000000FFFFFFFF
(1357041647.47820) vcan0 18FC9600#1F00FFFFFFFFFFFF
(1357041647.47834) vcan0 10FCFD00#FFFFFFFFC62DFFFF
(1357041647.47847) vcan0 1CEBFF00#021CBD401FC9E02E
(1357041647.47860) vcan0 10F03300#D007FFFFFFFFFFFF
(1357041647.47873) vcan0 18F0010B#C0FFD0FFFF0DFF3F
(1357041647.47886) vcan0 18FEBF0B#00007D7D7D7DFFFF
(1357041647.47899) vcan0 0CF00203#CC0000FFF00000FF
(1357041647.47916) vcan0 18FD9400#0000FFFFFFFFFFFF
(1357041647.47928) vcan0 0CF00203#CC0000FFF00000FF
(1357041647.47941) vcan0 18EF2117#02000000FFFFDCAD
(1357041647.47954) vcan0 0CF00A00#00000000FFFFFFFF
(1357041647.47968) vcan0 18FEA400#FFFFD224FFFFD824
(1357041647.47980) vcan0 0CF00203#CC0000FFF00000FF
(1357041647.47993) vcan0 18FCF200#FAFFFFFFFFFFFFFF
(1357041648.48007) vcan0 0CF00A00#00000000FFFFFFFF
(1357041648.48020) vcan0 18FEE000#88D21F006BD21F00
(1357041648.48032) vcan0 18FEF10B#FF0000FFFFFFFFFF
(1357041648.48049) vcan0 18FEF200#000000001006FAFF
(1357041648.48062) vcan0 10F03300#D007FFFFFFFFFFFF
(1357041648.48075) vcan0 18F00F00#FFFFFFFFC09FFFFF
(1357041648.48089) vcan0 0CF00203#CC0000FFF00000FF
(1357041648.48102) vcan0 18F00E00#FFFFFFFFFFFFFFFF
(1357041648.48117) vcan0 18FD9400#0000FFFFFFFFFFFF
(1357041648.48131) vcan0 18FE4A03#FFDDFF7DFFF3FFFF
(1357041648.48144) vcan0 0CF00203#CC0000FFF00000FF
(1357041648.48157) vcan0 0CF00400#4E7D7D0000000F7D
(1357041648.48174) vcan0 0CF00300#D10000FFFF0F667E
(1357041648.48187) vcan0 18FEBF0B#00007D7D7D7DFFFF
(1357041648.48199) vcan0 1CFE9200#FFEC7EFFFFFF0000
(1357041648.48212) vcan0 1CECFF0F#20130003FFE1FE00
(1357041648.48226) vcan0 18F00F00#FFFFFFFFC09FFFFF
(1357041648.48239) vcan0 0CF00203#CC0000FFF00000FF
(1357041648.48252) vcan0 0C010305#FFFF7DFFFFFFFFFF
(1357041648.48266) vcan0 18FEF021#FFFFFFFFFFFC00FF
(1357041648.48279) vcan0 0CF00203#CC0000FFF00000FF
(1357041648.48292) vcan0 18FCF200#FAFFFFFFFFFFFFFF
(1357041648.48309) vcan0 0CF00A00#00000000FFFFFFFF
(1357041648.48322) vcan0 18FC9600#2000FFFFFFFFFFFF
(1357041648.48335) vcan0 18FEF10B#FF0000FFFFFFFFFF
(1357041648.48348) vcan0 0CF00203#CC0000FFF00000FF
(1357041648.48361) vcan0 10F03300#D007FFFFFFFFFFFF
(1357041648.48374) vcan0 18FEF100#FF0000FCFF6100C0
(1357041648.48388) vcan0 18FEBF0B#00007D7D7D7DFFFF
(1357041648.48401) vcan0 18FECA17#00FF00000000FFFF
(1357041648.48414) vcan0 18FEDC00#AF1C00006A520000
(1357041648.48428) vcan0 18F00F00#FFFFFFFFC09FFFFF
(1357041648.48444) vcan0 18EF2117#02000000FFFFDCAD
(1357041648.48457) vcan0 0CF00400#4E7D7D0000000F7D
(1357041648.48471) vcan0 18FEDF00#7EA0287D7DFFFFF0
(1357041648.48483) vcan0 0CF00203#CC0000FFF00000FF
(1357041648.48496) vcan0 0CF00400#4E7D7D0000000F7D
(1357041648.48512) vcan0 10F03300#D007FFFFFFFFFFFF
(1357041648.48525) vcan0 18F00F00#FFFFFFFFC09FFFFF
(1357041648.48538) vcan0 0CF00203#CC0000FFF00000FF
(1357041648.48551) vcan0 18F00E00#FFFFFFFFFFFFFFFF
(1357041648.48565) vcan0 18F00100#FFFFFFFFFFFFFFFF
(1357041648.48581) vcan0 0CF00400#4E7D7D0000000F7D
(1357041648.48594) vcan0 18FCF200#FAFFFFFFFFFFFFFF
(1357041648.48608) vcan0 0CF00A00#00000000FFFFFFFF
(1357041648.48621) vcan0 18FC9600#2200FFFFFFFFFFFF
(1357041648.48634) vcan0 10FCFD00#FFFFFFFFB02DFFFF
(1357041648.48647) vcan0 18FEF200#000000001006FAFF
(1357041648.48660) vcan0 10F03300#D007FFFFFFFFFFFF
(1357041648.48673) vcan0 18FEEF00#FFFFFF00007DFFFA
(1357041648.48687) vcan0 18FEBF0B#00007D7D7D7DFFFF
(1357041648.48700) vcan0 1CFE9200#FFFC7EFFFFFF0000
(1357041648.48716) vcan0 18FD9400#0000FFFFFFFFFFFF
(1357041648.48730) vcan0 18FEDF00#7EA0287D7DFFFFF0
(1357041648.48743) vcan0 18FEF700#FFFFFFFFF800FFFF
(1357041648.48756) vcan0 0CF00400#4E7D7D0000000F7D
(1357041648.48770) vcan0 18FF2921#00000098F800FFFF
(1357041648.48783) vcan0 0CF00203#CC0000FFF00000FF
(1357041648.48796) vcan0 0CF00400#4E7D7D0000000F7D
(1357041648.48809) vcan0 0CF00203#CC0000FFF00000FF
(1357041648.48822) vcan0 18FC9600#2000FFFFFFFFFFFF
(1357041648.48835) vcan0 10FCFD00#FFFFFFFFAC2DFFFF
(1357041648.48851) vcan0 0CF00203#CC0000FFF00000FF
(1357041648.48865) vcan0 18F00100#FFFFFFFFFFFFFFFF
(1357041648.48878) vcan0 18F0010B#C0FFD0FFFF0DFF3F
(1357041648.48891) vcan0 0CF00300#D10000FFFF0F667E
(1357041648.48904) vcan0 0C010305#FFFF7DFFFFFFFFFF
(1357041648.48919) vcan0 0CF00400#4E7D7D0000000F7D
(1357041648.48932) vcan0 0CF00C03#FFFF0000FFFFFFFF
(1357041648.48946) vcan0 18EF1721#0240000000000000
(1357041648.48958) vcan0 0CF00203#CC0000FFF00000FF
(1357041648.48974) vcan0 0CF00300#D10000FFFF0F667E
(1357041648.48988) vcan0 0CF00203#CC0000FFF00000FF
(1357041649.49001) vcan0 18F00E00#FFFFFFFFFFFFFFFF
(1357041649.49013) vcan0 18FE9A00#F424FFFFFFFFFFFF
(1357041649.49027) vcan0 18F00F00#FFFFFFFFC09FFFFF
(1357041649.49040) vcan0 18FDB200#FFFFFFFF0000FFFF
(1357041649.49053) vcan0 0C010305#FFFF7DFFFFFFFFFF
(1357041649.49067) vcan0 18F00121#FFFFD3FF00FFFFFF
(1357041649.49079) vcan0 0CF00203#CC0000FFF00000FF
(1357041649.49092) vcan0 18FCF200#FAFFFFFFFFFFFFFF
(1357041649.49108) vcan0 0CF00A00#00000000FFFFFFFF
(1357041649.49122) vcan0 18FC9600#2000FFFFFFFFFFFF
(1357041649.49135) vcan0 10FCFD00#FFFFFFFFA62DFFFF
(1357041649.49148) vcan0 0CF00203#CC0000FFF00000FF
(1357041649.49162) vcan0 10F03300#D007FFFFFFFFFFFF
(1357041649.49175) vcan0 18FEF100#FF0000FCFF6100C0
(1357041649.49187) vcan0 0CF00203#CC0000FFF00000FF
(1357041649.49201) vcan0 18F00E00#FFFFFFFFFFFFFFFF
(1357041649.49214) vcan0 18FD9400#0000FFFFFFFFFFFF
(1357041649.49227) vcan0 18F00F00#FFFFFFFFC09FFFFF
(1357041649.49244) vcan0 18FEF10B#FF0000FFFFFFFFFF
(1357041649.49257) vcan0 0CF00400#4E7D7D0000000F7D
(1357041649.49270) vcan0 0CF00300#D10000FFFF0F667E
(1357041649.49284) vcan0 18F0010B#C0FFD0FFFF0DFF3F
(1357041649.49297) vcan0 0CF00400#4E7D7D0000000F7D
(1357041649.49310) vcan0 10F03300#D007FFFFFFFFFFFF
(1357041649.49326) vcan0 18FC9600#1F00FFFFFFFFFFFF
(1357041649.49339) vcan0 0CF00203#CC0000FFF00000FF
(1357041649.49351) vcan0 18F00E00#FFFFFFFFFFFFFFFF
(1357041649.49364) vcan0 18F00100#FFFFFFFFFFFFFFFF
(1357041649.49381) vcan0 0CF00203#CC0000FFF00000FF
(1357041649.49394) vcan0 18FCDC00#FFFFFFFFFC610000
(1357041649.49408) vcan0 0CF00203#CC0000FFF00000FF
(1357041649.49421) vcan0 18FC9600#1E00FFFFFFFFFFFF
(1357041649.49434) vcan0 10FCFD00#FFFFFFFF9C2DFFFF
(1357041649.49447) vcan0 18EF1721#0240000000000000
(1357041649.49461) vcan0 10F03300#D007FFFFFFFFFFFF
(1357041649.49474) vcan0 0CF00300#D10000FFFF0F667E
(1357041649.49487) vcan0 18F0010B#C0FFD0FFFF0DFF3F
(1357041649.49500) vcan0 1CFE9200#FFE87EFFFFFF0000
(1357041649.49516) vcan0 18FD9400#0000FFFFFFFFFFFF
(1357041649.49529) vcan0 18FEDF00#7EA0287D7DFFFFF0
(1357041649.49543) vcan0 18FEF10B#FF0000FFFFFFFFFF
(1357041649.49556) vcan0 18F0000F#F07D7DF30FFFFF7D
(1357041649.49569) vcan0 0CF00203#CC0000FFF00000FF
(1357041649.49583) vcan0 18F0010B#C0FFD0FFFF0DFF3F
(1357041649.49596) vcan0 18FCDC00#FFFFFFFFFC610000
(1357041649.49609) vcan0 0CF00203#CC0000FFF00000FF
(1357041649.49623) vcan0 18FC9600#2000FFFFFFFFFFFF
(1357041649.49635) vcan0 10FCFD00#FFFFFFFF992DFFFF
(1357041649.49651) vcan0 0CF00203#CC0000FFF00000FF
(1357041649.49665) vcan0 18F00100#FFFFFFFFFFFFFFFF
(1357041649.49678) vcan0 0CF00203#CC0000FFF00000FF
(1357041649.49691) vcan0 18FCF200#FAFFFFFFFFFFFFFF
(1357041649.49704) vcan0 0CF00A00#00000000FFFFFFFF
(1357041649.49720) vcan0 0CF00203#CC0000FFF00000FF
(1357041649.49733) vcan0 10FCFD00#FFFFFFFF932DFFFF
(1357041649.49746) vcan0 18FEF200#000000001006FAFF
(1357041649.49760) vcan0 0CF00203#CC0000FFF00000FF
(1357041649.49773) vcan0 0CFDCC21#FFF0FFFFFFFFFFFF
(1357041649.49789) vcan0 18F0010B#C0FFD0FFFF0DFF3F
(1357041649.49803) vcan0 18FDC40B#1FFFFFFFFFFFFFFF
(1357041649.49816) vcan0 18FD9400#0000FFFFFFFFFFFF
(1357041649.49828) vcan0 0CF00203#CC0000FFF00000FF
(1357041649.49842) vcan0 0CF00203#CC0000FFF00000FF
(1357041649.49855) vcan0 18FEF000#FFFFFF1815FFFFFF
(1357041649.49868) vcan0 0CF00203#CC0000FFF00000FF
(1357041649.49882) vcan0 0CF00203#CC0000FFF00000FF
(1357041649.49895) vcan0 18FCDC00#FFFFFFFFFC610000
(1357041649.49911) vcan0 0CF00203#CC0000FFF00000FF
(1357041649.49925) vcan0 18E0FF00#00FFFFFFFFFFFFFF
(1357041649.49937) vcan0 18EA0300#E2FE00
(1357041649.49950) vcan0 0CF00300#D10000FFFF0F667E
(1357041649.49963) vcan0 10F03300#D007FFFFFFFFFFFF
(1357041649.49976) vcan0 0CF00400#4E7D7D0000000F7D
(1357041649.49989) vcan0 0CF00203#CC0000FFF00000FF
(1357041650.50002) vcan0 18F00E00#FFFFFFFFFFFFFFFF
(1357041650.50015) vcan0 18FDB300#FFFF1625FFFFFFFF
(1357041650.50028) vcan0 0CF00203#CC0000FFF00000FF
(1357041650.50044) vcan0 18FDB200#FFFFFFFF0000FFFF
(1357041650.50058) vcan0 0CF00400#4E7D7D0000000F7D
(1357041650.50070) vcan0 0CF00300#D10000FFFF0F667E
(1357041650.50083) vcan0 18FD2000#BC25FFFFFFFFFFFF
(1357041650.50097) vcan0 0CF00400#4E7D7D0000000F7D
(1357041650.50110) vcan0 10F03300#D007FFFFFFFFFFFF
(1357041650.50124) vcan0 18FC9600#1F00FFFFFFFFFFFF
(1357041650.50138) vcan0 0CF00203#CC0000FFF00000FF
(1357041650.50151) vcan0 18F00E00#FFFFFFFFFFFFFFFF
(1357041650.50164) vcan0 10F03300#D007FFFFFFFFFFFF
(1357041650.50181) vcan0 0CF00400#4E7D7D0000000F7D
(1357041650.50194) vcan0 18FCF200#FAFFFFFFFFFFFFFF
(1357041650.50206) vcan0 18E00021#00FFFFFFFFF0FFFF
(1357041650.50220) vcan0 18FEE000#88D21F006BD21F00
(1357041650.50233) vcan0 10FCFD00#FFFFFFFF892DFFFF
(1357041650.50246) vcan0 18FEF10B#FF0000FFFFFFFFFF
(1357041650.50259) vcan0 0CF00203#CC0000FFF00000FF
(1357041650.50273) vcan0 0CF00300#D10000FFFF0F667E
(1357041650.50286) vcan0 18F0010B#C0FFD0FFFF0DFF3F
(1357041650.50299) vcan0 0CF00203#CC0000FFF00000FF
(1357041650.50316) vcan0 18FD9400#0000FFFFFFFFFFFF
(1357041650.50329) vcan0 0CF00203#CC0000FFF00000FF
(1357041650.50342) vcan0 0CF00203#CC0000FFF00000FF
(1357041650.50355) vcan0 18FEF000#FFFFFF1815FFFFFF
(1357041650.50368) vcan0 18F00121#FFFFD3FF00FFFFFF
(1357041650.50381) vcan0 1CFEC20F#FFD081FFFFFFFFFF
(1357041650.50395) vcan0 18FCDC00#FFFFFFFFFC610000
(1357041650.50408) vcan0 0CF00203#CC0000FFF00000FF
(1357041650.50421) vcan0 18FC9600#1E00FFFFFFFFFFFF
(1357041650.50435) vcan0 10FCFD00#FFFFFFFF862DFFFF
(1357041650.50451) vcan0 0CF00203#CC0000FFF00000FF
(1357041650.50464) vcan0 10F03300#D007FFFFFFFFFFFF
(1357041650.50478) vcan0 0CF00400#4E7D7D0000000F7D
(1357041650.50491) vcan0 18FEDF00#7EA0287D7DFFFFF0
(1357041650.50503) vcan0 0C010305#FFFF7DFFFFFFFFFF
(1357041650.50516) vcan0 0CF00400#4E7D7D0000000F7D
(1357041650.50532) vcan0 18FEDF00#7EA0287D7DFFFFF0
(1357041650.50545) vcan0 18FEF200#000000001006FAFF
(1357041650.50558) vcan0 0CF00203#CC0000FFF00000FF
(1357041650.50572) vcan0 0CF00300#D10000FFFF0F667E
(1357041650.50588) vcan0 18FD2000#C025FFFFFFFFFFFF
(1357041650.50601) vcan0 18F00E00#FFFFFFFFFFFFFFFF
(1357041650.50615) vcan0 18FD9400#0000FFFFFFFFFFFF
(1357041650.50628) vcan0 0CF00203#CC0000FFF00000FF
(1357041650.50641) vcan0 0CF00203#CC0000FFF00000FF
(1357041650.50654) vcan0 0C010305#FFFF7DFFFFFFFFFF
(1357041650.50667) vcan0 18FEF121#F7FFFFC300FFFFF0
(1357041650.50680) vcan0 0CF00203#CC0000FFF00000FF
(1357041650.50694) vcan0 18FCF200#FAFFFFFFFFFFFFFF
(1357041650.50707) vcan0 0CF00A00#00000000FFFFFFFF
(1357041650.50723) vcan0 18FEE000#88D21F006BD21F00
(1357041650.50737) vcan0 0CF00400#4E7D7D0000000F7D
(1357041650.50750) vcan0 18FEDF00#7EA0287D7DFFFFF0
(1357041650.50763) vcan0 10F03300#D007FFFFFFFFFFFF
(1357041650.50777) vcan0 18F00F00#FFFFFFFFC09FFFFF
(1357041650.50790) vcan0 18F0010B#C0FFD0FFFF0DFF3F
(1357041650.50802) vcan0 0C010305#FFFF7DFFFFFFFFFF
(1357041650.50816) vcan0 18FD9400#0000FFFFFFFFFFFF
(1357041650.50829) vcan0 18F00503#7D00007D204E204E
(1357041650.50842) vcan0 0CF00203#CC0000FFF00000FF
(1357041650.50853) vcan0 18FEF000#FFFFFF1815FFFFFF
(1357041650.50867) vcan0 18F00100#FFFFFFFFFFFFFFFF
(1357041650.50880) vcan0 0CF00203#CC0000FFF00000FF
(1357041650.50893) vcan0 18EA2117#EAFE00
(1357041650.50906) vcan0 0CF00A00#00000000FFFFFFFF
(1357041650.50919) vcan0 0CF00203#CC0000FFF00000FF
(1357041650.50934) vcan0 10FCFD00#FFFFFFFF7C2DFFFF
(1357041650.50948) vcan0 18FEF200#000000001006FAFF
(1357041650.50961) vcan0 10F03300#D007FFFFFFFFFFFF
(1357041650.50974) vcan0 0CF00300#D10000FFFF0F667E
(1357041650.50990) vcan0 0CF00203#CC0000FFF00000FF
(1357041651.51003) vcan0 0C010305#FFFF7DFFFFFFFFFF
(1357041651.51016) vcan0 0CF00400#4E7D7D0000000F7D
(1357041651.51030) vcan0 18FE4A03#FFDDFF7DFFF3FFFF
(1357041651.51043) vcan0 18FDB200#FFFFFFFF0000FFFF
(1357041651.51055) vcan0 18FEF000#FFFFFF1815FFFFFF
(1357041651.51068) vcan0 18FEF021#FFFFFFFFFFFC00FF
(1357041651.51082) vcan0 18FD2000#C025FFFFFFFFFFFF
(1357041651.51095) vcan0 18FCDC00#FFFFFFFFFC610000
(1357041651.51110) vcan0 0CF00203#CC0000FFF00000FF
(1357041651.51124) vcan0 18FC9600#1E00FFFFFFFFFFFF
(1357041651.51137) vcan0 0CF00400#4E7D7D0000000F7D
(1357041651.51150) vcan0 18FEDF00#7EA0287D7DFFFFF0
(1357041651.51163) vcan0 10F03300#D007FFFFFFFFFFFF
(1357041651.51176) vcan0 18F00F00#FFFFFFFFC09FFFFF
(1357041651.51189) vcan0 0CF00203#CC0000FFF00000FF
(1357041651.51203) vcan0 18FEBF0B#00007D7D7D7DFFFF
(1357041651.51216) vcan0 18FEF600#FF003EFFFFFFFFFF
(1357041651.51228) vcan0 0CF00203#CC0000FFF00000FF
(1357041651.51245) vcan0 0CF00203#CC0000FFF00000FF
(1357041651.51258) vcan0 0CF00203#CC0000FFF00000FF
(1357041651.51271) vcan0 0CF00300#D10000FFFF0F667E
(1357041651.51284) vcan0 0CF00203#CC0000FFF00000FF
(1357041651.51298) vcan0 0CF00203#CC0000FFF00000FF
(1357041651.51311) vcan0 18FEDF00#7EA0287D7DFFFFF0
(1357041651.51324) vcan0 18FC9600#1F00FFFFFFFFFFFF
(1357041651.51339) vcan0 0CF00400#4E7D7D0000000F7D
(1357041651.51352) vcan0 18FEF10B#FF0000FFFFFFFFFF
(1357041651.51365) vcan0 18F00100#FFFFFFFFFFFFFFFF
(1357041651.51382) vcan0 0CF00203#CC0000FFF00000FF
(1357041651.51395) vcan0 18FCDC00#FFFFFFFFFC610000
(1357041651.51408) vcan0 0CF00203#CC0000FFF00000FF
(1357041651.51422) vcan0 18FC9600#1E00FFFFFFFFFFFF
(1357041651.51435) vcan0 10FCFD00#FFFFFFFF732DFFFF
(1357041651.51448) vcan0 0CF00203#CC0000FFF00000FF
(1357041651.51462) vcan0 10F03300#D007FFFFFFFFFFFF
(1357041651.51475) vcan0 0CF00300#D10000FFFF0F667E
(1357041651.51488) vcan0 0CF00203#CC0000FFF00000FF
(1357041651.51501) vcan0 18F00E00#FFFFFFFFFFFFFFFF
(1357041651.51517) vcan0 18FDC40B#1FFFFFFFFFFFFFFF
(1357041651.51530) vcan0 0CF00C03#FFFF0000FFFFFFFF
(1357041651.51544) vcan0 18FDB200#FFFFFFFF0000FFFF
(1357041651.51557) vcan0 0CF00400#4E7D7D0000000F7D
(1357041651.51570) vcan0 18F00121#FFFFD3FF00FFFFFF
(1357041651.51584) vcan0 18FD2000#BC25FFFFFFFFFFFF
(1357041651.51597) vcan0 0CF00400#4E7D7D0000000F7D
(1357041651.51610) vcan0 10F03300#D007FFFFFFFFFFFF
(1357041651.51623) vcan0 18FC9600#1F00FFFFFFFFFFFF
(1357041651.51636) vcan0 0CF00400#4E7D7D0000000F7D
(1357041651.51652) vcan0 0CF00203#CC0000FFF00000FF
(1357041651.51665) vcan0 18F00100#FFFFFFFFFFFFFFFF
(1357041651.51679) vcan0 0CF00203#CC0000FFF00000FF
(1357041651.51692) vcan0 18FCF200#FAFFFFFFFFFFFFFF
(1357041651.51705) vcan0 0CF00A00#00000000FFFFFFFF
(1357041651.51719) vcan0 0CF00203#CC0000FFF00000FF
(1357041651.51734) vcan0 18FECA03#00FF00000000FFFF
(1357041651.51747) vcan0 18FEF200#000000001006FAFF
(1357041651.51761) vcan0 18FEC100#7D8C1B034F8F1B03
(1357041651.51773) vcan0 18F00121#FFFFD3FF00FFFFFF
(1357041651.51789) vcan0 0CF00203#CC0000FFF00000FF
(1357041651.51803) vcan0 0C010305#FFFF7DFFFFFFFFFF
(1357041651.51816) vcan0 0CF00400#4E7D7D0000000F7D
(1357041651.51829) vcan0 18FE4A03#FFDDFF7DFFF3FFFF
(1357041651.51843) vcan0 0CF00203#CC0000FFF00000FF
(1357041651.51856) vcan0 18FEF000#FFFFFF1815FFFFFF
(1357041651.51869) vcan0 18FEF121#F7FFFFC300FFFFF0
(1357041651.51883) vcan0 0CF00203#CC0000FFF00000FF
(1357041651.51896) vcan0 18FEBD00#00F0FFFFFFFFFFFF
(1357041651.51912) vcan0 0CF00203#CC0000FFF00000FF
(1357041651.51926) vcan0 0CFD9200#F0FFFFFFFFFFFFFF
(1357041651.51939) vcan0 0CF00203#CC0000FFF00000FF
(1357041651.51951) vcan0 18F00E00#FFFFFFFFFFFFFFFF
(1357041651.51964) vcan0 10F03300#D007FFFFFFFFFFFF
(1357041651.51978) vcan0 0CF00203#CC0000FFF00000FF
(1357041651.51991) vcan0 0CF00300#D10000FFFF0F667E
(1357041652.52004) vcan0 0C010305#FFFF7DFFFFFFFFFF
(1357041652.52018) vcan0 0CF00203#CC0000FFF00000FF
(1357041652.52031) vcan0 18FEDF00#7EA0287D7DFFFFF0
(1357041652.52047) vcan0 18FDB200#FFFFFFFF0000FFFF
(1357041652.52061) vcan0 18FD8C00#FFFF0000FFFFFFFF
(1357041652.52073) vcan0 18F00121#FFFFD3FF00FFFFFF
(1357041652.52086) vcan0 18FD2000#BC25FFFFFFFFFFFF
(1357041652.52100) vcan0 0CF00203#CC0000FFF00000FF
(1357041652.52113) vcan0 18FD9400#0000FFFFFFFFFFFF
(1357041652.52125) vcan0 18F00F00#FFFFFFFFC09FFFFF
(1357041652.52141) vcan0 0CF00203#CC0000FFF00000FF
(1357041652.52154) vcan0 0C010305#FFFF7DFFFFFFFFFF
(1357041652.52167) vcan0 18FC2B00#FFFF9C68FFFFFFFF
(1357041652.52183) vcan0 0CF00203#CC0000FFF00000FF
(1357041652.52196) vcan0 0CF00400#4E7D7D0000000F7D
(1357041652.52209) vcan0 18FEBF0B#00007D7D7D7DFFFF
(1357041652.52222) vcan0 18FC9600#1F00FFFFFFFFFFFF
(1357041652.52236) vcan0 10FCFD00#FFFFFFFF662DFFFF
(1357041652.52248) vcan0 0CF00203#CC0000FFF00000FF
(1357041652.52261) vcan0 10F03300#D007FFFFFFFFFFFF
(1357041652.52275) vcan0 18FF2921#00000098F800FFFF
(1357041652.52288) vcan0 0CF00203#CC0000FFF00000FF
(1357041652.52300) vcan0 18F00E00#FFFFFFFFFFFFFFFF
(1357041652.52317) vcan0 18FD9400#0000FFFFFFFFFFFF
(1357041652.52357) vcan0 0CF00C03#FFFF0000FFFFFFFF
(1357041652.52619) vcan0 18FEF121#F7FFFFC300FFFFF0
(1357041652.52866) vcan0 10FCFD00#FFFFFFFF5C2DFFFF
(1357041653.53121) vcan0 0CF00203#CC0000FFF00000FF
(1357041653.53367) vcan0 10FCFD00#FFFFFFFF562DFFFF
(1357041653.53495) vcan0 1CFEC20F#FFD081FFFFFFFFFF
(1357041653.53509) vcan0 0CF00203#CC0000FFF00000FF
(1357041653.53522) vcan0 18FC9600#1F00FFFFFFFFFFFF
(1357041653.53535) vcan0 10FCFD00#FFFFFFFF532DFFFF
(1357041653.53552) vcan0 0CF00203#CC0000FFF00000FF
(1357041653.53565) vcan0 10F03300#D007FFFFFFFFFFFF
(1357041653.53578) vcan0 0CF00203#CC0000FFF00000FF
(1357041653.53591) vcan0 0CF00300#D10000FFFF0F667E
(1357041653.53604) vcan0 0C010305#FFFF7DFFFFFFFFFF
(1357041653.53617) vcan0 18FEBF0B#00007D7D7D7DFFFF
(1357041653.53630) vcan0 18FEDF00#7EA0287D7DFFFFF0
(1357041653.53644) vcan0 0CF00203#CC0000FFF00000FF
(1357041653.53657) vcan0 0CF00203#CC0000FFF00000FF
(1357041653.53670) vcan0 18FEDF00#7EA0287D7DFFFFF0
(1357041653.53687) vcan0 0CF00203#CC0000FFF00000FF
(1357041653.53700) vcan0 0CF00203#CC0000FFF00000FF
(1357041653.53713) vcan0 18FD9400#0000FFFFFFFFFFFF
(1357041653.53727) vcan0 18F00F00#FFFFFFFFC09FFFFF
(1357041653.53739) vcan0 0CF00203#CC0000FFF00000FF
(1357041653.53752) vcan0 0C010305#FFFF7DFFFFFFFFFF
(1357041653.53766) vcan0 18F00100#FFFFFFFFFFFFFFFF
(1357041653.53779) vcan0 0CF00400#4E7D7D0000000F7D
(1357041653.53792) vcan0 18FCF200#FAFFFFFFFFFFFFFF
(1357041653.53806) vcan0 18FD9B00#FF00FFFFFFF0FFFF
(1357041653.53822) vcan0 18FEBF0B#00007D7D7D7DFFFF
(1357041653.53835) vcan0 10FCFD00#FFFFFFFF4C2DFFFF
(1357041653.53849) vcan0 0CF00203#CC0000FFF00000FF
(1357041653.53862) vcan0 10F03300#D007FFFFFFFFFFFF
(1357041653.53875) vcan0 18F00121#FFFFD3FF00FFFFFF
(1357041653.53891) vcan0 0CF00203#CC0000FFF00000FF
(1357041653.53903) vcan0 0C010305#FFFF7DFFFFFFFFFF
(1357041653.53916) vcan0 0CF00400#4E7D7D0000000F7D
(1357041653.53929) vcan0 18FE4A03#FFDDFF7DFFF3FFFF
(1357041653.53946) vcan0 18E8FF03#01FFFFFF00E2FE00
(1357041653.53959) vcan0 0CF00203#CC0000FFF00000FF
(1357041653.53972) vcan0 18FEF121#F7FFFFC300FFFFF0
(1357041653.53986) vcan0 0CF00203#CC0000FFF00000FF
(1357041653.53999) vcan0 0CF00203#CC0000FFF00000FF
(1357041654.54012) vcan0 18FD9400#0000FFFFFFFFFFFF
(1357041654.54026) vcan0 18F00F00#FFFFFFFFC09FFFFF
(1357041654.54039) vcan0 0CF00203#CC0000FFF00000FF
(1357041654.54052) vcan0 18F00E00#FFFFFFFFFFFFFFFF
(1357041654.54066) vcan0 18F00100#FFFFFFFFFFFFFFFF
(1357041654.54082) vcan0 0CF00203#CC0000FFF00000FF
(1357041654.54094) vcan0 18FCF200#FAFFFFFFFFFFFFFF
(1357041654.54108) vcan0 0CF00203#CC0000FFF00000FF
(1357041654.54121) vcan0 18FC9600#1F00FFFFFFFFFFFF
(1357041654.54134) vcan0 10FCFD00#FFFFFFFF492DFFFF
(1357041654.54148) vcan0 0CF00203#CC0000FFF00000FF
(1357041654.54161) vcan0 10F03300#D007FFFFFFFFFFFF
(1357041654.54174) vcan0 18FEF021#FFFFFFFFFFFC00FF
(1357041654.54188) vcan0 0CF00203#CC0000FFF00000FF
(1357041654.54201) vcan0 1CFE9200#FFF47EFFFFFF0000
(1357041654.54217) vcan0 18E00021#00FFFFFFFFF0FFFF
(1357041654.54231) vcan0 0CF00C03#FFFF0000FFFFFFFF
(1357041654.54243) vcan0 0CF00203#CC0000FFF00000FF
(1357041654.54256) vcan0 18F0000F#F07D7DF30FFFFF7D
(1357041654.54269) vcan0 0CF00203#CC0000FFF00000FF
(1357041654.54283) vcan0 0CF00203#CC0000FFF00000FF
(1357041654.54297) vcan0 18FCDC00#FFFFFFFFFC610000
(1357041654.54310) vcan0 18FEDF00#7EA0287D7DFFFFF0
(1357041654.54324) vcan0 18FEBF0B#00007D7D7D7DFFFF
(1357041654.54337) vcan0 0CF00400#4E7D7D0000000F7D
(1357041654.54362) vcan0 0CF00203#CC0000FFF00000FF
(1357041654.54375) vcan0 18F00121#FFFFD3FF00FFFFFF
(1357041654.54388) vcan0 0CF00203#CC0000FFF00000FF
(1357041654.54402) vcan0 18F00E00#FFFFFFFFFFFFFFFF
(1357041654.54414) vcan0 18FD9400#0000FFFFFFFFFFFF
(1357041654.54427) vcan0 0CF00203#CC0000FFF00000FF
(1357041654.54440) vcan0 0CF00203#CC0000FFF00000FF
(1357041654.54454) vcan0 18EF1721#0240000000000000
(1357041654.54467) vcan0 18F00100#FFFFFFFFFFFFFFFF
(1357041654.54479) vcan0 0CF00203#CC0000FFF00000FF
(1357041654.54496) vcan0 18FCF200#FAFFFFFFFFFFFFFF
(1357041654.54509) vcan0 0CF00203#CC0000FFF00000FF
(1357041654.54522) vcan0 18FC9600#1F00FFFFFFFFFFFF
(1357041654.54536) vcan0 18FDC40B#1FFFFFFFFFFFFFFF
(1357041654.54549) vcan0 0CF00203#CC0000FFF00000FF
(1357041654.54562) vcan0 10F03300#D007FFFFFFFFFFFF
(1357041654.54576) vcan0 18FEF100#FF0000FCFF6100C0
(1357041654.54589) vcan0 0CF00203#CC0000FFF00000FF
(1357041654.54602) vcan0 18F00E00#FFFFFFFFFFFFFFFF
(1357041654.54615) vcan0 18F0010B#C0FFD0FFFF0DFF3F
(1357041654.54631) vcan0 0CF00203#CC0000FFF00000FF
(1357041654.54644) vcan0 0CF00203#CC0000FFF00000FF
(1357041654.54658) vcan0 0CF00400#4E7D7D0000000F7D
(1357041654.54671) vcan0 0CF00300#D10000FFFF0F667E
(1357041654.54686) vcan0 0CF00400#4E7D7D0000000F7D
(1357041654.54700) vcan0 0CF00203#CC0000FFF00000FF
(1357041654.54713) vcan0 18FD9400#0000FFFFFFFFFFFF
(1357041654.54726) vcan0 18F00F00#FFFFFFFFC09FFFFF
(1357041654.54739) vcan0 0CF00203#CC0000FFF00000FF
(1357041654.54756) vcan0 18F00E00#FFFFFFFFFFFFFFFF
(1357041654.54769) vcan0 0CF00203#CC0000FFF00000FF
(1357041654.54782) vcan0 0CFDCC21#FFF0FFFFFFFFFFFF
(1357041654.54795) vcan0 18FCDC00#FFFFFFFFFC610000
(1357041654.54808) vcan0 0CF00203#CC0000FFF00000FF
(1357041654.54821) vcan0 18FC9600#1E00FFFFFFFFFFFF
(1357041654.54835) vcan0 18FDC40B#1FFFFFFFFFFFFFFF
(1357041654.54848) vcan0 0CF00203#CC0000FFF00000FF
(1357041654.54861) vcan0 10F03300#D007FFFFFFFFFFFF
(1357041654.54875) vcan0 18FEF021#FFFFFFFFFFFC00FF
(1357041654.54891) vcan0 0CF00203#CC0000FFF00000FF
(1357041654.54904) vcan0 0C010305#FFFF7DFFFFFFFFFF
(1357041654.54918) vcan0 0CF00203#CC0000FFF00000FF
(1357041654.54931) vcan0 18FEDF00#7EA0287D7DFFFFF0
(1357041654.54943) vcan0 18E8FF03#01FFFFFF00E2FE00
(1357041654.54957) vcan0 0CF00203#CC0000FFF00000FF
(1357041654.54970) vcan0 0CF00203#CC0000FFF00000FF
(1357041654.54983) vcan0 0CF00400#4E7D7D0000000F7D
(1357041654.54996) vcan0 0CF00400#4E7D7D0000000F7D
(1357041655.55010) vcan0 0CF00203#CC0000FFF00000FF
(1357041655.55026) vcan0 18FC9600#1F00FFFFFFFFFFFF
(1357041655.55040) vcan0 0CF00203#CC0000FFF00000FF
(1357041655.55053) vcan0 18F00E00#FFFFFFFFFFFFFFFF
(1357041655.55066) vcan0 18F00100#FFFFFFFFFFFFFFFF
(1357041655.55079) vcan0 0CF00400#4E7D7D0000000F7D
(1357041655.55095) vcan0 18FCF200#FAFFFFFFFFFFFFFF
(1357041655.55108) vcan0 0CF00203#CC0000FFF00000FF
(1357041655.55120) vcan0 18FEE000#88D21F006BD21F00
(1357041655.55134) vcan0 10FCFD00#FFFFFFFF392DFFFF
(1357041655.55147) vcan0 0CF00203#CC0000FFF00000FF
(1357041655.55163) vcan0 10F03300#D007FFFFFFFFFFFF
(1357041655.55177) vcan0 0CFD9200#F0FFFFFFFFFFFFFF
(1357041655.55190) vcan0 18FEDF00#7EA0287D7DFFFFF0
(1357041655.55203) vcan0 0C010305#FFFF7DFFFFFFFFFF
(1357041655.55217) vcan0 0CF00400#4E7D7D0000000F7D
(1357041655.55230) vcan0 0CF00C03#FFFF0000FFFFFFFF
(1357041655.55243) vcan0 18FDC40B#1FFFFFFFFFFFFFFF
(1357041655.55257) vcan0 18F0000F#F07D7DF30FFFFF7D
(1357041655.55270) vcan0 0CF00203#CC0000FFF00000FF
(1357041655.55283) vcan0 18FF2921#00000098F800FFFF
(1357041655.55300) vcan0 18FCDC00#FFFFFFFFFC610000
(1357041655.55312) vcan0 18FD9400#0000FFFFFFFFFFFF
(1357041655.55325) vcan0 18F00F00#FFFFFFFFC09FFFFF
(1357041655.55339) vcan0 18FDC40B#1FFFFFFFFFFFFFFF
(1357041655.55352) vcan0 18F00E00#FFFFFFFFFFFFFFFF
(1357041655.55364) vcan0 10F03300#D007FFFFFFFFFFFF
(1357041655.55377) vcan0 18F00F00#FFFFFFFFC09FFFFF
(1357041655.55391) vcan0 0CF00300#D10000FFFF0F667E
(1357041655.55404) vcan0 0C010305#FFFF7DFFFFFFFFFF
(1357041655.55417) vcan0 0CF00400#4E7D7D0000000F7D
(1357041655.55433) vcan0 0CF00C03#FFFF0000FFFFFFFF
(1357041655.55446) vcan0 18FEF200#000000001006FAFF
(1357041655.55459) vcan0 0CF00400#4E7D7D0000000F7D
(1357041655.55473) vcan0 0CF00300#D10000FFFF0F667E
(1357041655.55486) vcan0 18FEF10B#FF0000FFFFFFFFFF
(1357041655.55500) vcan0 0CF00203#CC0000FFF00000FF
(1357041655.55514) vcan0 18FD9400#0000FFFFFFFFFFFF
(1357041655.55527) vcan0 0CF00203#CC0000FFF00000FF
(1357041655.55540) vcan0 18FDC40B#1FFFFFFFFFFFFFFF
(1357041655.55553) vcan0 0C010305#FFFF7DFFFFFFFFFF
(1357041655.55569) vcan0 18F00100#FFFFFFFFFFFFFFFF
(1357041655.55582) vcan0 18FD2000#C025FFFFFFFFFFFF
(1357041655.55596) vcan0 18FCDC00#FFFFFFFFFC610000
(1357041655.55609) vcan0 0CF00203#CC0000FFF00000FF
(1357041655.55622) vcan0 18FC9600#1F00FFFFFFFFFFFF
(1357041655.55635) vcan0 10FCFD00#FFFFFFFF362DFFFF
(1357041655.55649) vcan0 0CF00203#CC0000FFF00000FF
(1357041655.55662) vcan0 18FECA96#00FF00000000FFFF
(1357041655.55675) vcan0 18FEF121#F7FFFFC300FFFFF0
(1357041655.55692) vcan0 0CF00203#CC0000FFF00000FF
(1357041655.55705) vcan0 0C010305#FFFF7DFFFFFFFFFF
(1357041655.55718) vcan0 0CF00203#CC0000FFF00000FF
(1357041655.55731) vcan0 18FECA03#00FF00000000FFFF
(1357041655.55744) vcan0 18FEF700#FFFFFFFFF800FFFF
(1357041655.55757) vcan0 0CF00400#4E7D7D0000000F7D
(1357041655.55771) vcan0 18FEDF00#7EA0287D7DFFFFF0
(1357041655.55784) vcan0 0CFDCC21#FFF0FFFFFFFFFFFF
(1357041655.55797) vcan0 0CF00203#CC0000FFF00000FF
(1357041655.55811) vcan0 10F03300#D007FFFFFFFFFFFF
(1357041655.55827) vcan0 18FC9600#2000FFFFFFFFFFFF
(1357041655.55840) vcan0 0CF00203#CC0000FFF00000FF
(1357041655.55854) vcan0 0C010305#FFFF7DFFFFFFFFFF
(1357041655.55867) vcan0 18F00100#FFFFFFFFFFFFFFFF
(1357041655.55879) vcan0 0CF00400#4E7D7D0000000F7D
(1357041655.55895) vcan0 18FCF200#FAFFFFFFFFFFFFFF
(1357041655.55908) vcan0 0CF00203#CC0000FFF00000FF
(1357041655.55921) vcan0 18FC9600#1E00FFFFFFFFFFFF
(1357041655.55934) vcan0 10FCFD00#FFFFFFFF302DFFFF
(1357041655.55948) vcan0 18EF2117#02000000FFFFDCAD
(1357041655.55964) vcan0 10F03300#D007FFFFFFFFFFFF
(1357041655.55977) vcan0 0CF00203#CC0000FFF00000FF
(1357041655.55991) vcan0 18FDB400#C0251027FFFFFFFF
(1357041656.56004) vcan0 0C010305#FFFF7DFFFFFFFFFF
(1357041656.56017) vcan0 0CF00203#CC0000FFF00000FF
(1357041656.56031) vcan0 0CF00C03#FFFF0000FFFFFFFF
(1357041656.56043) vcan0 18FDC40B#1FFFFFFFFFFFFFFF
(1357041656.56056) vcan0 18FEFC00#FFFFFFFFFFFFFFFF
(1357041656.56070) vcan0 0CF00203#CC0000FFF00000FF
(1357041656.56083) vcan0 18FEF10B#FF0000FFFFFFFFFF
(1357041656.56099) vcan0 18FCDC00#FFFFFFFFFC610000
(1357041656.56113) vcan0 18FD9400#0000FFFFFFFFFFFF
(1357041656.56126) vcan0 18FCC500#F625FFFFFFFFFFFF
(1357041656.56139) vcan0 0CF00203#CC0000FFF00000FF
(1357041656.56153) vcan0 18F00E00#FFFFFFFFFFFFFFFF
(1357041656.56166) vcan0 18F00100#FFFFFFFFFFFFFFFF
(1357041656.56179) vcan0 0CF00400#4E7D7D0000000F7D
(1357041656.56193) vcan0 18FCF200#FAFFFFFFFFFFFFFF
(1357041656.56206) vcan0 0C010305#FFFF7DFFFFFFFFFF
(1357041656.56218) vcan0 18E00021#00FFFFFFFFF0FFFF
(1357041656.56235) vcan0 10FCFD00#FFFFFFFF302DFFFF
(1357041656.56248) vcan0 0CF00203#CC0000FFF00000FF
(1357041656.56261) vcan0 10F03300#D007FFFFFFFFFFFF
(1357041656.56274) vcan0 0CF00300#D10000FFFF0F667E
(1357041656.56288) vcan0 0CF00203#CC0000FFF00000FF
(1357041656.56303) vcan0 1CFE9200#FF107FFFFFFF0000
(1357041656.56316) vcan0 18FD9400#0000FFFFFFFFFFFF
(1357041656.56330) vcan0 0CF00C03#FFFF0000FFFFFFFF
(1357041656.56343) vcan0 0CF00203#CC0000FFF00000FF
(1357041656.56356) vcan0 18FEF000#FFFFFF1815FFFFFF
(1357041656.56373) vcan0 0CF00203#CC0000FFF00000FF
(1357041656.56385) vcan0 18FEF10B#FF0000FFFFFFFFFF
(1357041656.56398) vcan0 0CF00400#4E7D7D0000000F7D
(1357041656.56412) vcan0 0CF00300#D10000FFFF0F667E
(1357041656.56425) vcan0 18F0010B#C0FFD0FFFF0DFF3F
(1357041656.56437) vcan0 0CF00203#CC0000FFF00000FF
(1357041656.56451) vcan0 0CF00300#D10000FFFF0F667E
(1357041656.56464) vcan0 10F03300#D007FFFFFFFFFFFF
(1357041656.56477) vcan0 0CF00203#CC0000FFF00000FF
(1357041656.56494) vcan0 0CF00203#CC0000FFF00000FF
(1357041656.56506) vcan0 0CF00A00#00000000FFFFFFFF
(1357041656.56519) vcan0 18D0FF17#00FFFFFFFFFFFFFF
(1357041656.56532) vcan0 10FCFD00#FFFFFFFF2C2DFFFF
(1357041656.56546) vcan0 18FDC40B#1FFFFFFFFFFFFFFF
(1357041656.56558) vcan0 0CF00400#4E7D7D0000000F7D
(1357041656.56571) vcan0 0CF00300#D10000FFFF0F667E
(1357041656.56585) vcan0 18FD2000#C025FFFFFFFFFFFF
(1357041656.56598) vcan0 0CF00400#4E7D7D0000000F7D
(1357041656.56611) vcan0 18FEDF00#7EA0287D7DFFFFF0
(1357041656.56627) vcan0 18FC9600#2000FFFFFFFFFFFF
(1357041656.56640) vcan0 0CF00203#CC0000FFF00000FF
(1357041656.56653) vcan0 0C010305#FFFF7DFFFFFFFFFF
(1357041656.56667) vcan0 0CF00203#CC0000FFF00000FF
(1357041656.56680) vcan0 18F00121#FFFFD3FF00FFFFFF
(1357041656.56693) vcan0 18FCF200#FAFFFFFFFFFFFFFF
(1357041656.56709) vcan0 0CF00A00#00000000FFFFFFFF
(1357041656.56722) vcan0 18FC9600#1E00FFFFFFFFFFFF
(1357041656.56735) vcan0 10FCFD00#FFFFFFFF2C2DFFFF
(1357041656.56749) vcan0 18FDC40B#1FFFFFFFFFFFFFFF
(1357041656.56765) vcan0 10F03300#D007FFFFFFFFFFFF
(1357041656.56778) vcan0 18FEFC21#FFF8FFFFFFFFFFFF
(1357041656.56792) vcan0 18FEDF00#7EA0287D7DFFFFF0
(1357041656.56804) vcan0 0C010305#FFFF7DFFFFFFFFFF
(1357041656.56817) vcan0 0CF00400#4E7D7D0000000F7D
(1357041656.56830) vcan0 18FD7B00#0FFFFE6001003827
(1357041656.56844) vcan0 18FEBF0B#00007D7D7D7DFFFF
(1357041656.56857) vcan0 18F0000F#F07D7DF30FFFFF7D
(1357041656.56870) vcan0 0CF00203#CC0000FFF00000FF
(1357041656.56884) vcan0 18F00121#FFFFD3FF00FFFFFF
(1357041656.56900) vcan0 0CF00203#CC0000FFF00000FF
(1357041656.56913) vcan0 18FD9400#0000FFFFFFFFFFFF
(1357041656.56927) vcan0 18F00F00#FFFFFFFFC09FFFFF
(1357041656.56940) vcan0 18FEBF0B#00007D7D7D7DFFFF
(1357041656.56953) vcan0 18F00E00#FFFFFFFFFFFFFFFF
(1357041656.56966) vcan0 18F00100#FFFFFFFFFFFFFFFF
(1357041656.56979) vcan0 18F00121#FFFFD3FF00FFFFFF
(1357041656.56992) vcan0 10FDA300#FFFF3FFFFFFFFFFF
(1357041657.57006) vcan0 0CF00A00#00000000FFFFFFFF
(1357041657.57019) vcan0 0CF00400#4E7D7D0000000F7D
(1357041657.57035) vcan0 10FCFD00#FFFFFFFF262DFFFF
(1357041657.57049) vcan0 18FDC40B#1FFFFFFFFFFFFFFF
(1357041657.57062) vcan0 10F03300#D007FFFFFFFFFFFF
(1357041657.57075) vcan0 0CF00300#D10000FFFF0F667E
(1357041657.57089) vcan0 0CF00203#CC0000FFF00000FF
(1357041657.57104) vcan0 1885FF00#FFFFFFFF26D4FFFF
(1357041657.57116) vcan0 0CF00203#CC0000FFF00000FF
(1357041657.57129) vcan0 0CF00C03#FFFF0000FFFFFFFF
(1357041657.57143) vcan0 18FEBF0B#00007D7D7D7DFFFF
(1357041657.57156) vcan0 18FEF000#FFFFFF1815FFFFFF
(1357041657.57172) vcan0 0CF00203#CC0000FFF00000FF
(1357041657.57186) vcan0 18F00121#FFFFD3FF00FFFFFF
(1357041657.57199) vcan0 0CF00400#4E7D7D0000000F7D
(1357041657.57212) vcan0 18FD9400#0000FFFFFFFFFFFF
(1357041657.57226) vcan0 18FC9600#1F00FFFFFFFFFFFF
(1357041657.57239) vcan0 0CF00400#4E7D7D0000000F7D
(1357041657.57252) vcan0 18F00E00#FFFFFFFFFFFFFFFF
(1357041657.57266) vcan0 10F03300#D007FFFFFFFFFFFF
(1357041657.57278) vcan0 18FEF121#F7FFFFC300FFFFF0
(1357041657.57291) vcan0 0CF00300#D10000FFFF0F667E
(1357041657.57308) vcan0 0C010305#FFFF7DFFFFFFFFFF
(1357041657.57321) vcan0 18FC9600#2000FFFFFFFFFFFF
(1357041657.57334) vcan0 10FCFD00#FFFFFFFF232DFFFF
(1357041657.57348) vcan0 0CF00203#CC0000FFF00000FF
(1357041657.57361) vcan0 10F03300#D007FFFFFFFFFFFF
(1357041657.57374) vcan0 0CF00300#D10000FFFF0F667E
(1357041657.57388) vcan0 0CF00203#CC0000FFF00000FF
(1357041657.57401) vcan0 0CF00400#4E7D7D0000000F7D
(1357041657.57414) vcan0 18FD9400#0000FFFFFFFFFFFF
(1357041657.57431) vcan0 0CF00203#CC0000FFF00000FF
(1357041657.57443) vcan0 18FEBF0B#00007D7D7D7DFFFF
(1357041657.57456) vcan0 18FEF000#FFFFFF1815FFFFFF
(1357041657.57469) vcan0 0CF00203#CC0000FFF00000FF
(1357041657.57483) vcan0 18F00121#FFFFD3FF00FFFFFF
(1357041657.57495) vcan0 18FCDC00#FFFFFFFFFC610000
(1357041657.57510) vcan0 0CF00203#CC0000FFF00000FF
(1357041657.57524) vcan0 18FC9600#1F00FFFFFFFFFFFF
(1357041657.57537) vcan0 0CF00203#CC0000FFF00000FF
(1357041657.57550) vcan0 0CF00203#CC0000FFF00000FF
(1357041657.57566) vcan0 10F03300#D007FFFFFFFFFFFF
(1357041657.57579) vcan0 18FEF021#FFFFFFFFFFFC00FF
(1357041657.57592) vcan0 18FCF200#FAFFFFFFFFFFFFFF
(1357041657.57606) vcan0 0C010305#FFFF7DFFFFFFFFFF
(1357041657.57618) vcan0 0CF00400#4E7D7D0000000F7D
(1357041657.57631) vcan0 0CF00300#D10000FFFF0F667E
(1357041657.57645) vcan0 18FEBF0B#00007D7D7D7DFFFF
(1357041657.57658) vcan0 18F0000F#F07D7DF30FFFFF7D
(1357041657.57670) vcan0 18FEDF00#7EA0287D7DFFFFF0
(1357041657.57683) vcan0 18F00121#FFFFD3FF00FFFFFF
(1357041657.57700) vcan0 0CF00203#CC0000FFF00000FF
(1357041657.57713) vcan0 18FD9400#0000FFFFFFFFFFFF
(1357041657.57726) vcan0 0CF00203#CC0000FFF00000FF
(1357041657.57740) vcan0 0CF00400#4E7D7D0000000F7D
(1357041657.57753) vcan0 18F00E00#FFFFFFFFFFFFFFFF
(1357041657.57766) vcan0 18F00100#FFFFFFFFFFFFFFFF
(1357041657.57780) vcan0 18FEF721#FFFFFFFFFF00F900
(1357041657.57793) vcan0 10FDA300#FFFF3FFFFFFFFFFF
(1357041657.57805) vcan0 18FD9B00#FF00FFFFFFF0FFFF
(1357041657.57819) vcan0 0CF00400#4E7D7D0000000F7D
(1357041657.57835) vcan0 0CF00300#D10000FFFF0F667E
(1357041657.57848) vcan0 1CEBFF00#021CBD401FC9E02E
(1357041657.57862) vcan0 10F03300#D007FFFFFFFFFFFF
(1357041657.57875) vcan0 0CF00300#D10000FFFF0F667E
(1357041657.57888) vcan0 0CF00203#CC0000FFF00000FF
(1357041657.57902) vcan0 18F00E00#FFFFFFFFFFFFFFFF
(1357041657.57917) vcan0 18FD9400#0000FFFFFFFFFFFF
(1357041657.57930) vcan0 0CF00C03#FFFF0000FFFFFFFF
(1357041657.57944) vcan0 18E8FF03#01FFFFFF00E2FE00
(1357041657.57957) vcan0 18FEF000#FFFFFF1815FFFFFF
(1357041657.57973) vcan0 0CF00203#CC0000FFF00000FF
(1357041657.57986) vcan0 18F00121#FFFFD3FF00FFFFFF
(1357041657.57999) vcan0 0CF00400#4E7D7D0000000F7D
(1357041658.58012) vcan0 18FD9400#0000FFFFFFFFFFFF
(1357041658.58025) vcan0 18F00F00#FFFFFFFFC09FFFFF
(1357041658.58039) vcan0 0CF00400#4E7D7D0000000F7D
(1357041658.58052) vcan0 18F00E00#FFFFFFFFFFFFFFFF
(1357041658.58065) vcan0 10F03300#D007FFFFFFFFFFFF
(1357041658.58079) vcan0 0CF00400#4E7D7D0000000F7D
(1357041658.58092) vcan0 10FDA300#FFFF3FFFFFFFFFFF
(1357041658.58108) vcan0 0C010305#FFFF7DFFFFFFFFFF
(1357041658.58122) vcan0 18FEE000#88D21F006BD21F00
(1357041658.58134) vcan0 10FCFD00#FFFFFFFF192DFFFF
(1357041658.58147) vcan0 18FECA00#43FF9A0C0A01FFFF
(1357041658.58161) vcan0 10F03300#D007FFFFFFFFFFFF
(1357041658.58174) vcan0 18FEEF00#FFFFFF00007DFFFA
(1357041658.58187) vcan0 0CF00203#CC0000FFF00000FF
(1357041658.58201) vcan0 0CF00400#4E7D7D0000000F7D
(1357041658.58214) vcan0 1CECFF0F#20130003FFE1FE00
(1357041658.58230) vcan0 0CF00203#CC0000FFF00000FF
(1357041658.58244) vcan0 18FC2A00#0000FB0000FB00FB
(1357041658.58257) vcan0 18FEF000#FFFFFF1815FFFFFF
(1357041658.58270) vcan0 0CF00203#CC0000FFF00000FF
(1357041658.58283) vcan0 18FF2921#00000098F800FFFF
(1357041658.58296) vcan0 18FCDC00#FFFFFFFFFC610000
(1357041658.58311) vcan0 0CF00203#CC0000FFF00000FF
(1357041658.58324) vcan0 18FC9600#2000FFFFFFFFFFFF
(1357041658.58338) vcan0 0CF00400#4E7D7D0000000F7D
(1357041658.58351) vcan0 18FEDF00#7EA0287D7DFFFFF0
(1357041658.58368) vcan0 10F03300#D007FFFFFFFFFFFF
(1357041658.58381) vcan0 18F00121#FFFFD3FF00FFFFFF
(1357041658.58394) vcan0 18FCF200#FAFFFFFFFFFFFFFF
(1357041658.58407) vcan0 0CF00203#CC0000FFF00000FF
(1357041658.58421) vcan0 18EA0017#DCFE00
(1357041658.58433) vcan0 10FCFD00#FFFFFFFF192DFFFF
(1357041658.58446) vcan0 18FEF200#000000001006FAFF
(1357041658.58460) vcan0 18FDC40B#1FFFFFFFFFFFFFFF
(1357041658.58473) vcan0 0CF00300#D10000FFFF0F667E
(1357041658.58486) vcan0 18F00121#FFFFD3FF00FFFFFF
(1357041658.58503) vcan0 18FEF10B#FF0000FFFFFFFFFF
(1357041658.58515) vcan0 18FD9400#0000FFFFFFFFFFFF
(1357041658.58528) vcan0 18FE4A03#FFDDFF7DFFF3FFFF
(1357041658.58542) vcan0 18FDB200#FFFFFFFF0000FFFF
(1357041658.58555) vcan0 0C010305#FFFF7DFFFFFFFFFF
(1357041658.58567) vcan0 0CF00203#CC0000FFF00000FF
(1357041658.58580) vcan0 18FEF021#FFFFFFFFFFFC00FF
(1357041658.58594) vcan0 18FCF200#FAFFFFFFFFFFFFFF
(1357041658.58607) vcan0 0CF00203#CC0000FFF00000FF
(1357041658.58619) vcan0 0CF00400#4E7D7D0000000F7D
(1357041658.58636) vcan0 10FCFD00#FFFFFFFF162DFFFF
(1357041658.58649) vcan0 18FEBF0B#00007D7D7D7DFFFF
(1357041658.58662) vcan0 10F03300#D007FFFFFFFFFFFF
(1357041658.58676) vcan0 18FEEF00#FFFFFF00007DFFFA
(1357041658.58688) vcan0 0CF00203#CC0000FFF00000FF
(1357041658.58701) vcan0 18F00E00#FFFFFFFFFFFFFFFF
(1357041658.58717) vcan0 18FD9400#0000FFFFFFFFFFFF
(1357041658.58730) vcan0 18FECA03#00FF00000000FFFF
(1357041658.58742) vcan0 18FEF700#FFFFFFFFF800FFFF
(1357041658.58756) vcan0 0CF00A00#00000000FFFFFFFF
(1357041658.58772) vcan0 0CF00203#CC0000FFF00000FF
(1357041658.58785) vcan0 0CFDCC21#FFF0FFFFFFFFFFFF
(1357041658.58799) vcan0 0CF00400#4E7D7D0000000F7D
(1357041658.58812) vcan0 18FEDF00#7EA0287D7DFFFFF0
(1357041658.58825) vcan0 18FC9600#1F00FFFFFFFFFFFF
(1357041658.58839) vcan0 0CF00400#4E7D7D0000000F7D
(1357041658.58852) vcan0 0CF00300#D10000FFFF0F667E
(1357041658.58864) vcan0 10F03300#D007FFFFFFFFFFFF
(1357041658.58877) vcan0 18F00F00#FFFFFFFFC09FFFFF
(1357041658.58891) vcan0 18FEDF00#7EA0287D7DFFFFF0
(1357041658.58907) vcan0 0C010305#FFFF7DFFFFFFFFFF
(1357041658.58920) vcan0 0CF00400#4E7D7D0000000F7D
(1357041658.58934) vcan0 10FCFD00#FFFFFFFF162DFFFF
(1357041658.58947) vcan0 0CF00203#CC0000FFF00000FF
(1357041658.58960) vcan0 0CF00400#4E7D7D0000000F7D
(1357041658.58974) vcan0 0CF00300#D10000FFFF0F667E
(1357041658.58987) vcan0 0CF00203#CC0000FFF00000FF
(1357041659.59000) vcan0 0CF00400#4E7D7D0000000F7D
(1357041659.59014) vcan0 18FE9A00#F424FFFFFFFFFFFF
(1357041659.59026) vcan0 0CF00203#CC0000FFF00000FF
(1357041659.59042) vcan0 0CF00400#4E7D7D0000000F7D
(1357041659.59056) vcan0 0CF00A00#00000000FFFFFFFF
(1357041659.59069) vcan0 0CF00203#CC0000FFF00000FF
(1357041659.59082) vcan0 18F00121#FFFFD3FF00FFFFFF
(1357041659.59096) vcan0 18FCF200#FAFFFFFFFFFFFFFF
(1357041659.59109) vcan0 0CF00A00#00000000FFFFFFFF
(1357041659.59124) vcan0 18FC9600#1F00FFFFFFFFFFFF
(1357041659.59138) vcan0 0CF00400#4E7D7D0000000F7D
(1357041659.59151) vcan0 18FECA00#43FF9A0C0A01FFFF
(1357041659.59164) vcan0 18FDC40B#1FFFFFFFFFFFFFFF
(1357041659.59181) vcan0 0CFD9200#F0FFFFFFFFFFFFFF
(1357041659.59193) vcan0 18FCF200#FAFFFFFFFFFFFFFF
(1357041659.59206) vcan0 0CF00203#CC0000FFF00000FF
(1357041659.59219) vcan0 0CF00400#4E7D7D0000000F7D
(1357041659.59233) vcan0 10FCFD00#FFFFFFFF102DFFFF
(1357041659.59246) vcan0 18FEF200#000000001006FAFF
(1357041659.59259) vcan0 0CF00400#4E7D7D0000000F7D
(1357041659.59273) vcan0 0CF00300#D10000FFFF0F667E
(1357041659.59286) vcan0 18FF2921#00000098F800FFFF
(1357041659.59302) vcan0 0CF00400#4E7D7D0000000F7D
(1357041659.59316) vcan0 18FD9400#0000FFFFFFFFFFFF
(1357041659.59328) vcan0 18FE4A03#FFDDFF7DFFF3FFFF
(1357041659.59341) vcan0 0CF00400#4E7D7D0000000F7D
(1357041659.59355) vcan0 0C010305#FFFF7DFFFFFFFFFF
(1357041659.59368) vcan0 0CF00203#CC0000FFF00000FF
(1357041659.59381) vcan0 1CFEC20F#FFD081FFFFFFFFFF
(1357041659.59395) vcan0 18FCF200#FAFFFFFFFFFFFFFF
(1357041659.59408) vcan0 0CF00203#CC0000FFF00000FF
(1357041659.59421) vcan0 18FEE000#88D21F006BD21F00
(1357041659.59438) vcan0 10FCFD00#FFFFFFFF102DFFFF
(1357041659.59451) vcan0 18EF2117#02000000FFFFDCAD
(1357041659.59464) vcan0 18FDC40B#1FFFFFFFFFFFFFFF
(1357041659.59478) vcan0 18F00F00#FFFFFFFFC09FFFFF
(1357041659.59491) vcan0 0CF00203#CC0000FFF00000FF
(1357041659.59503) vcan0 0C010305#FFFF7DFFFFFFFFFF
(1357041659.59518) vcan0 0CF00203#CC0000FFF00000FF
(1357041659.59532) vcan0 0CF00300#D10000FFFF0F667E
(1357041659.59545) vcan0 18F0010B#C0FFD0FFFF0DFF3F
(1357041659.59558) vcan0 0CF00400#4E7D7D0000000F7D
(1357041659.59575) vcan0 0CF00300#D10000FFFF0F667E
(1357041659.59588) vcan0 0CF00203#CC0000FFF00000FF
(1357041659.59601) vcan0 1CFE9200#FFD87EFFFFFF0000
(1357041659.59614) vcan0 18FD9400#0000FFFFFFFFFFFF
(1357041659.59627) vcan0 18F00F00#FFFFFFFFC09FFFFF
(1357041659.59640) vcan0 0CF00400#4E7D7D0000000F7D
(1357041659.59654) vcan0 0C010305#FFFF7DFFFFFFFFFF
(1357041659.59666) vcan0 0CF00203#CC0000FFF00000FF
(1357041659.59679) vcan0 0CF00400#4E7D7D0000000F7D
(1357041659.59693) vcan0 18FCF200#FAFFFFFFFFFFFFFF
(1357041659.59709) vcan0 18FEF10B#FF0000FFFFFFFFFF
(1357041659.59722) vcan0 18FC9600#2100FFFFFFFFFFFF
(1357041659.59735) vcan0 10FCFD00#FFFFFFFF0C2DFFFF
(1357041659.59748) vcan0 18FEF200#000000001006FAFF
(1357041659.59761) vcan0 18FEC100#7D8C1B034F8F1B03
(1357041659.59774) vcan0 0CF00300#D10000FFFF0F667E
(1357041659.59787) vcan0 18FF2921#00000098F800FFFF
(1357041659.59800) vcan0 0CF00400#4E7D7D0000000F7D
(1357041659.59813) vcan0 18FD9400#0000FFFFFFFFFFFF
(1357041659.59827) vcan0 0CF00203#CC0000FFF00000FF
(1357041659.59843) vcan0 0CF00400#4E7D7D0000000F7D
(1357041659.59855) vcan0 0CF00A00#00000000FFFFFFFF
(1357041659.59869) vcan0 18FDC40B#1FFFFFFFFFFFFFFF
(1357041659.59882) vcan0 18FEF121#F7FFFFC300FFFFF0
(1357041659.59895) vcan0 18FCF200#FAFFFFFFFFFFFFFF
(1357041659.59909) vcan0 18FEF10B#FF0000FFFFFFFFFF
(1357041659.59924) vcan0 18FC9600#2000FFFFFFFFFFFF
(1357041659.59937) vcan0 0CF00400#4E7D7D0000000F7D
(1357041659.59951) vcan0 18F0010B#C0FFD0FFFF0DFF3F
(1357041659.59964) vcan0 18EF1721#0240000000000000
(1357041659.59980) vcan0 0CF00203#CC0000FFF00000FF
(1357041659.59994) vcan0 18FCF200#FAFFFFFFFFFFFFFF
(1357041660.60007) vcan0 0CF00203#CC0000FFF00000FF
(1357041660.60019) vcan0 0CF00400#4E7D7D0000000F7D
(1357041660.60033) vcan0 10FCFD00#FFFFFFFF0C2DFFFF
(1357041660.60046) vcan0 18FEF200#000000001006FAFF
(1357041660.60059) vcan0 18FEBF0B#00007D7D7D7DFFFF
(1357041660.60072) vcan0 0CF00300#D10000FFFF0F667E
(1357041660.60086) vcan0 18F00121#FFFFD3FF00FFFFFF
(1357041660.60099) vcan0 0CF00400#4E7D7D0000000F7D
(1357041660.60110) vcan0 0CF00300#D10000FFFF0F667E
(1357041660.60123) vcan0 18FC9600#1F00FFFFFFFFFFFF
(1357041660.60136) vcan0 0CF00203#CC0000FFF00000FF
(1357041660.60149) vcan0 18F0010B#C0FFD0FFFF0DFF3F
(1357041660.60163) vcan0 10F03300#D007FFFFFFFFFFFF
(1357041660.60176) vcan0 18FEF100#FF0000FCFF6100C0
(1357041660.60189) vcan0 0CF00203#CC0000FFF00000FF
(1357041660.60203) vcan0 18F00E00#FFFFFFFFFFFFFFFF
(1357041660.60216) vcan0 18FD9400#0000FFFFFFFFFFFF
(1357041660.60232) vcan0 0CF00C03#FFFF0000FFFFFFFF
(1357041660.60246) vcan0 0CF00400#4E7D7D0000000F7D
(1357041660.60259) vcan0 0CF00400#4E7D7D0000000F7D
(1357041660.60271) vcan0 0CF00300#D10000FFFF0F667E
(1357041660.60284) vcan0 18FF2921#00000098F800FFFF
(1357041660.60298) vcan0 0CF00400#4E7D7D0000000F7D
(1357041660.60311) vcan0 10F03300#D007FFFFFFFFFFFF
(1357041660.60326) vcan0 18FC9600#1F00FFFFFFFFFFFF
(1357041660.60340) vcan0 0CF00400#4E7D7D0000000F7D
(1357041660.60353) vcan0 18F00E00#FFFFFFFFFFFFFFFF
(1357041660.60369) vcan0 18F00100#FFFFFFFFFFFFFFFF
(1357041660.60383) vcan0 1CFEC20F#FFD081FFFFFFFFFF
(1357041660.60396) vcan0 18FCF200#FAFFFFFFFFFFFFFF
(1357041660.60409) vcan0 0CF00203#CC0000FFF00000FF
(1357041660.60423) vcan0 18FC9600#1F00FFFFFFFFFFFF
(1357041660.60435) vcan0 10FCFD00#FFFFFFFF062DFFFF
(1357041660.60448) vcan0 18FEF200#000000001006FAFF
(1357041660.60462) vcan0 10F03300#D007FFFFFFFFFFFF
(1357041660.60475) vcan0 0CF00300#D10000FFFF0F667E
(1357041660.60488) vcan0 0CF00203#CC0000FFF00000FF
(1357041660.60505) vcan0 1CFE9200#FFFC7EFFFFFF0000
(1357041660.60518) vcan0 0CF00400#4E7D7D0000000F7D
(1357041660.60531) vcan0 18FEDF00#7EA0287D7DFFFFF0
(1357041660.60545) vcan0 18FDB200#FFFFFFFF0000FFFF
(1357041660.60558) vcan0 18FEF000#FFFFFF1815FFFFFF
(1357041660.60571) vcan0 0CF00203#CC0000FFF00000FF
(1357041660.60584) vcan0 18F00121#FFFFD3FF00FFFFFF
(1357041660.60598) vcan0 0CF00400#4E7D7D0000000F7D
(1357041660.60610) vcan0 0CF00A00#00000000FFFFFFFF
(1357041660.60623) vcan0 18FC9600#1F00FFFFFFFFFFFF
(1357041660.60640) vcan0 0CF00203#CC0000FFF00000FF
(1357041660.60653) vcan0 18F00E00#FFFFFFFFFFFFFFFF
(1357041660.60666) vcan0 18F00100#FFFFFFFFFFFFFFFF
(1357041660.60680) vcan0 0CF00400#4E7D7D0000000F7D
(1357041660.60692) vcan0 10FDA300#FFFF3FFFFFFFFFFF
(1357041660.60705) vcan0 0C010305#FFFF7DFFFFFFFFFF
(1357041660.60719) vcan0 0CF00400#4E7D7D0000000F7D
(1357041660.60734) vcan0 0CF00300#D10000FFFF0F667E
(1357041660.60746) vcan0 18FEF200#000000001006FAFF
(1357041660.60760) vcan0 0CF00400#4E7D7D0000000F7D
(1357041660.60776) vcan0 18FDC40B#1FFFFFFFFFFFFFFF
(1357041660.60789) vcan0 0CFDCC21#FFF0FFFFFFFFFFFF
(1357041660.60802) vcan0 18F00E00#FFFFFFFFFFFFFFFF
(1357041660.60815) vcan0 18FEF10B#FF0000FFFFFFFFFF
(1357041660.60828) vcan0 18FE4A03#FFDDFF7DFFF3FFFF
(1357041660.60841) vcan0 0CF00400#4E7D7D0000000F7D
(1357041660.60855) vcan0 0C010305#FFFF7DFFFFFFFFFF
(1357041660.60867) vcan0 0CF00203#CC0000FFF00000FF
(1357041660.60880) vcan0 0CF00400#4E7D7D0000000F7D
(1357041660.60894) vcan0 18FCF200#FAFFFFFFFFFFFFFF
(1357041660.60910) vcan0 0CF00203#CC0000FFF00000FF
(1357041660.60923) vcan0 18E0FF00#00FFFFFFFFFFFFFF
(1357041660.60937) vcan0 0CF00203#CC0000FFF00000FF
(1357041660.60950) vcan0 0CF00203#CC0000FFF00000FF
(1357041660.60962) vcan0 10F03300#D007FFFFFFFFFFFF
(1357041660.60976) vcan0 0CF00203#CC0000FFF00000FF
(1357041660.60989) vcan0 0CF00203#CC0000FFF00000FF
(1357041661.61002) vcan0 18F00E00#FFFFFFFFFFFFFFFF
(1357041661.61016) vcan0 18FEF10B#FF0000FFFFFFFFFF
(1357041661.61032) vcan0 0CF00C03#FFFF0000FFFFFFFF
(1357041661.61045) vcan0 18FDB200#FFFFFFFF0000FFFF
(1357041661.61059) vcan0 18F0000F#F07D7DF30FFFFF7D
(1357041661.61072) vcan0 0CF00300#D10000FFFF0F667E
(1357041661.61085) vcan0 18F00121#FFFFD3FF00FFFFFF
(1357041661.61099) vcan0 0CF00400#4E7D7D0000000F7D
(1357041661.61112) vcan0 10F03300#D007FFFFFFFFFFFF
(1357041661.61124) vcan0 18FC9600#1F00FFFFFFFFFFFF
(1357041661.61139) vcan0 0CF00400#4E7D7D0000000F7D
(1357041661.61153) vcan0 18F00E00#FFFFFFFFFFFFFFFF
(1357041661.61169) vcan0 18F00100#FFFFFFFFFFFFFFFF
(1357041661.61182) vcan0 0CF00400#4E7D7D0000000F7D
(1357041661.61196) vcan0 0CF00203#CC0000FFF00000FF
(1357041661.61209) vcan0 0CF00A00#00000000FFFFFFFF
(1357041661.61222) vcan0 18FC9600#1F00FFFFFFFFFFFF
(1357041661.61236) vcan0 10FCFD00#FFFFFFFFFC2CFFFF
(1357041661.61249) vcan0 18FEF200#000000001006FAFF
(1357041661.61262) vcan0 10F03300#D007FFFFFFFFFFFF
(1357041661.61275) vcan0 0CF00300#D10000FFFF0F667E
(1357041661.61288) vcan0 0CF00203#CC0000FFF00000FF
(1357041661.61304) vcan0 1CFE9200#FFE07EFFFFFF0000
(1357041661.61318) vcan0 0CF00400#4E7D7D0000000F7D
(1357041661.61331) vcan0 18FEDF00#7EA0287D7DFFFFF0
(1357041661.61344) vcan0 0CF00400#4E7D7D0000000F7D
(1357041661.61358) vcan0 18F0010B#C0FFD0FFFF0DFF3F
(1357041661.61371) vcan0 18FEBF0B#00007D7D7D7DFFFF
(1357041661.61384) vcan0 1CFEC20F#FFD081FFFFFFFFFF
(1357041661.61398) vcan0 18FCDC00#FFFFFFFFFC610000
(1357041661.61410) vcan0 0CF00A00#00000000FFFFFFFF
(1357041661.61423) vcan0 18EA0017#DCFE00
(1357041661.61440) vcan0 0CF00203#CC0000FFF00000FF
(1357041661.61453) vcan0 18F00E00#FFFFFFFFFFFFFFFF
(1357041661.61466) vcan0 18EF1721#0240000000000000
(1357041661.61478) vcan0 0CF00400#4E7D7D0000000F7D
(1357041661.61492) vcan0 18FEDF00#7EA0287D7DFFFFF0
(1357041661.61505) vcan0 0C010305#FFFF7DFFFFFFFFFF
(1357041661.61518) vcan0 0CF00400#4E7D7D0000000F7D
(1357041661.61534) vcan0 0CF00300#D10000FFFF0F667E
(1357041661.61547) vcan0 18FEF200#000000001006FAFF
(1357041661.61560) vcan0 0CF00400#4E7D7D0000000F7D
(1357041661.61577) vcan0 0CF00300#D10000FFFF0F667E
(1357041661.61590) vcan0 0CF00203#CC0000FFF00000FF
(1357041661.61603) vcan0 18F00E00#FFFFFFFFFFFFFFFF
(1357041661.61617) vcan0 0CF00203#CC0000FFF00000FF
(1357041661.61630) vcan0 0CF00C03#FFFF0000FFFFFFFF
(1357041661.61642) vcan0 0CF00400#4E7D7D0000000F7D
(1357041661.61656) vcan0 0CF00203#CC0000FFF00000FF
(1357041661.61669) vcan0 18FEBF0B#00007D7D7D7DFFFF
(1357041661.61682) vcan0 18FDC40B#1FFFFFFFFFFFFFFF
(1357041661.61696) vcan0 18FCF200#FAFFFFFFFFFFFFFF
(1357041661.61712) vcan0 0CF00A00#00000000FFFFFFFF
(1357041661.61725) vcan0 18FC9600#1F00FFFFFFFFFFFF
(1357041661.61737) vcan0 0CF00400#4E7D7D0000000F7D
(1357041661.61751) vcan0 18FEDF00#7EA0287D7DFFFFF0
(1357041661.61764) vcan0 10F03300#D007FFFFFFFFFFFF
(1357041661.61777) vcan0 18F00F00#FFFFFFFFC09FFFFF
(1357041661.61791) vcan0 18FF2921#00000098F800FFFF
(1357041661.61803) vcan0 0C010305#FFFF7DFFFFFFFFFF
(1357041661.61816) vcan0 0CF00203#CC0000FFF00000FF
(1357041661.61830) vcan0 0CF00C03#FFFF0000FFFFFFFF
(1357041661.61846) vcan0 0CF00400#4E7D7D0000000F7D
(1357041661.61858) vcan0 0CF00400#4E7D7D0000000F7D
(1357041661.61872) vcan0 0CF00300#D10000FFFF0F667E
(1357041661.61885) vcan0 18FEF121#F7FFFFC300FFFFF0
(1357041661.61898) vcan0 0CF00400#4E7D7D0000000F7D
(1357041661.61911) vcan0 10F03300#D007FFFFFFFFFFFF
(1357041661.61924) vcan0 18E0FF00#00FFFFFFFFFFFFFF
(1357041661.61939) vcan0 0CF00203#CC0000FFF00000FF
(1357041661.61953) vcan0 18F00E00#FFFFFFFFFFFFFFFF
(1357041661.61966) vcan0 18EF1721#0240000000000000
(1357041661.61981) vcan0 0CF00400#4E7D7D0000000F7D
(1357041661.61995) vcan0 18FCF200#FAFFFFFFFFFFFFFF
(1357041662.62008) vcan0 0CF00A00#00000000FFFFFFFF
(1357041662.62021) vcan0 18FEF10B#FF0000FFFFFFFFFF
(1357041662.62034) vcan0 18FF2617#00000100FE03A503
(1357041662.62048) vcan0 18FEF200#000000001006FAFF
(1357041662.62061) vcan0 18F0010B#C0FFD0FFFF0DFF3F
(1357041662.62074) vcan0 0CF00300#D10000FFFF0F667E
(1357041662.62088) vcan0 18F00121#FFFFD3FF00FFFFFF
(1357041662.62104) vcan0 0CF00400#4E7D7D0000000F7D
(1357041662.62117) vcan0 0CF00203#CC0000FFF00000FF
(1357041662.62130) vcan0 0CF00C03#FFFF0000FFFFFFFF
(1357041662.62143) vcan0 0CF00400#4E7D7D0000000F7D
(1357041662.62156) vcan0 0CF00A00#00000000FFFFFFFF
(1357041662.62170) vcan0 18FC2B00#FFFF9C68FFFFFFFF
(1357041662.62183) vcan0 18FDC40B#1FFFFFFFFFFFFFFF
(1357041662.62196) vcan0 0CF00203#CC0000FFF00000FF
(1357041662.62210) vcan0 0CF00A00#00000000FFFFFFFF
(1357041662.62223) vcan0 18FC9600#1F00FFFFFFFFFFFF
(1357041662.62239) vcan0 0CF00203#CC0000FFF00000FF
(1357041662.62253) vcan0 0CF00300#D10000FFFF0F667E
(1357041662.62266) vcan0 18F0010B#C0FFD0FFFF0DFF3F
(1357041662.62278) vcan0 0CF00400#4E7D7D0000000F7D
(1357041662.62291) vcan0 0CF00300#D10000FFFF0F667E
(1357041662.62305) vcan0 0C010305#FFFF7DFFFFFFFFFF
(1357041662.62318) vcan0 0CF00400#4E7D7D0000000F7D
(1357041662.62331) vcan0 18FEDF00#7EA0287D7DFFFFF0
(1357041662.62347) vcan0 0CF00400#4E7D7D0000000F7D
(1357041662.62360) vcan0 0CF00400#4E7D7D0000000F7D
(1357041662.62376) vcan0 18FEBF0B#00007D7D7D7DFFFF
(1357041662.62390) vcan0 18F00121#FFFFD3FF00FFFFFF
(1357041662.62403) vcan0 18F00E00#FFFFFFFFFFFFFFFF
(1357041662.62416) vcan0 0CF00203#CC0000FFF00000FF
(1357041662.62429) vcan0 18FE4A03#FFDDFF7DFFF3FFFF
(1357041662.62442) vcan0 0CF00400#4E7D7D0000000F7D
(1357041662.62455) vcan0 0C010305#FFFF7DFFFFFFFFFF
(1357041662.62469) vcan0 18F00100#FFFFFFFFFFFFFFFF
(1357041662.62482) vcan0 0CF00400#4E7D7D0000000F7D
(1357041662.62495) vcan0 18FCF200#FAFFFFFFFFFFFFFF
(1357041662.62512) vcan0 0CF00A00#00000000FFFFFFFF
(1357041662.62525) vcan0 18FEF10B#FF0000FFFFFFFFFF
(1357041662.62538) vcan0 0CF00400#4E7D7D0000000F7D
(1357041662.62552) vcan0 18FEDF00#7EA0287D7DFFFFF0
(1357041662.62565) vcan0 18F0010B#C0FFD0FFFF0DFF3F
(1357041662.62577) vcan0 0CF00400#4E7D7D0000000F7D
(1357041662.62590) vcan0 18F00121#FFFFD3FF00FFFFFF
(1357041662.62604) vcan0 0C010305#FFFF7DFFFFFFFFFF
(1357041662.62617) vcan0 0CF00203#CC0000FFF00000FF
(1357041662.62630) vcan0 0CF00C03#FFFF0000FFFFFFFF
(1357041662.62647) vcan0 0CF00400#4E7D7D0000000F7D
(1357041662.62660) vcan0 0CF00400#4E7D7D0000000F7D
(1357041662.62673) vcan0 18FEEF00#FFFFFF00FF7CFFFA
(1357041662.62687) vcan0 18FEF121#F7FFFFC300FFFFF0
(1357041662.62700) vcan0 0CF00400#4E7D7D0000000F7D
(1357041662.62713) vcan0 18FD9400#0000FFFFFFFFFFFF
(1357041662.62727) vcan0 0CF00203#CC0000FFF00000FF
(1357041662.62755) vcan0 0CF00400#4E7D7D0000000F7D
(1357041662.62813) vcan0 18F00100#FFFFFFFFFFFFFFFF
(1357041662.62826) vcan0 18FEF10B#FF0000FFFFFFFFFF
(1357041662.62842) vcan0 0CF00400#4E7D7D0000000F7D
(1357041662.62856) vcan0 0C010305#FFFF7DFFFFFFFFFF
(1357041662.62868) vcan0 18F00100#FFFFFFFFFFFFFFFF
(1357041662.62881) vcan0 0CF00400#4E7D7D0000000F7D
(1357041662.62895) vcan0 18FCF200#FAFFFFFFFFFFFFFF
(1357041662.62908) vcan0 0CF00A00#00000000FFFFFFFF
(1357041662.62920) vcan0 0CF00400#4E7D7D0000000F7D
(1357041662.62934) vcan0 10FCFD00#FFFFFFFFF32CFFFF
(1357041662.62947) vcan0 18FEF200#000000001006FAFF
(1357041662.62972) vcan0 1CEBFF00#04204E3C3CB37DC9
(1357041662.62985) vcan0 0CF00400#4E7D7D0000000F7D
(1357041662.62998) vcan0 0CF00400#4E7D7D0000000F7D
(1357041663.63011) vcan0 10F03300#D007FFFFFFFFFFFF
(1357041663.63025) vcan0 18FC9600#2000FFFFFFFFFFFF
(1357041663.63038) vcan0 0CF00400#4E7D7D0000000F7D
(1357041663.63050) vcan0 18FEF200#000000001006FAFF
(1357041663.63064) vcan0 10F03300#D007FFFFFFFFFFFF
(1357041663.63077) vcan0 18FEF100#FF0000FCFF6100C0
(1357041663.63090) vcan0 18F00121#FFFFD3FF00FFFFFF
(1357041663.63106) vcan0 18F00E00#FFFFFFFFFFFFFFFF
(1357041663.63119) vcan0 0CF00400#4E7D7D0000000F7D
(1357041663.63132) vcan0 10FCFD00#FFFFFFFFF32CFFFF
(1357041663.63145) vcan0 0CF00203#CC0000FFF00000FF
(1357041663.63159) vcan0 0CF00400#4E7D7D0000000F7D
(1357041663.63172) vcan0 0CF00300#D10000FFFF0F667E
(1357041663.63185) vcan0 0CF00400#4E7D7D0000000F7D
(1357041663.63201) vcan0 0CF00400#4E7D7D0000000F7D
(1357041663.63214) vcan0 1CECFF0F#20130003FFE1FE00
(1357041663.63227) vcan0 18F00503#7D00007D204E204E
(1357041663.63244) vcan0 0CF00400#4E7D7D0000000F7D
(1357041663.63257) vcan0 18FEF000#FFFFFF1815FFFFFF
(1357041663.63270) vcan0 18F0010B#C0FFD0FFFF0DFF3F
(1357041663.63284) vcan0 18FEBF0B#00007D7D7D7DFFFF
(1357041663.63297) vcan0 18FCDC00#FFFFFFFFFC610000
(1357041663.63310) vcan0 0CF00A00#00000000FFFFFFFF
(1357041663.63324) vcan0 18FC9600#2000FFFFFFFFFFFF
(1357041663.63337) vcan0 0CF00203#CC0000FFF00000FF
(1357041663.63349) vcan0 18FEF200#000000001006FAFF
(1357041663.63363) vcan0 10F03300#D007FFFFFFFFFFFF
