(1357041628.28432552) ardcan1 18EEFF3A#AC00200301150200
(1357041628.28455684) ardcan1 18EEFF19#FC00200300150200
(1357041628.28521960) ardcan1 18EEFF28#FFFF9F0000210210
(1357041628.28558776) ardcan1 18F0010B#FFFFFCFFFF5FFFFF
(1357041628.28573096) ardcan1 18FEBF0B#FFFFFFFFFFFFFFEF
(1357041628.28616556) ardcan1 18EEFF25#4A192303001C0310
(1357041628.28630872) ardcan1 10FF2121#32000FC0C0FFFFFA
(1357041628.28643104) ardcan1 14FF3131#0030030000FFFFFF
(1357041628.28655344) ardcan1 14F00131#FFFFFFFF00FFFFFF
(1357041628.28670732) ardcan1 14FEF131#CFFFFFF300FFFFF0
(1357041628.28683100) ardcan1 0CF00421#FFFFFFFFFFFFFFFF
(1357041628.28695488) ardcan1 18EEFF17#FFFF9F0000130210
(1357041628.28707860) ardcan1 18FEF521#FFFFFF4024FFFFFF
(1357041628.28720232) ardcan1 18FEF621#FFFFFFFFFFFFFFFF
(1357041628.28732612) ardcan1 18FEF721#FFFFFFFFFE00FFFF
(1357041628.28745000) ardcan1 14FF3131#0030030000FFFFFF
(1357041628.28757364) ardcan1 14F00131#FFFFFFFF00FFFFFF
(1357041628.28769716) ardcan1 14FEF131#CFFFFFF300FFFFF0
(1357041628.28785240) ardcan1 18EEFF28#FFFF9F0000210210
(1357041628.28797612) ardcan1 14FEF031#FFFFFFFFFFFC00FF
(1357041628.28809980) ardcan1 18E00031#FFFFFFFFFFF3FFFF
(1357041628.28822352) ardcan1 18FEFF47#FFFFFFFFFFFFFFFF
(1357041628.28834732) ardcan1 10FF2121#32000FC0C0FFFFFA
(1357041628.28847120) ardcan1 14FF3131#0030030000FFFFFF
(1357041628.28859488) ardcan1 18EEFF00#4620420100000000
(1357041628.28877552) ardcan1 18F0010B#FFFFFCFFFF5FFFFF
(1357041628.28889936) ardcan1 14FDA421#FFFFFFFFFFFFFFFF
(1357041628.28905636) ardcan1 18EEFF0F#46204201000C0000
(1357041628.28917972) ardcan1 14FF0221#FFFFFFFFFFFFFFFF
(1357041628.28930336) ardcan1 0CF00300#C10006FFFF0F697D
(1357041628.28942692) ardcan1 14FF3131#0030030000FFFFFF
(1357041628.28955036) ardcan1 0CF00400#3E7D80000000007D
(1357041628.28967372) ardcan1 18FF1919#FFFFFFFFFFFFFFFF
(1357041628.28979740) ardcan1 0CF00421#FFFFFFFFFFFFFFFF
(1357041628.28992112) ardcan1 0CF00300#C10006FFFF0F697D
(1357041629.29004456) ardcan1 0CF00A00#00000000FFFFFFFF
(1357041629.29019940) ardcan1 14FF0221#FFFFFFFFFFFFFFFF
(1357041629.29032308) ardcan1 1CEBFF19#0331323036323232
(1357041629.29044672) ardcan1 14FF3131#0030030000FFFFFF
(1357041629.29057032) ardcan1 18FEDF00#80A0287DFBFFFFF0
(1357041629.29069400) ardcan1 1CEBFF3A#043030303030302A
(1357041629.29081768) ardcan1 18EEFF17#FFFF9F0000130210
(1357041629.29094136) ardcan1 18FEDF00#80A0287DFBFFFFF0
(1357041629.29106496) ardcan1 14FF0121#FFFFFFFFFFFFFDFF
(1357041629.29118864) ardcan1 18FEF200#000000006405FFFF
(1357041629.29134368) ardcan1 0CF00400#3E7D800000000F7D
(1357041629.29146728) ardcan1 14FF3131#0030030000FFFFFF
(1357041629.29159092) ardcan1 14FEF121#F7FFFF0FFFFFFFFF
(1357041629.29171476) ardcan1 14FEF131#CFFFFFF300FFFFF0
(1357041629.29183868) ardcan1 18FEF000#FFFFFF201CF0FFFF
(1357041629.29196252) ardcan1 0CF00400#3E7D800000000F7D
(1357041629.29208616) ardcan1 18FEF100#FF0000FC33000040
(1357041629.29220984) ardcan1 18FCDC00#E0FEFEFFFFFFFFFF
(1357041629.29233376) ardcan1 1CEB3A19#0F001E25282A2B30
(1357041629.29251216) ardcan1 14FF3131#0030030000FFFFFF
(1357041629.29263568) ardcan1 1CEB3A19#125AF6FFFFFFFFFF
(1357041629.29275948) ardcan1 18F00F00#FFFFFFFFFFFFFFFF
(1357041629.29288340) ardcan1 18FEDF00#80A0287DFBFFFFF0
(1357041629.29300724) ardcan1 0CF00400#3E7D800000000F7D
(1357041629.29313096) ardcan1 18FD0700#57FFFFFFFFFFFFFF
(1357041629.29325496) ardcan1 18F00F00#FFFFFFFFFFFFFFFF
(1357041629.29337892) ardcan1 18FDB400#563A2839FFFFFFFF
(1357041629.29350276) ardcan1 14F00131#FFFFFFFF00FFFFFF
(1357041629.29365680) ardcan1 14FEF121#F7FFFF0FFFFFFFFF
(1357041629.29377924) ardcan1 18FEF117#F7FFFFFFFFFFFFFF
(1357041629.29390164) ardcan1 0CF00400#3E7D800000000F7D
(1357041629.29402380) ardcan1 18FEF000#FFFFFF201CF0FFFF
(1357041629.29414628) ardcan1 18EBFF00#01E015ACC02BC728
(1357041629.29426884) ardcan1 18FF2421#BEF0FFFFFFFFFFFF
(1357041629.29439132) ardcan1 18FEDF00#80A0287DFBFFFFF0
(1357041629.29451384) ardcan1 0CF00400#3E7D800000000F7D
(1357041629.29463608) ardcan1 14FEF121#F7FFFF0FFFFFFFFF
(1357041629.29478848) ardcan1 0CF00300#C10006FFFF0F697D
(1357041629.29491080) ardcan1 14FDA421#FFFFFFFFFFFFFFFF
(1357041629.29503320) ardcan1 0CF00400#3E7D800000000F7D
(1357041629.29515544) ardcan1 18FEF600#FF0055FFFFFFFFFF
(1357041629.29527792) ardcan1 0CF00400#3E7D800000000F7D
(1357041629.29540020) ardcan1 0CF00400#3E7D800000000F7D
(1357041629.29552260) ardcan1 14F00131#FFFFFFFF00FFFFFF
(1357041629.29564500) ardcan1 0CFD9200#F0FFFFFFFFFFFFFF
(1357041629.29576744) ardcan1 18F0010B#CFFFFCFFFF5FFF7F
(1357041629.29592128) ardcan1 14FDA421#FFFFFFFFFFFFFFFF
(1357041629.29604512) ardcan1 18F00F00#FFFFFFFFFFFFFFFF
(1357041629.29616908) ardcan1 14FF0221#FFFFFFFFFFFFFFFF
(1357041629.29631324) ardcan1 0CF00400#3E7D800000000F7D
(1357041629.29643684) ardcan1 18FEF100#FF0000FC33000040
(1357041629.29656056) ardcan1 18EBFF00#05C02BA501FFFFFF
(1357041629.29668456) ardcan1 18FEF200#000000006405FFFF
(1357041629.29680828) ardcan1 18FEBF0B#00007D7D7D7DFFFF
(1357041629.29693196) ardcan1 18F00E00#FFFFFFFFFFFFFFFF
(1357041629.29708736) ardcan1 0CF00400#3E7D800000000F7D
(1357041629.29721088) ardcan1 0CF00400#3E7D800000000F7D
(1357041629.29733440) ardcan1 0CF00300#C10006FFFF0F697D
(1357041629.29745812) ardcan1 14FF3131#0030030000FFFFFF
(1357041629.29758184) ardcan1 18FEF100#FF0000FC33000040
(1357041629.29770556) ardcan1 18FEF117#F7FFFFFFFFFFFFFF
(1357041629.29782936) ardcan1 18FEBF0B#00007D7D7D7DFFFF
(1357041629.29795308) ardcan1 14FDA421#FFFFFFFFFFFFFFFF
(1357041629.29807704) ardcan1 14FF0121#FFFFFFFFFFFFFDFF
(1357041629.29823244) ardcan1 18FEDF00#80A0287DFBFFFFF0
(1357041629.29835608) ardcan1 0CF00400#3E7D800000000F7D
(1357041629.29847960) ardcan1 18F00E00#FFFFFFFFFFFFFFFF
(1357041629.29860332) ardcan1 14FEF121#F7FFFF0FFFFFFFFF
(1357041629.29872692) ardcan1 18F00F00#FFFFFFFFFFFFFFFF
(1357041629.29885056) ardcan1 18FEF200#000000006505FFFF
(1357041629.29897396) ardcan1 14FF2321#041CE1FFFFFFFFFF
(1357041629.29909772) ardcan1 14FF0121#FFFFFFFFFFFFFDFF
(1357041629.29922136) ardcan1 0CF00400#3E7D800000000F7D
(1357041629.29937628) ardcan1 18F00F00#FFFFFFFFFFFFFFFF
(1357041629.29950004) ardcan1 18FF3A3A#02300B00FFFFFFFF
(1357041629.29962364) ardcan1 0CF00400#3E7D800000000F7D
(1357041629.29974716) ardcan1 18FEF100#FF0000FC33000040
(1357041629.29987072) ardcan1 10FF2121#32000FC0C0FFFFFA
(1357041630.30001540) ardcan1 0CF00400#3E7D800000000F7D
(1357041630.30013892) ardcan1 14FF0121#FFFFFFFFFFFFFDFF
(1357041630.30026256) ardcan1 0CF00300#D10006FFFF0F697D
(1357041630.30038600) ardcan1 14F00031#CFFFFFFFFFFFFFFF
(1357041630.30054148) ardcan1 1CEBFF3A#0230303030303030
(1357041630.30066520) ardcan1 18FEF117#F7FFFFFFFFFFFFFF
(1357041630.30078896) ardcan1 0CF00421#FFFFFFFFFFFFFFFF
(1357041630.30091284) ardcan1 0CF00400#3E7D800000000F7D
(1357041630.30103664) ardcan1 18FEF200#000000006405FFFF
(1357041630.30116044) ardcan1 0CFD9200#F0FFFFFFFFFFFFFF
(1357041630.30128420) ardcan1 14FF0221#FFFFFFFFFFFFFFFF
(1357041630.30140816) ardcan1 0CF00400#3E7D800000000F7D
(1357041630.30153176) ardcan1 18F00F00#FFFFFFFFFFFFFFFF
(1357041630.30168704) ardcan1 18FEF117#F7FFFFFFFFFFFFFF
(1357041630.30181088) ardcan1 0CF00400#3E7D800000000F7D
(1357041630.30193456) ardcan1 18FEF100#FF0000FC33000000
(1357041630.30205828) ardcan1 18F00F00#FFFFFFFFFFFFFFFF
(1357041630.30218220) ardcan1 14FF0221#FFFFFFFFFFFFFFFF
(1357041630.30230604) ardcan1 18FEE000#26DA0A00D55D5100
(1357041630.30242992) ardcan1 0CF00400#3E7D800000000F7D
(1357041630.30255368) ardcan1 18F00F00#FFFFFFFFFFFFFFFF
(1357041630.30267752) ardcan1 18FEF117#F7FFFFFFFFFFFFFF
(1357041630.30283140) ardcan1 18EBFF00#0633313520202020
(1357041630.30295380) ardcan1 18FEF100#FF0000FC33000000
(1357041630.30307600) ardcan1 14FF0121#FFFFFFFFFFFFFDFF
(1357041630.30319852) ardcan1 0CF00400#3E7D800000000F7D
(1357041630.30332076) ardcan1 10FF2121#32000FC0C0FFFFFA
(1357041630.30344320) ardcan1 18FEE000#26DA0A00D55D5100
(1357041630.30356552) ardcan1 0CF00400#3E7D800000000F7D
(1357041630.30368776) ardcan1 14FEF131#CFFFFFF300FFFFF0
(1357041630.30383096) ardcan1 0CF00421#FFFFFFFFFFFFFFFF
(1357041630.30398336) ardcan1 0CF00400#3E7D800000000F7D
(1357041630.30410564) ardcan1 0CF00400#3E7D800000000F7D
(1357041630.30422792) ardcan1 0CF00300#D10006FFFF0F697D
(1357041630.30435024) ardcan1 0CF00400#3E7D800000000F7D
(1357041630.30447252) ardcan1 18FF3A3A#02300B00FFFFFFFF
(1357041630.30459476) ardcan1 18F00100#FFFFFFFFFFFFFFFF
(1357041630.30471720) ardcan1 18FF1B19#FFFCFFFFFFFFFFFF
(1357041630.30483960) ardcan1 18FDB200#FFFFFFFF0000FFFF
(1357041630.30496200) ardcan1 14FF2321#041CE1FFFFFFFFFF
(1357041630.30511600) ardcan1 18FEDF00#80A0287DFBFFFFF0
(1357041630.30523968) ardcan1 18EEFF28#FFFF9F0000210210
(1357041630.30536352) ardcan1 10FF2121#32000FC0C0FFFFFA
(1357041630.30548736) ardcan1 14F00131#FFFFFFFF00FFFFFF
(1357041630.30561104) ardcan1 14FEF121#F7FFFF0FFFFFFFFF
(1357041630.30573484) ardcan1 0CF00400#3E7D800000000F7D
(1357041630.30585856) ardcan1 18EBFF00#04204E3C3C8C7DC6
(1357041630.30598248) ardcan1 18FEDF00#80A0287DFBFFFFF0
(1357041630.30610628) ardcan1 0CF00400#3E7D800000000F7D
(1357041630.30626168) ardcan1 0CF00300#D10006FFFF0F697D
(1357041630.30638536) ardcan1 0CF00A00#00000000FFFFFFFF
(1357041630.30650896) ardcan1 0CF00400#3E7D800000000F7D
(1357041630.30663252) ardcan1 14FEF121#F7FFFF0FFFFFFFFF
(1357041630.30675632) ardcan1 18FEE000#26DA0A00D55D5100
(1357041630.30688004) ardcan1 18FEDF00#80A0287DFBFFFFF0
(1357041630.30700392) ardcan1 0CF00400#3E7D800000000F7D
(1357041630.30712748) ardcan1 0CF00300#D10006FFFF0F697D
(1357041630.30725136) ardcan1 0CF00400#3E7D800000000F7D
(1357041630.30740648) ardcan1 10FF2121#32000FC0C0FFFFFA
(1357041630.30755032) ardcan1 0CF00300#D10006FFFF0F697D
(1357041630.30767372) ardcan1 0CF00400#3E7D800000000F7D
(1357041630.30779732) ardcan1 0CF00421#FFFFFFFFFFFFFFFF
(1357041630.30792088) ardcan1 0CF00400#3E7D800000000F7D
(1357041630.30804424) ardcan1 18F00F00#FFFFFFFFFFFFFFFF
(1357041630.30816768) ardcan1 14FF0221#FFFFFFFFFFFFFFFF
(1357041630.30829152) ardcan1 0CF00400#3E7D800000000F7D
(1357041630.30841488) ardcan1 14F00031#CFFFFFFFFFFFFFFF
(1357041630.30856992) ardcan1 18F00F00#FFFFFFFFFFFFFFFF
(1357041630.30869352) ardcan1 0CF00400#3E7D800000000F7D
(1357041630.30881704) ardcan1 18F0010B#CFFFFCFFFF1FFF7F
(1357041630.30894072) ardcan1 18FEE000#26DA0A00D55D5100
(1357041630.30906444) ardcan1 14FF0121#FFFFFFFFFFFFFDFF
(1357041630.30918816) ardcan1 18F0000F#F07D7DFF0FFFFFFF
(1357041630.30931184) ardcan1 18FE9900#34AEFFFFFFFFFFFF
(1357041630.30943544) ardcan1 14FF3131#0030030000FFFFFF
(1357041630.30955884) ardcan1 18FEF100#FF0000FC33000000
(1357041630.30971380) ardcan1 18FEDF00#80A0287DFBFFFFF0
(1357041630.30983760) ardcan1 18F0010B#CFFFFCFFFF1FFF7F
(1357041630.30996136) ardcan1 14FDA421#FFFFFFFFFFFFFFFF
(1357041631.31008524) ardcan1 14FF0121#FFFFFFFFFFFFFDFF
(1357041631.31020924) ardcan1 18FEDF00#80A0287DFBFFFFF0
(1357041631.31033308) ardcan1 18FDB200#FFFFFFFF0000FFFF
(1357041631.31045684) ardcan1 0CF00300#D10006FFFF0F697D
(1357041631.31058060) ardcan1 18FEDF00#80A0287DFBFFFFF0
(1357041631.31070444) ardcan1 0CF00400#3E7D800000000F7D
(1357041631.31085976) ardcan1 0CF00300#D10006FFFF0F697D
(1357041631.31098332) ardcan1 18EEFF28#FFFF9F0000210210
(1357041631.31110704) ardcan1 14FF0121#FFFFFFFFFFFFFDFF
(1357041631.31123092) ardcan1 0CF00400#3E7D800000000F7D
(1357041631.31137560) ardcan1 18F00F00#FFFFFFFFFFFFFFFF
(1357041631.31149932) ardcan1 18FEF000#FFFFFF201CF0FFFF
(1357041631.31162320) ardcan1 0CF00400#3E7D800000000F7D
(1357041631.31174692) ardcan1 18FEF100#FF0000FC33000000
(1357041631.31187064) ardcan1 18FEBF0B#00007D7D7D7DFFFF
(1357041631.31202456) ardcan1 0CF00400#3E7D800000000F7D
(1357041631.31214688) ardcan1 14FF0121#FFFFFFFFFFFFFDFF
(1357041631.31226924) ardcan1 0CF00300#D10006FFFF0F697D
(1357041631.31239144) ardcan1 14F00031#CFFFFFFFFFFFFFFF
(1357041631.31251376) ardcan1 1CEBFF3A#043030303030302A
(1357041631.31263628) ardcan1 0CF00300#D10006FFFF0F697D
(1357041631.31275852) ardcan1 0CF00400#3E7D800000000F7D
(1357041631.31288076) ardcan1 10FF2121#32000FC0C0FFFFFA
(1357041631.31300300) ardcan1 14FEF031#FFFFFFFFFFFC00FF
(1357041631.31315536) ardcan1 0CF00400#3E7D800000000F7D
(1357041631.31327744) ardcan1 14FF0221#FFFFFFFFFFFFFFFF
(1357041631.31339984) ardcan1 18F00100#FFFFFFFFFFFFFFFF
(1357041631.31352220) ardcan1 14F00131#FFFFFFFF00FFFFFF
(1357041631.31364460) ardcan1 0CF00400#3E7D800000000F7D
(1357041631.31376676) ardcan1 0CF00300#D10006FFFF0F697D
(1357041631.31388908) ardcan1 14FDA421#FFFFFFFFFFFFFFFF
(1357041631.31401156) ardcan1 0CF00400#3E7D800000000F7D
(1357041631.31413392) ardcan1 18FEF200#000000006505FFFF
(1357041631.31428768) ardcan1 0CF00400#3E7D800000000F7D
(1357041631.31441132) ardcan1 14F00031#CFFFFFFFFFFFFFFF
(1357041631.31453520) ardcan1 18FF3A3A#02300B00FFFFFFFF
(1357041631.31465896) ardcan1 18F00F00#FFFFFFFFFFFFFFFF
(1357041631.31478260) ardcan1 18FEDF00#80A0287DFBFFFFF0
(1357041631.31490644) ardcan1 0CF00400#3E7D800000000F7D
(1357041631.31503016) ardcan1 18FD0700#47FFFFFFFFFFFFFF
(1357041631.31517420) ardcan1 18F00F00#FFFFFFFFFFFFFFFF
(1357041631.31529784) ardcan1 0CF00400#3E7D800000000F7D
(1357041631.31545312) ardcan1 18FEF117#F7FFFFFFFFFFFFFF
(1357041631.31557704) ardcan1 0CF00300#D10006FFFF0F697D
(1357041631.31570072) ardcan1 14FEF131#CFFFFFF300FFFFF0
(1357041631.31582448) ardcan1 18F0010B#CFFFFCFFFF0FFF3F
(1357041631.31594836) ardcan1 0CF00300#D10006FFFF0F697D
(1357041631.31607196) ardcan1 14FF0121#FFFFFFFFFFFFFDFF
(1357041631.31619564) ardcan1 0CF00400#3E7D800000000F7D
(1357041631.31631920) ardcan1 0CF00A00#00000000FFFFFFFF
(1357041631.31644284) ardcan1 14FF3131#0030030000FFFFFF
(1357041631.31659784) ardcan1 14F00131#FFFFFFFF00FFFFFF
(1357041631.31672140) ardcan1 0CF00400#3E7D800000000F7D
(1357041631.31684476) ardcan1 18F00F00#FFFFFFFFFFFFFFFF
(1357041631.31696856) ardcan1 0CF00400#3E7D800000000F7D
(1357041631.31709204) ardcan1 0CF00400#3E7D800000000F7D
(1357041631.31721552) ardcan1 18FEF621#FFFFFFFFFFFFFFFF
(1357041631.31733916) ardcan1 18FD3E00#0E3AFFEF38FFFFFF
(1357041631.31746288) ardcan1 14FF3131#0030030000FFFFFF
(1357041631.31758640) ardcan1 14FEF121#F7FFFF0FFFFFFFFF
(1357041631.31774128) ardcan1 14FEF131#CFFFFFF300FFFFF0
(1357041631.31786480) ardcan1 18FEF700#FFFFFFFF0001FFFF
(1357041631.31798836) ardcan1 18F0000F#F07D7DFF0FFFFFFF
(1357041631.31811184) ardcan1 18FEF000#FFFFFF201CF0FFFF
(1357041631.31823556) ardcan1 0CF00400#3E7D800000000F7D
(1357041631.31835904) ardcan1 18FEF117#F7FFFFFFFFFFFFFF
(1357041631.31848276) ardcan1 18FEDF00#80A0287DFBFFFFF0
(1357041631.31860632) ardcan1 0CF00400#3E7D800000000F7D
(1357041631.31872992) ardcan1 14FEF131#CFFFFFF300FFFFF0
(1357041631.31890632) ardcan1 0CF00300#D10006FFFF0F697D
(1357041631.31903008) ardcan1 0CF00300#D10006FFFF0F697D
(1357041631.31915360) ardcan1 0CF00400#3E7D800000000F7D
(1357041631.31927720) ardcan1 18FF2421#BFF0FFFFFFFFFFFF
(1357041631.31940092) ardcan1 14F00031#CFFFFFFFFFFFFFFF
(1357041631.31952480) ardcan1 0CF00400#3E7D800000000F7D
(1357041631.31964832) ardcan1 18FEF200#000000006405FFFF
(1357041631.31977204) ardcan1 18FF1B19#FFFCFFFFFFFFFFFF
(1357041631.31989584) ardcan1 14FDA421#FFFFFFFFFFFFFFFF
(1357041632.32005140) ardcan1 0CF00400#3E7D800000000F7D
(1357041632.32017504) ardcan1 14FF0221#FFFFFFFFFFFFFFFF
(1357041632.32029888) ardcan1 18FE9900#34AEFFFFFFFFFFFF
(1357041632.32042276) ardcan1 0CF00400#3E7D800000000F7D
(1357041632.32054644) ardcan1 18FEF100#FF0000FC33000000
(1357041632.32066988) ardcan1 18F00F00#FFFFFFFFFFFFFFFF
(1357041632.32079372) ardcan1 0CF00400#3E7D800000000F7D
(1357041632.32091732) ardcan1 14FDA421#FFFFFFFFFFFFFFFF
(1357041632.32104112) ardcan1 18FEE000#26DA0A00D55D5100
(1357041632.32119492) ardcan1 0CF00400#3E7D800000000F7D
(1357041632.32131724) ardcan1 18FEF117#F7FFFFFFFFFFFFFF
(1357041632.32143956) ardcan1 14FF3131#0030030000FFFFFF
(1357041632.32156176) ardcan1 18FD8C00#FFFF0000FFFFFFFF
(1357041632.32168404) ardcan1 14FEF131#CFFFFFF300FFFFF0
(1357041632.32180656) ardcan1 0CF00A00#00000000FFFFFFFF
(1357041632.32192868) ardcan1 0CF00400#3E7D800000000F7D
(1357041632.32205084) ardcan1 14FEF031#FFFFFFFFFFFC00FF
(1357041632.32217312) ardcan1 14FF0221#FFFFFFFFFFFFFFFF
(1357041632.32232564) ardcan1 18FEF117#F7FFFFFFFFFFFFFF
(1357041632.32244808) ardcan1 18EEFF17#FFFF9F0000130210
(1357041632.32257044) ardcan1 18EEFF3A#AC00200301150200
(1357041632.32271276) ardcan1 14FEF131#CFFFFFF300FFFFF0
(1357041632.32283516) ardcan1 18FD3E00#0E3AFFEF38FFFFFF
(1357041632.32295736) ardcan1 18EBFF00#0335303030303030
(1357041632.32307976) ardcan1 14FF0121#FFFFFFFFFFFFFCFF
(1357041632.32320212) ardcan1 14FF0221#FFFFFFFFFFFFFFFF
(1357041632.32332456) ardcan1 0CF00400#3E7D800000000F7D
(1357041632.32347824) ardcan1 14FF3131#0030030000FFFFFF
(1357041632.32360196) ardcan1 18EBFF00#0430302A37393539
(1357041632.32372576) ardcan1 0CF00400#3E7D800000000F7D
(1357041632.32384936) ardcan1 18F0010B#CFFFFCFFFF0FFF3F
(1357041632.32397300) ardcan1 14FF2321#041CE1FFFFFFFFFF
(1357041632.32409688) ardcan1 0CF00400#3E7D800000000F7D
(1357041632.32422056) ardcan1 14FF0221#FFFFFFFFFFFFFFFF
(1357041632.32434444) ardcan1 18FEE000#26DA0A00D55D5100
(1357041632.32446812) ardcan1 18FF3A3A#02300B00FFFFFFFF
(1357041632.32462344) ardcan1 14FEF121#F7FFFF0FFFFFFFFF
(1357041632.32474716) ardcan1 0CF00300#D10006FFFF0F697D
(1357041632.32487080) ardcan1 18F0010B#CFFFFCFFFF0FFF3F
(1357041632.32499456) ardcan1 0CF00400#3E7D800000000F7D
(1357041632.32511828) ardcan1 0CF00A00#00000000FFFFFFFF
(1357041632.32524184) ardcan1 18FEF117#F7FFFFFFFFFFFFFF
(1357041632.32536572) ardcan1 10FF2121#32000FC0C0FFFFFA
(1357041632.32548948) ardcan1 14F00131#FFFFFFFF00FFFFFF
(1357041632.32561344) ardcan1 14FEF121#F7FFFF0FFFFFFFFF
(1357041632.32576864) ardcan1 0CF00400#3E7D800000000F7D
(1357041632.32589204) ardcan1 0CF00400#3E7D800000000F7D
(1357041632.32601520) ardcan1 14FEF031#FFFFFFFFFFFC00FF
(1357041632.32613888) ardcan1 18F00F00#FFFFFFFFFFFFFFFF
(1357041632.32626240) ardcan1 18FEF200#000000006405FFFF
(1357041632.32640704) ardcan1 14F00031#CFFFFFFFFFFFFFFF
(1357041632.32653056) ardcan1 18FEDF00#80A0287DFBFFFFF0
(1357041632.32665428) ardcan1 0CF00400#3E7D800000000F7D
(1357041632.32677760) ardcan1 0CF00A00#00000000FFFFFFFF
(1357041632.32693260) ardcan1 18FEF000#FFFFFF201CF0FFFF
(1357041632.32705632) ardcan1 18FD8C00#FFFF0000FFFFFFFF
(1357041632.32717992) ardcan1 14FF0221#FFFFFFFFFFFFFFFF
(1357041632.32730352) ardcan1 18FEF721#FFFFFFFFFD00FFFF
(1357041632.32742720) ardcan1 0CF00400#3E7D800000000F7D
(1357041632.32755052) ardcan1 14F00131#FFFFFFFF00FFFFFF
(1357041632.32767408) ardcan1 0CF00300#D10006FFFF0F697D
(1357041632.32779740) ardcan1 0CF00421#FFFFFFFFFFFFFFFF
(1357041632.32792096) ardcan1 18FEBF0B#00007D7D7D7DFFFF
(1357041632.32807604) ardcan1 18FEF600#FF0055FFFFFFFFFF
(1357041632.32819988) ardcan1 18FEDF00#80A0287DFBFFFFF0
(1357041632.32832360) ardcan1 0CF00400#3E7D800000000F7D
(1357041632.32844728) ardcan1 14FF3131#0030030000FFFFFF
(1357041632.32857104) ardcan1 0CFD9200#F0FFFFFFFFFFFFFF
(1357041632.32869488) ardcan1 14FEF131#CFFFFFF300FFFFF0
(1357041632.32881856) ardcan1 0CF00400#3E7D800000000F7D
(1357041632.32894224) ardcan1 18F00F00#FFFFFFFFFFFFFFFF
(1357041632.32906612) ardcan1 18FEDD00#FF0000FFFFFFFFFF
(1357041632.32922148) ardcan1 18F00E00#FFFFFFFFFFFFFFFF
(1357041632.32934524) ardcan1 18FEF100#FF0000FC33000000
(1357041632.32946896) ardcan1 18FF3A3A#02300B00FFFFFFFF
(1357041632.32959268) ardcan1 0CF00400#3E7D800000000F7D
(1357041632.32971632) ardcan1 18FF1B19#FFFCFFFFFFFFFFFF
(1357041632.32984012) ardcan1 18FEE000#26DA0A00D55D5100
(1357041632.32996400) ardcan1 18FEBF0B#00007D7D7D7DFFFF
(1357041633.33008780) ardcan1 18F0000F#F07D7DFF0FFFFFFF
(1357041633.33023280) ardcan1 18FEF000#FFFFFF201CF0FFFF
(1357041633.33033320) ardcan1 0CF00400#3E7D800000000F7D
(1357041633.33045552) ardcan1 14FF3131#0030030000FFFFFF
(1357041633.33057776) ardcan1 18FEDF00#80A0287DFBFFFFF0
(1357041633.33070016) ardcan1 0CF00400#3E7D800000000F7D
(1357041633.33082232) ardcan1 0CF00421#FFFFFFFFFFFFFFFF
(1357041633.33094476) ardcan1 18FEE000#26DA0A00D55D5100
(1357041633.33106708) ardcan1 18FE9A00#D427FFFFFFFFFFFF
(1357041633.33118944) ardcan1 18F0000F#F07D7DFF0FFFFFFF
(1357041633.33134164) ardcan1 18FE9900#30AEFFFFFFFFFFFF
(1357041633.33146416) ardcan1 14FF3131#0030030000FFFFFF
(1357041633.33158632) ardcan1 14FEF121#F7FFFF0FFFFFFFFF
(1357041633.33170864) ardcan1 14FEF131#CFFFFFF300FFFFF0
(1357041633.33183088) ardcan1 0CF00400#3E7D800000000F7D
(1357041633.33195324) ardcan1 18FEBF0B#00007D7D7D7DFFFF
(1357041633.33207552) ardcan1 14FF0121#FFFFFFFFFFFFFCFF
(1357041633.33219796) ardcan1 18FEDF00#80A0287DFBFFFFF0
(1357041633.33232036) ardcan1 0CF00400#3E7D800000000F7D
(1357041633.33247412) ardcan1 14FF3131#0030030000FFFFFF
(1357041633.33259776) ardcan1 14FEF121#F7FFFF0FFFFFFFFF
(1357041633.33272164) ardcan1 0CF00400#3E7D800000000F7D
(1357041633.33284520) ardcan1 1CEBFF3A#0146524748542A2A
(1357041633.33296896) ardcan1 18FEBF0B#00007D7D7D7DFFFF
(1357041633.33309268) ardcan1 1CEBFF17#0144544E412A4943
(1357041633.33321648) ardcan1 0CF00400#3E7D800000000F7D
(1357041633.33334020) ardcan1 18F00F00#FFFFFFFFFFFFFFFF
(1357041633.33346408) ardcan1 14FF3131#0030030000FFFFFF
(1357041633.33361928) ardcan1 14FEF121#F7FFFF0FFFFFFFFF
(1357041633.33374316) ardcan1 1CEBFF17#0255342D32303130
(1357041633.33386696) ardcan1 18EEFF17#FFFF9F0000130210
(1357041633.33401088) ardcan1 14FEF031#FFFFFFFFFFFC00FF
(1357041633.33413468) ardcan1 18FEF117#F7FFFFFFFFFFFFFF
(1357041633.33425840) ardcan1 0CF00300#D10006FFFF0F697D
(1357041633.33438216) ardcan1 18FEDF00#80A0287DFBFFFFF0
(1357041633.33450592) ardcan1 1CEBFF3A#043030303030302A
(1357041633.33462956) ardcan1 0CF00300#D10006FFFF0F697D
(1357041633.33478440) ardcan1 18FF1B19#FFFCFFFFFFFFFFFF
(1357041633.33490800) ardcan1 0CF00400#3E7D800000000F7D
(1357041633.33503144) ardcan1 18FEF200#000000006405FFFF
(1357041633.33515488) ardcan1 18EBFF00#05343439312A3632
(1357041633.33527864) ardcan1 14FF0221#FFFFFFFFFFFFFFFF
(1357041633.33540232) ardcan1 18F00100#FFFFFFFFFFFFFFFF
(1357041633.33552600) ardcan1 18FD7C00#F8830100C31F03FF
(1357041633.33564952) ardcan1 0CF00400#3E7D800000000F7D
(1357041633.33577296) ardcan1 0CF00300#D10006FFFF0F697D
(1357041633.33592784) ardcan1 18F0010B#CFFFFCFFFF0FFF3F
(1357041633.33605140) ardcan1 18FEF117#F7FFFFFFFFFFFFFF
(1357041633.33617496) ardcan1 14FF0221#FFFFFFFFFFFFFFFF
(1357041633.33629876) ardcan1 0CF00400#3E7D800000000F7D
(1357041633.33642220) ardcan1 14F00031#CFFFFFFFFFFFFFFF
(1357041633.33654576) ardcan1 0CF00400#3E7D800000000F7D
(1357041633.33666916) ardcan1 18F00F00#FFFFFFFFFFFFFFFF
(1357041633.33679296) ardcan1 18FEF000#FFFFFF201CF0FFFF
(1357041633.33691668) ardcan1 14FDA421#FFFFFFFFFFFFFFFF
(1357041633.33707176) ardcan1 18FEF117#F7FFFFFFFFFFFFFF
(1357041633.33719564) ardcan1 14FF0221#FFFFFFFFFFFFFFFF
(1357041633.33731964) ardcan1 0CF00400#3E7D800000000F7D
(1357041633.33744316) ardcan1 14FF3131#0030030000FFFFFF
(1357041633.33756672) ardcan1 0CF00300#D10006FFFF0F697D
(1357041633.33771152) ardcan1 14FEF131#CFFFFFF300FFFFF0
(1357041633.33783524) ardcan1 18FDB200#FFFFFFFF0000FFFF
(1357041633.33795896) ardcan1 18FEBF0B#00007D7D7D7DFFFF
(1357041633.33808268) ardcan1 18FEDF00#80A0287DFBFFFFF0
(1357041633.33823820) ardcan1 0CF00400#3E7D800000000F7D
(1357041633.33836184) ardcan1 18FEF200#000000006405FFFF
(1357041633.33848548) ardcan1 14F00131#FFFFFFFF00FFFFFF
(1357041633.33860928) ardcan1 14FEF121#F7FFFF0FFFFFFFFF
(1357041633.33873308) ardcan1 0CF00400#3E7D800000000F7D
(1357041633.33885668) ardcan1 18F00F00#FFFFFFFFFFFFFFFF
(1357041633.33898036) ardcan1 18FEDF00#80A0287DFBFFFFF0
(1357041633.33910420) ardcan1 0CF00400#3E7D800000000F7D
(1357041633.33922796) ardcan1 0CF00300#D10006FFFF0F697D
(1357041633.33938152) ardcan1 18FD3E00#0F3AFFEE38FFFFFF
(1357041633.33950380) ardcan1 0CF00400#3E7D800000000F7D
(1357041633.33962600) ardcan1 18EEFF3A#AC00200301150200
(1357041633.33974824) ardcan1 18FEE000#26DA0A00D55D5100
(1357041633.33987052) ardcan1 18FEF700#FFFFFFFF0001FFFF
(1357041633.33999276) ardcan1 18F0000F#F07D7DFF0FFFFFFF
(1357041634.34011512) ardcan1 18FEF000#FFFFFF201CF0FFFF
(1357041634.34023764) ardcan1 0CF00400#3E7D800000000F7D
(1357041634.34035972) ardcan1 18FEF100#FF0000FC33000000
(1357041634.34051184) ardcan1 18FEDF00#80A0287DFBFFFFF0
(1357041634.34063440) ardcan1 0CF00400#3E7D800000000F7D
(1357041634.34075660) ardcan1 14FEF131#CFFFFFF300FFFFF0
(1357041634.34087892) ardcan1 10FF2121#32000FC0C0FFFFFA
(1357041634.34100132) ardcan1 14FEF031#FFFFFFFFFFFC00FF
(1357041634.34112384) ardcan1 0CF00400#3E7D800000000F7D
(1357041634.34124608) ardcan1 0CF00300#D10006FFFF0F697D
(1357041634.34136832) ardcan1 0CF00400#3E7D800000000F7D
(1357041634.34151072) ardcan1 0CF00400#3E7D800000000F7D
(1357041634.34166432) ardcan1 18FEF200#000000006405FFFF
(1357041634.34178792) ardcan1 0CF00421#FFFFFFFFFFFFFFFF
(1357041634.34191164) ardcan1 18F0010B#CFFFFCFFFF0FFF3F
(1357041634.34203544) ardcan1 18FE9A00#D427FFFFFFFFFFFF
(1357041634.34215952) ardcan1 18F00F00#FFFFFFFFFFFFFFFF
(1357041634.34228332) ardcan1 18FEDF00#80A0287DFBFFFFF0
(1357041634.34240716) ardcan1 14F00031#CFFFFFFFFFFFFFFF
(1357041634.34253108) ardcan1 18FD0700#43FFFFFFFFFFFFFF
(1357041634.34265484) ardcan1 18F00F00#FFFFFFFFFFFFFFFF
(1357041634.34281008) ardcan1 18FDB400#573A2A39FFFFFFFF
(1357041634.34293392) ardcan1 18FEF117#F7FFFFFFFFFFFFFF
(1357041634.34305780) ardcan1 18FECA00#07F3880E0F01FFFF
(1357041634.34318148) ardcan1 18FEDF00#80A0287DFBFFFFF0
(1357041634.34330520) ardcan1 0CF00400#3E7D800000000F7D
(1357041634.34342880) ardcan1 0CF00300#D10006FFFF0F697D
(1357041634.34355264) ardcan1 18FD8C00#FFFF0000FFFFFFFF
(1357041634.34367644) ardcan1 18FEF100#FF0000FC33000000
(1357041634.34380012) ardcan1 0CF00A00#00000000FFFFFFFF
(1357041634.34395496) ardcan1 18FEFC17#FFA9FFFFFFFFFFFF
(1357041634.34407856) ardcan1 14FEF031#FFFFFFFFFFFC00FF
(1357041634.34420204) ardcan1 18F00100#FFFFFFFFFFFFFFFF
(1357041634.34432560) ardcan1 0CF00300#D10006FFFF0F697D
(1357041634.34444908) ardcan1 18FF3A3A#02300B00FFFFFFFF
(1357041634.34457264) ardcan1 1CEBFF17#0255342D32303130
(1357041634.34469628) ardcan1 14FEF131#CFFFFFF300FFFFF0
(1357041634.34481992) ardcan1 18FEF719#FFFFFFFFFFFFFA00
(1357041634.34494344) ardcan1 1CEBFF3A#0330303030303030
(1357041634.34509852) ardcan1 0CFD9200#F0FFFFFFFFFFFFFF
(1357041634.34524324) ardcan1 1CEBFF17#032A2A2AFFFFFFFF
(1357041634.34536676) ardcan1 0CF00400#3E7D800000000F7D
(1357041634.34549028) ardcan1 14F00131#FFFFFFFF00FFFFFF
(1357041634.34561384) ardcan1 18EBFF00#0430302A37393539
(1357041634.34573732) ardcan1 0CF00400#3E7D800000000F7D
(1357041634.34586068) ardcan1 18FEF100#FF0000FC33000000
(1357041634.34598420) ardcan1 0CF00A00#00000000FFFFFFFF
(1357041634.34610760) ardcan1 0CF00400#3E7D800000000F7D
(1357041634.34626240) ardcan1 14FF0221#FFFFFFFFFFFFFFFF
(1357041634.34638620) ardcan1 10FF2121#32000FC0C0FFFFFA
(1357041634.34651000) ardcan1 14F00131#FFFFFFFF00FFFFFF
(1357041634.34663376) ardcan1 0CF00400#3E7D800000000F7D
(1357041634.34675744) ardcan1 0CF00300#D10006FFFF0F697D
(1357041634.34688120) ardcan1 18FEDF00#80A0287DFBFFFFF0
(1357041634.34700508) ardcan1 14FEF031#FFFFFFFFFFFC00FF
(1357041634.34712892) ardcan1 0CF00300#D10006FFFF0F697D
(1357041634.34725244) ardcan1 0CF00400#3E7D800000000F7D
(1357041634.34740752) ardcan1 18FEF721#FFFFFFFFFC00FFFF
(1357041634.34753128) ardcan1 0CF00400#3E7D800000000F7D
(1357041634.34765484) ardcan1 18F00F00#FFFFFFFFFFFFFFFF
(1357041634.34777864) ardcan1 18FEDF00#80A0287DFBFFFFF0
(1357041634.34790260) ardcan1 14FDA421#FFFFFFFFFFFFFFFF
(1357041634.34802640) ardcan1 18FD0700#47FFFFFFFFFFFFFF
(1357041634.34815032) ardcan1 18F00F00#FFFFFFFFFFFFFFFF
(1357041634.34827412) ardcan1 18FEF200#000000006405FFFF
(1357041634.34839788) ardcan1 14F00031#CFFFFFFFFFFFFFFF
(1357041634.34855156) ardcan1 14F00131#FFFFFFFF00FFFFFF
(1357041634.34867392) ardcan1 0CF00400#3E7D800000000F7D
(1357041634.34879616) ardcan1 0CF00400#3E7D800000000F7D
(1357041634.34891848) ardcan1 14FDA421#FFFFFFFFFFFFFFFF
(1357041634.34906188) ardcan1 18FD8C00#FFFF0000FFFFFFFF
(1357041634.34918424) ardcan1 14FF0221#FFFFFFFFFFFFFFFF
(1357041634.34930656) ardcan1 0CF00A00#00000000FFFFFFFF
(1357041634.34942888) ardcan1 18FF2221#0300C31701F7FFFF
(1357041634.34955112) ardcan1 14F00131#FFFFFFFF00FFFFFF
(1357041634.34970332) ardcan1 18FF1919#01030B06FFFFFFFF
(1357041634.34982572) ardcan1 0CF00300#D10006FFFF0F697D
(1357041634.34994792) ardcan1 18F0010B#CFFFFCFFFF0FFF3F
(1357041635.35007020) ardcan1 18FEF600#FF0055FFFFFFFFFF
(1357041635.35019256) ardcan1 14FF0221#FFFFFFFFFFFFFFFF
(1357041635.35031512) ardcan1 0CF00400#3E7D800000000F7D
(1357041635.35043736) ardcan1 18FEF200#000000006405FFFF
(1357041635.35055936) ardcan1 0CFD9200#F0FFFFFFFFFFFFFF
(1357041635.35068176) ardcan1 14FEF131#CFFFFFF300FFFFF0
(1357041635.35083564) ardcan1 18F00100#FFFFFFFFFFFFFFFF
(1357041635.35095932) ardcan1 18F0010B#CFFFFCFFFF0FFF3F
(1357041635.35108288) ardcan1 18FEDF00#80A0287DFBFFFFF0
(1357041635.35120668) ardcan1 0CF00400#3E7D800000000F7D
(1357041635.35133036) ardcan1 0CF00300#D10006FFFF0F697D
(1357041635.35145400) ardcan1 14FF3131#0030030000FFFFFF
(1357041635.35157760) ardcan1 18FEF200#000000006405FFFF
(1357041635.35170128) ardcan1 14FEF131#CFFFFFF300FFFFF0
(1357041635.35182500) ardcan1 0CF00421#FFFFFFFFFFFFFFFF
(1357041635.35198044) ardcan1 18F0010B#CFFFFCFFFF0FFF3F
(1357041635.35210420) ardcan1 0CF00400#3E7D800000000F7D
(1357041635.35222792) ardcan1 0CF00300#D10006FFFF0F697D
(1357041635.35235156) ardcan1 0CF00400#3E7D800000000F7D
(1357041635.35247512) ardcan1 18FEF100#FF0000FC33000000
(1357041635.35259864) ardcan1 14FEF121#F7FFFF0FFFFFFFFF
(1357041635.35272244) ardcan1 0CF00400#3E7D800000000F7D
(1357041635.35286616) ardcan1 0CF00421#FFFFFFFFFFFFFFFF
(1357041635.35298992) ardcan1 14FEF031#FFFFFFFFFFFC00FF
(1357041635.35314508) ardcan1 14FF0121#FFFFFFFFFFFFFCFF
(1357041635.35326872) ardcan1 0CF00400#3E7D800000000F7D
(1357041635.35339220) ardcan1 0CF00400#3E7D800000000F7D
(1357041635.35351572) ardcan1 14F00131#FFFFFFFF00FFFFFF
(1357041635.35363928) ardcan1 18F00F00#FFFFFFFFFFFFFFFF
(1357041635.35376300) ardcan1 18FECA17#00FF00000000FFFF
(1357041635.35388648) ardcan1 10FF2121#32000FC0C0FFFFFA
(1357041635.35401004) ardcan1 18FEBF0B#00007D7D7D7DFFFF
(1357041635.35413348) ardcan1 0CF00400#3E7D800000000F7D
(1357041635.35428828) ardcan1 1CECFF28#20170003FFEBFE00
(1357041635.35441168) ardcan1 14F00031#CFFFFFFFFFFFFFFF
(1357041635.35453532) ardcan1 18FD8C00#FFFF0000FFFFFFFF
(1357041635.35465900) ardcan1 18FEF100#FF0000FC33000000
(1357041635.35478244) ardcan1 18FD2000#553AFFFFFFFFFFFF
(1357041635.35490600) ardcan1 0CF00400#3E7D800000000F7D
(1357041635.35502944) ardcan1 1CEBFF28#01414D45544B2A46
(1357041635.35515308) ardcan1 18FEE000#26DA0A00D55D5100
(1357041635.35527668) ardcan1 0CF00400#3E7D800000000F7D
(1357041635.35543184) ardcan1 14F00031#CFFFFFFFFFFFFFFF
(1357041635.35555576) ardcan1 18FEF600#FF0055FFFFFFFFFF
(1357041635.35567960) ardcan1 18FEDF00#80A0287DFBFFFFF0
(1357041635.35580332) ardcan1 0CF00400#3E7D800000000F7D
(1357041635.35592680) ardcan1 0CF00300#D10006FFFF0F697D
(1357041635.35605048) ardcan1 1CEBFF28#0255454C204D4F4E
(1357041635.35617424) ardcan1 14FF0121#FFFFFFFFFFFFFCFF
(1357041635.35629812) ardcan1 18F00100#FFFFFFFFFFFFFFFF
(1357041635.35642188) ardcan1 14F00031#CFFFFFFFFFFFFFFF
(1357041635.35659860) ardcan1 1CEBFF19#04312D303634302A
(1357041635.35672236) ardcan1 0CF00400#3E7D800000000F7D
(1357041635.35684604) ardcan1 18FEF100#FF0000FC33000000
(1357041635.35696960) ardcan1 18F0010B#CFFFFCFFFF0FFF3F
(1357041635.35709356) ardcan1 0CF00400#3E7D800000000F7D
(1357041635.35721708) ardcan1 18FEF621#FFFFFFFFFFFFFFFF
(1357041635.35734080) ardcan1 18FEE000#26DA0A00D55D5100
(1357041635.35746448) ardcan1 14FF3131#0030030000FFFFFF
(1357041635.35758820) ardcan1 14FEF121#F7FFFF0FFFFFFFFF
(1357041635.35774212) ardcan1 18FEF000#FFFFFF201CF0FFFF
(1357041635.35786452) ardcan1 18EBFF00#0633313520202020
(1357041635.35798684) ardcan1 14FEF031#FFFFFFFFFFFC00FF
(1357041635.35810916) ardcan1 18E00031#FFFFFFFFFFF3FFFF
(1357041635.35823148) ardcan1 0CF00400#3E7D800000000F7D
(1357041635.35835368) ardcan1 10FF2121#32000FC0C0FFFFFA
(1357041635.35847596) ardcan1 0CF00300#D10006FFFF0F697D
(1357041635.35859832) ardcan1 14FEF121#F7FFFF0FFFFFFFFF
(1357041635.35872056) ardcan1 0CF00400#3E7D800000000F7D
(1357041635.35896216) ardcan1 0CFD9200#F0FFFFFFFFFFFFFF
(1357041635.35908468) ardcan1 14FF0121#FFFFFFFFFFFFFCFF
(1357041635.35920708) ardcan1 14FF0221#FFFFFFFFFFFFFFFF
(1357041635.35932956) ardcan1 0CF00400#3E7D800000000F7D
(1357041635.35945188) ardcan1 18FF3A3A#02300B00FFFFFFFF
(1357041635.35957416) ardcan1 0CF00300#D10006FFFF0F697D
(1357041635.35969644) ardcan1 14FEF131#CFFFFFF300FFFFF0
(1357041635.35981876) ardcan1 0CF00400#3E7D800000000F7D
(1357041635.35994096) ardcan1 0CF00300#D10006FFFF0F697D
(1357041636.36009488) ardcan1 18FD8C00#FFFF0000FFFFFFFF
(1357041636.36023892) ardcan1 18EBFF00#03C7C02BFFFF0D0C
(1357041636.36036264) ardcan1 18FEF200#000000006405FFFF
(1357041636.36048636) ardcan1 14F00131#FFFFFFFF00FFFFFF
(1357041636.36061008) ardcan1 14FEF121#F7FFFF0FFFFFFFFF
(1357041636.36073380) ardcan1 0CF00400#3E7D800000000F7D
(1357041636.36085748) ardcan1 18EBFF00#04204E3C3C8C7DC6
(1357041636.36098124) ardcan1 18FEDF00#80A0287DFBFFFFF0
(1357041636.36110504) ardcan1 0CF00400#3E7D800000000F7D
(1357041636.36126024) ardcan1 0CF00300#D10006FFFF0F697D
(1357041636.36138396) ardcan1 0CF00A00#00000000FFFFFFFF
(1357041636.36150740) ardcan1 0CF00400#3E7D800000000F7D
(1357041636.36163100) ardcan1 18FEF117#F7FFFFFFFFFFFFFF
(1357041636.36175464) ardcan1 18FEE000#26DA0A00D55D5100
(1357041636.36187840) ardcan1 18FEDF00#80A0287DFBFFFFF0
(1357041636.36200212) ardcan1 14FEF031#FFFFFFFFFFFC00FF
(1357041636.36212584) ardcan1 0CF00300#D10006FFFF0F697D
(1357041636.36224936) ardcan1 0CF00400#3E7D800000000F7D
(1357041636.36240460) ardcan1 18FEF100#FF0000FC33000000
(1357041636.36252796) ardcan1 0CF00300#D10006FFFF0F697D
(1357041636.36265148) ardcan1 0CF00400#3E7D800000000F7D
(1357041636.36277488) ardcan1 14FEF131#CFFFFFF300FFFFF0
(1357041636.36289848) ardcan1 14FDA421#FFFFFFFFFFFFFFFF
(1357041636.36302200) ardcan1 14FEF031#FFFFFFFFFFFC00FF
(1357041636.36314552) ardcan1 0CF00400#3E7D800000000F7D
(1357041636.36326880) ardcan1 0CF00300#D10006FFFF0F697D
(1357041636.36339236) ardcan1 14F00031#CFFFFFFFFFFFFFFF
(1357041636.36354720) ardcan1 0CF00400#3E7D800000000F7D
(1357041636.36367068) ardcan1 18FEF200#000000006405FFFF
(1357041636.36379404) ardcan1 0CF00421#FFFFFFFFFFFFFFFF
(1357041636.36391768) ardcan1 14FDA421#FFFFFFFFFFFFFFFF
(1357041636.36406264) ardcan1 18FEBF0B#00007D7D7D7DFFFF
(1357041636.36418632) ardcan1 14FF0221#FFFFFFFFFFFFFFFF
(1357041636.36431000) ardcan1 18FF2421#BFF0FFFFFFFFFFFF
(1357041636.36443372) ardcan1 14FF3131#0030030000FFFFFF
(1357041636.36455700) ardcan1 18FEF117#F7FFFFFFFFFFFFFF
(1357041636.36471220) ardcan1 18FEDF00#80A0287DFBFFFFF0
(1357041636.36483596) ardcan1 18FEF719#FFFFFFFFFFFFF800
(1357041636.36495972) ardcan1 14FDA421#FFFFFFFFFFFFFFFF
(1357041636.36508344) ardcan1 14FF0121#FFFFFFFFFFFFFCFF
(1357041636.36520728) ardcan1 14FF0221#FFFFFFFFFFFFFFFF
(1357041636.36533100) ardcan1 18FDB200#FFFFFFFF0000FFFF
(1357041636.36545480) ardcan1 14FF3131#0030030000FFFFFF
(1357041636.36557848) ardcan1 18FEF117#F7FFFFFFFFFFFFFF
(1357041636.36570232) ardcan1 0CF00400#3E7D800000000F7D
(1357041636.36585752) ardcan1 0CF00300#D10006FFFF0F697D
(1357041636.36598120) ardcan1 14FDA421#FFFFFFFFFFFFFFFF
(1357041636.36610480) ardcan1 14FF0121#FFFFFFFFFFFFFCFF
(1357041636.36622864) ardcan1 0CF00400#3E7D800000000F7D
(1357041636.36635212) ardcan1 18F00F00#FFFFFFFFFFFFFFFF
(1357041636.36647588) ardcan1 14FF3131#0030030000FFFFFF
(1357041636.36659952) ardcan1 0CF00400#3E7D800000000F7D
(1357041636.36672324) ardcan1 14FEF131#CFFFFFF300FFFFF0
(1357041636.36684692) ardcan1 1CEBFF17#0255342D32303130
(1357041636.36700080) ardcan1 1CEBFF19#0331323036323232
(1357041636.36712312) ardcan1 14FF0121#FFFFFFFFFFFFFCFF
(1357041636.36724556) ardcan1 18FEE000#26DA0A00D55D5100
(1357041636.36736768) ardcan1 1CEBFF28#0255454C204D4F4E
(1357041636.36748996) ardcan1 14F00131#FFFFFFFF00FFFFFF
(1357041636.36761228) ardcan1 18EBFF00#0430302A37393539
(1357041636.36775704) ardcan1 0CF00400#3E7D800000000F7D
(1357041636.36787916) ardcan1 18FEF100#FF0000FC33000000
(1357041636.36800140) ardcan1 18F0010B#CFFFFCFFFF0FFF3F
(1357041636.36815372) ardcan1 14FF0121#FFFFFFFFFFFFFCFF
(1357041636.36827608) ardcan1 14FF0221#FFFFFFFFFFFFFFFF
(1357041636.36839832) ardcan1 18F00100#FFFFFFFFFFFFFFFF
(1357041636.36852068) ardcan1 18FEF117#F7FFFFFFFFFFFFFF
(1357041636.36864304) ardcan1 0CF00400#3E7D800000000F7D
(1357041636.36876520) ardcan1 0CF00300#D10006FFFF0F697D
(1357041636.36888736) ardcan1 14FDA421#FFFFFFFFFFFFFFFF
(1357041636.36900976) ardcan1 18F0010B#CFFFFCFFFF0FFF3F
(1357041636.36913216) ardcan1 18FEF200#000000006405FFFF
(1357041636.36928592) ardcan1 10FECA21#00FF00000000FFFF
(1357041636.36940944) ardcan1 18FF2221#0300C31701F7FFFF
(1357041636.36953320) ardcan1 0CF00400#3E7D800000000F7D
(1357041636.36965680) ardcan1 18F00F00#FFFFFFFFFFFFFFFF
(1357041636.36978052) ardcan1 18FEDF00#80A0287DFBFFFFF0
(1357041636.36990416) ardcan1 10FF2121#32000FC0C0FFFFFA
(1357041637.37002788) ardcan1 18FD0700#47FFFFFFFFFFFFFF
(1357041637.37041516) ardcan1 18F00F00#FFFFFFFFFFFFFFFF
(1357041637.37283204) ardcan1 18FEE000#26DA0A00D55D5100
(1357041637.37642348) ardcan1 18F00F00#FFFFFFFFFFFFFFFF
(1357041637.37890780) ardcan1 1CEBFF28#01414D45544B2A46
(1357041638.38065464) ardcan1 18FEF200#000000006405FFFF
(1357041638.38078504) ardcan1 0CF00400#3E7D800000000F7D
(1357041638.38090864) ardcan1 10FF2121#32000FC0C0FFFFFA
(1357041638.38103256) ardcan1 18FEF200#000000006405FFFF
(1357041638.38115620) ardcan1 18FEBF0B#00007D7D7D7DFFFF
(1357041638.38127992) ardcan1 18FDB300#FFFF5C38FFFFFFFF
(1357041638.38140348) ardcan1 10FF2121#32000FC0C0FFFFFA
(1357041638.38156032) ardcan1 18FDB200#FFFFFFFF0000FFFF
(1357041638.38168388) ardcan1 14FEF131#CFFFFFF300FFFFF0
(1357041638.38180748) ardcan1 0CF00421#FFFFFFFFFFFFFFFF
(1357041638.38193112) ardcan1 18F00F00#FFFFFFFFFFFFFFFF
(1357041638.38205500) ardcan1 18F0010B#CFFFFCFFFF0FFF3F
(1357041638.38217852) ardcan1 18FEDF00#80A0287DFBFFFFF0
(1357041638.38230216) ardcan1 0CF00400#3E7D800000000F7D
(1357041638.38242560) ardcan1 0CF00300#D10006FFFF0F697D
(1357041638.38254920) ardcan1 0CF00400#3E7D800000000F7D
(1357041638.38270392) ardcan1 18FEF600#FF0055FFFFFFFFFF
(1357041638.38282740) ardcan1 0CF00300#D10006FFFF0F697D
(1357041638.38295092) ardcan1 18FD3E00#0D3AFFE538FFFFFF
(1357041638.38307452) ardcan1 18F0010B#CFFFFCFFFF0FFF3F
(1357041638.38319800) ardcan1 18FEE000#26DA0A00D55D5100
(1357041638.38332156) ardcan1 0CF00400#3E7D800000000F7D
(1357041638.38344496) ardcan1 18F00F00#FFFFFFFFFFFFFFFF
(1357041638.38356864) ardcan1 18FEDD00#FF0000FFFFFFFFFF
(1357041638.38369212) ardcan1 0CF00400#3E7D800000000F7D
(1357041638.38384744) ardcan1 18FEEE00#85FF6E2DFFFFFFFF
(1357041638.38397132) ardcan1 18F00F00#FFFFFFFFFFFFFFFF
(1357041638.38409524) ardcan1 0CF00400#3E7D800000000F7D
(1357041638.38421856) ardcan1 18EA0017#E5FE00
(1357041638.38433804) ardcan1 18FF2421#BFF0FFFFFFFFFFFF
(1357041638.38449764) ardcan1 18FF3A3A#02300B00FFFFFFFF
(1357041638.38462144) ardcan1 18FEF000#FFFFFF201CF0FFFF
(1357041638.38474520) ardcan1 18FF1B19#FFFCFFFFFFFFFFFF
(1357041638.38486912) ardcan1 18FEF100#FF0000FC33000000
(1357041638.38502452) ardcan1 14FEF031#FFFFFFFFFFFC00FF
(1357041638.38514832) ardcan1 18FEBF0B#00007D7D7D7DFFFF
(1357041638.38527212) ardcan1 0CF00300#D10006FFFF0F697D
(1357041638.38539612) ardcan1 10FF2121#32000FC0C0FFFFFA
(1357041638.38551980) ardcan1 0CF00400#3E7D800000000F7D
(1357041638.38564340) ardcan1 0CFD9200#F0FFFFFFFFFFFFFF
(1357041638.38576712) ardcan1 0CF00400#3E7D800000000F7D
(1357041638.38589092) ardcan1 0CF00400#3E7D800000000F7D
(1357041638.38601444) ardcan1 14FF2321#041CE1FFFFFFFFFF
(1357041638.38616836) ardcan1 18FEBF0B#00007D7D7D7DFFFF
(1357041638.38629064) ardcan1 0CF00400#3E7D800000000F7D
(1357041638.38641272) ardcan1 18EAFF00#EBFE00
(1357041638.38653084) ardcan1 1CECFF3A#201C0004FFEBFE00
(1357041638.38665328) ardcan1 0CF00300#D10006FFFF0F697D
(1357041638.38677556) ardcan1 1CEBFF28#01414D45544B2A46
(1357041638.38689808) ardcan1 10FF2121#32000FC0C0FFFFFA
(1357041638.38702020) ardcan1 14FF2321#041CE1FFFFFFFFFF
(1357041638.38714264) ardcan1 1CEBFF17#0144544E412A4943
(1357041638.38729500) ardcan1 0CF00300#D10006FFFF0F697D
(1357041638.38741736) ardcan1 10FF2121#32000FC0C0FFFFFA
(1357041638.38753968) ardcan1 18EBFF00#0258317531304431
(1357041638.38766212) ardcan1 18FEF600#FF0055FFFFFFFFFF
(1357041638.38778464) ardcan1 0CF00421#FFFFFFFFFFFFFFFF
(1357041638.38790704) ardcan1 10FF2121#32000FC0C0FFFFFA
(1357041638.38802936) ardcan1 18FEF200#000000006405FFFF
(1357041638.38815160) ardcan1 1CEBFF3A#0330303030303030
(1357041638.38829404) ardcan1 18F00100#FFFFFFFFFFFFFFFF
(1357041638.38844820) ardcan1 10FF2121#32000FC0C0FFFFFA
(1357041638.38857180) ardcan1 0CF00400#3E7D800000000F7D
(1357041638.38869548) ardcan1 0CF00400#3E7D800000000F7D
(1357041638.38881908) ardcan1 1CEBFF28#0349544F522A2A
(1357041638.38894192) ardcan1 18F00F00#FFFFFFFFFFFFFFFF
(1357041638.38906564) ardcan1 18FEF200#000000006505FFFF
(1357041638.38918936) ardcan1 18F00E00#FFFFFFFFFFFFFFFF
(1357041638.38931320) ardcan1 18FF2421#BFF0FFFFFFFFFFFF
(1357041638.38943720) ardcan1 14FF3131#0030030000FFFFFF
(1357041638.38959260) ardcan1 0CF00400#3E7D800000000F7D
(1357041638.38971644) ardcan1 18FF1B19#FFFCFFFFFFFFFFFF
(1357041638.38984028) ardcan1 18FEF100#FF0000FC33000000
(1357041638.38996384) ardcan1 18FCDC00#E0FEFEFFFFFFFFFF
(1357041639.39008748) ardcan1 18F0010B#CFFFFCFFFF0FFF3F
(1357041639.39021136) ardcan1 14FF0221#FFFFFFFFFFFFFFFF
(1357041639.39033516) ardcan1 0CF00400#3E7D800000000F7D
(1357041639.39045888) ardcan1 18F00F00#FFFFFFFFFFFFFFFF
(1357041639.39058268) ardcan1 14FEF121#F7FFFF0FFFFFFFFF
(1357041639.39073820) ardcan1 0CF00400#3E7D800000000F7D
(1357041639.39086156) ardcan1 18FEF100#FF0000FC33000000
(1357041639.39098508) ardcan1 0CF00A00#00000000FFFFFFFF
(1357041639.39110856) ardcan1 18FEF117#F7FFFFFFFFFFFFFF
(1357041639.39123236) ardcan1 0CF00300#D10006FFFF0F697D
(1357041639.39135580) ardcan1 0CF00400#3E7D800000000F7D
(1357041639.39147928) ardcan1 0CF00A00#00000000FFFFFFFF
(1357041639.39160264) ardcan1 18FEF000#FFFFFF201CF0FFFF
(1357041639.39172644) ardcan1 18FD8C00#FFFF0000FFFFFFFF
(1357041639.39188128) ardcan1 18FEF100#FF0000FC33000000
(1357041639.39202584) ardcan1 14FF2321#041CE1FFFFFFFFFF
(1357041639.39214948) ardcan1 18FEBF0B#00007D7D7D7DFFFF
(1357041639.39227312) ardcan1 0CF00300#D10006FFFF0F697D
(1357041639.39239660) ardcan1 10FF2121#32000FC0C0FFFFFA
(1357041639.39252040) ardcan1 0CF00400#3E7D800000000F7D
(1357041639.39264388) ardcan1 18FEF600#FF0055FFFFFFFFFF
(1357041639.39276756) ardcan1 0CF00400#3E7D800000000F7D
(1357041639.39289092) ardcan1 0CF00400#3E7D800000000F7D
(1357041639.39304608) ardcan1 14FF2321#041CE1FFFFFFFFFF
(1357041639.39316980) ardcan1 18FEBF0B#00007D7D7D7DFFFF
(1357041639.39329344) ardcan1 0CF00400#3E7D800000000F7D
(1357041639.39341708) ardcan1 10FF2121#32000FC0C0FFFFFA
(1357041639.39354092) ardcan1 18FEDD00#FF0000FFFFFFFFFF
(1357041639.39366468) ardcan1 0CF00300#D10006FFFF0F697D
(1357041639.39378836) ardcan1 18FEEE00#85FF6E2DFFFFFFFF
(1357041639.39391212) ardcan1 10FF2121#32000FC0C0FFFFFA
(1357041639.39403596) ardcan1 18FEF200#000000006405FFFF
(1357041639.39419132) ardcan1 18FEBF0B#00007D7D7D7DFFFF
(1357041639.39431520) ardcan1 18FF2421#C0F0FFFFFFFFFFFF
(1357041639.39443884) ardcan1 18E0FF00#00FFFFFFFFFFFFFF
(1357041639.39456272) ardcan1 18FEF73A#FFFFFFFFFFFFF800
(1357041639.39468640) ardcan1 18F00E00#FFFFFFFFFFFFFFFF
(1357041639.39481016) ardcan1 18FEF719#FFFFFFFFFFFFFA00
(1357041639.39493388) ardcan1 18F00F00#FFFFFFFFFFFFFFFF
(1357041639.39505780) ardcan1 18FEF200#000000006505FFFF
(1357041639.39518144) ardcan1 18FEDF00#80A0287DFBFFFFF0
(1357041639.39533552) ardcan1 0CF00400#3E7D800000000F7D
(1357041639.39545776) ardcan1 18F00F00#FFFFFFFFFFFFFFFF
(1357041639.39558028) ardcan1 18FEDF00#80A0287DFBFFFFF0
(1357041639.39572372) ardcan1 0CF00400#3E7D800000000F7D
(1357041639.39584600) ardcan1 18FEF100#FF0000FC33000000
(1357041639.39596820) ardcan1 18F00F00#FFFFFFFFFFFFFFFF
(1357041639.39609068) ardcan1 0CF00400#3E7D800000000F7D
(1357041639.39621292) ardcan1 18FEE000#26DA0A00D55D5100
(1357041639.39633536) ardcan1 0CF00400#3E7D800000000F7D
(1357041639.39648776) ardcan1 18F00F00#FFFFFFFFFFFFFFFF
(1357041639.39661020) ardcan1 18FEF000#FFFFFF201CF0FFFF
(1357041639.39673260) ardcan1 18FD8C00#FFFF0000FFFFFFFF
(1357041639.39685496) ardcan1 18FEF100#FF0000FC33000000
(1357041639.39697724) ardcan1 18FD2000#4F3AFFFFFFFFFFFF
(1357041639.39709976) ardcan1 14FF0121#FFFFFFFFFFFFFCFF
(1357041639.39722220) ardcan1 14FF0221#FFFFFFFFFFFFFFFF
(1357041639.39734484) ardcan1 1CEBFF17#0144544E412A4943
(1357041639.39746732) ardcan1 18F00F00#FFFFFFFFFFFFFFFF
(1357041639.39762144) ardcan1 18FEDF00#80A0287DFBFFFFF0
(1357041639.39774528) ardcan1 0CF00400#3E7D800000000F7D
(1357041639.39786896) ardcan1 18FEF100#FF0000FC33000000
(1357041639.39799252) ardcan1 18FEDF00#80A0287DFBFFFFF0
(1357041639.39811636) ardcan1 18F0010B#CFFFFCFFFF0FFF3F
(1357041639.39824012) ardcan1 0CF00300#D10006FFFF0F697D
(1357041639.39836396) ardcan1 0CF00400#3E7D800000000F7D
(1357041639.39848760) ardcan1 18F0000F#F07D7DFF0FFFFFFF
(1357041639.39861144) ardcan1 18EBFF00#0430302A37393539
(1357041639.39876684) ardcan1 1CEBFF19#04312D303634302A
(1357041639.39889084) ardcan1 0CF00400#3E7D800000000F7D
(1357041639.39901452) ardcan1 14FF2321#041CE1FFFFFFFFFF
(1357041639.39913836) ardcan1 18EBFF00#05343439312A3632
(1357041639.39926204) ardcan1 10FECA21#00FF00000000FFFF
(1357041639.39938588) ardcan1 14F00031#CFFFFFFFFFFFFFFF
(1357041639.39952984) ardcan1 0CF00400#3E7D800000000F7D
(1357041639.39965344) ardcan1 0CF00300#D10006FFFF0F697D
(1357041639.39977704) ardcan1 18FEDF00#80A0287DFBFFFFF0
(1357041639.39993252) ardcan1 10FF2121#32000FC0C0FFFFFA
(1357041640.40005612) ardcan1 18FEF200#000000006405FFFF
(1357041640.40017980) ardcan1 18FEDF00#80A0287DFBFFFFF0
(1357041640.40030352) ardcan1 0CF00400#3E7D800000000F7D
(1357041640.40042716) ardcan1 0CF00300#D10006FFFF0F697D
(1357041640.40055056) ardcan1 0CF00400#3E7D800000000F7D
(1357041640.40067408) ardcan1 0CFD9200#F0FFFFFFFFFFFFFF
(1357041640.40079764) ardcan1 10FECA47#00FF00000000FFFF
(1357041640.40092120) ardcan1 18FEF117#F7FFFFFFFFFFFFFF
(1357041640.40107620) ardcan1 18FEF200#000000006505FFFF
(1357041640.40119980) ardcan1 14FF0221#FFFFFFFFFFFFFFFF
(1357041640.40132360) ardcan1 0CF00400#3E7D800000000F7D
(1357041640.40144712) ardcan1 18F00F00#FFFFFFFFFFFFFFFF
(1357041640.40157064) ardcan1 18FDB200#FFFFFFFF0000FFFF
(1357041640.40169432) ardcan1 0CF00400#3E7D800000000F7D
(1357041640.40181792) ardcan1 0CF00421#FFFFFFFFFFFFFFFF
(1357041640.40194164) ardcan1 18F00F00#FFFFFFFFFFFFFFFF
(1357041640.40206532) ardcan1 18FEF200#000000006405FFFF
(1357041640.40222060) ardcan1 18FEEF00#FFFFFF00007DFFFA
(1357041640.40234424) ardcan1 0CF00400#3E7D800000000F7D
(1357041640.40246780) ardcan1 14FF3131#0030030000FFFFFF
(1357041640.40259128) ardcan1 18FEF000#FFFFFF201CF0FFFF
(1357041640.40271520) ardcan1 0CF00400#3E7D800000000F7D
(1357041640.40283892) ardcan1 18FEF100#FF0000FC33000000
(1357041640.40296264) ardcan1 18FEF117#F7FFFFFFFFFFFFFF
(1357041640.40308648) ardcan1 18FEF200#000000006505FFFF
(1357041640.40321032) ardcan1 14FF0221#FFFFFFFFFFFFFFFF
(1357041640.40338688) ardcan1 18FEF700#FFFFFFFFFF00FFFF
(1357041640.40351072) ardcan1 0CF00400#3E7D800000000F7D
(1357041640.40363420) ardcan1 0CF00300#D10006FFFF0F697D
(1357041640.40375796) ardcan1 0CF00400#3E7D800000000F7D
(1357041640.40388152) ardcan1 14FDA421#FFFFFFFFFFFFFFFF
(1357041640.40400544) ardcan1 14FF2321#041CE1FFFFFFFFFF
(1357041640.40412928) ardcan1 18F0010B#CFFFFCFFFF0FFF3F
(1357041640.40425328) ardcan1 18FEBD00#00F0FFFFFFFFFFFF
(1357041640.40437700) ardcan1 18FF2421#C0F0FFFFFFFFFFFF
(1357041640.40453108) ardcan1 18FEF73A#FFFFFFFFFFFFF800
(1357041640.40465360) ardcan1 0CF00300#D10006FFFF0F697D
(1357041640.40477604) ardcan1 18E00019#00FFFFFFFFFFFFFF
(1357041640.40489840) ardcan1 10FF2121#32000FC0C0FFFFFA
(1357041640.40502080) ardcan1 14FF2321#041CE1FFFFFFFFFF
(1357041640.40514320) ardcan1 18F0010B#CFFFFCFFFF0FFF3F
(1357041640.40526568) ardcan1 0CF00300#D10006FFFF0F697D
(1357041640.40538784) ardcan1 14F00031#CFFFFFFFFFFFFFFF
(1357041640.40551024) ardcan1 0CF00400#3E7D800000000F7D
(1357041640.40566244) ardcan1 0CFD9200#F0FFFFFFFFFFFFFF
(1357041640.40578488) ardcan1 0CF00421#FFFFFFFFFFFFFFFF
(1357041640.40590716) ardcan1 10FF2121#32000FC0C0FFFFFA
(1357041640.40602952) ardcan1 18FEF200#000000006505FFFF
(1357041640.40615176) ardcan1 18F0010B#CFFFFCFFFF0FFF3F
(1357041640.40627420) ardcan1 18FDB300#FFFF5838FFFFFFFF
(1357041640.40639660) ardcan1 10FF2121#32000FC0C0FFFFFA
(1357041640.40651904) ardcan1 0CF00400#3E7D800000000F7D
(1357041640.40664132) ardcan1 0CF00300#D10006FFFF0F697D
(1357041640.40679536) ardcan1 18FD8C00#FFFF0000FFFFFFFF
(1357041640.40691908) ardcan1 10FF2121#32000FC0C0FFFFFA
(1357041640.40706320) ardcan1 1CEBFF3A#0146524748542A2A
(1357041640.40718692) ardcan1 18FEDF00#80A0287DFBFFFFF0
(1357041640.40731060) ardcan1 0CF00400#3E7D800000000F7D
(1357041640.40743404) ardcan1 18FEDB00#FFFFDA37FFFFFFFF
(1357041640.40755792) ardcan1 18EBFF00#0258317531304431
(1357041640.40768164) ardcan1 14FEF131#CFFFFFF300FFFFF0
(1357041640.40780548) ardcan1 1CEBFF17#0255342D32303130
(1357041640.40796076) ardcan1 18F00F00#FFFFFFFFFFFFFFFF
(1357041640.40808488) ardcan1 18E00031#FFFFFFFFFFF3FFFF
(1357041640.40820860) ardcan1 14FF0221#FFFFFFFFFFFFFFFF
(1357041640.40833248) ardcan1 0CF00400#3E7D800000000F7D
(1357041640.40845612) ardcan1 1CEBFF17#032A2A2AFFFFFFFF
(1357041640.40858000) ardcan1 18FEDF00#80A0287DFBFFFFF0
(1357041640.40870372) ardcan1 0CF00400#3E7D800000000F7D
(1357041640.40882736) ardcan1 0CF00300#D10006FFFF0F697D
(1357041640.40895104) ardcan1 18F00F00#FFFFFFFFFFFFFFFF
(1357041640.40910644) ardcan1 18EBFF0F#03C02B9E0724FFFF
(1357041640.40922984) ardcan1 0CF00300#D10006FFFF0F697D
(1357041640.40935336) ardcan1 18FF2421#C0F0FFFFFFFFFFFF
(1357041640.40947700) ardcan1 0CF00A00#00000000FFFFFFFF
(1357041640.40960068) ardcan1 18FEF000#FFFFFF201CF0FFFF
(1357041640.40972432) ardcan1 18FF1B19#FFFCFFFFFFFFFFFF
(1357041640.40984812) ardcan1 18FEF100#FF0000FC33000000
(1357041640.40997164) ardcan1 18FCDC00#E0FEFEFFFFFFFFFF
(1357041641.41009536) ardcan1 0CF00400#3E7D800000000F7D
(1357041641.41025008) ardcan1 18FEBF0B#00007D7D7D7DFFFF
(1357041641.41037364) ardcan1 0CF00400#3E7D800000000F7D
(1357041641.41049712) ardcan1 0CF00400#3E7D800000000F7D
(1357041641.41062060) ardcan1 18FEF000#FFFFFF201CF0FFFF
(1357041641.41074432) ardcan1 0CF00400#3E7D800000000F7D
(1357041641.41088892) ardcan1 18FEF100#FF0000FC33000000
(1357041641.41101248) ardcan1 14FF2321#041CE1FFFFFFFFFF
(1357041641.41113628) ardcan1 14FF0121#FFFFFFFFFFFFFCFF
(1357041641.41125988) ardcan1 0CF00300#D10006FFFF0F697D
(1357041641.41141512) ardcan1 14F00031#CFFFFFFFFFFFFFFF
(1357041641.41153892) ardcan1 18FDB200#FFFFFFFF0000FFFF
(1357041641.41166260) ardcan1 0CF00300#D10006FFFF0F697D
(1357041641.41178612) ardcan1 0CF00421#FFFFFFFFFFFFFFFF
(1357041641.41191000) ardcan1 10FF2121#32000FC0C0FFFFFA
(1357041641.41203376) ardcan1 18FEF200#000000006505FFFF
(1357041641.41215744) ardcan1 18F0010B#CFFFFCFFFF0FFF3F
(1357041641.41228120) ardcan1 18F00100#FFFFFFFFFFFFFFFF
(1357041641.41240512) ardcan1 10FF2121#32000FC0C0FFFFFA
(1357041641.41256056) ardcan1 0CF00400#3E7D800000000F7D
(1357041641.41268428) ardcan1 14FEF131#CFFFFFF300FFFFF0
(1357041641.41280808) ardcan1 0CF00421#FFFFFFFFFFFFFFFF
(1357041641.41293200) ardcan1 18FD3E00#0A3AFFDF38FFFFFF
(1357041641.41305564) ardcan1 18FEF200#000000006405FFFF
(1357041641.41317924) ardcan1 18FEDF00#80A0287DFBFFFFF0
(1357041641.41330292) ardcan1 0CF00400#3E7D800000000F7D
(1357041641.41342668) ardcan1 0CF00300#D10006FFFF0F697D
(1357041641.41355036) ardcan1 14FF3131#0030030000FFFFFF
(1357041641.41370432) ardcan1 0CF00300#D10006FFFF0F697D
(1357041641.41382660) ardcan1 0CF00300#D10006FFFF0F697D
(1357041641.41394892) ardcan1 18F00F00#FFFFFFFFFFFFFFFF
(1357041641.41407120) ardcan1 18FEF200#000000006405FFFF
(1357041641.41419328) ardcan1 18FEE000#26DA0A00D55D5100
(1357041641.41431552) ardcan1 18FF2421#C0F0FFFFFFFFFFFF
(1357041641.41443800) ardcan1 18F00F00#FFFFFFFFFFFFFFFF
(1357041641.41458136) ardcan1 18FEF73A#FFFFFFFFFFFFF800
(1357041641.41470372) ardcan1 18FEF117#F7FFFFFFFFFFFFFF
(1357041641.41485608) ardcan1 0CF00300#D10006FFFF0F697D
(1357041641.41497840) ardcan1 18FEDF00#80A0287DFBFFFFF0
(1357041641.41510072) ardcan1 14FF0121#FFFFFFFFFFFFFCFF
(1357041641.41522320) ardcan1 0CF00300#D10006FFFF0F697D
(1357041641.41534544) ardcan1 18FE9A00#D627FFFFFFFFFFFF
(1357041641.41546796) ardcan1 14FF3131#0030030000FFFFFF
(1357041641.41559016) ardcan1 18FEF000#FFFFFF201CF0FFFF
(1357041641.41571264) ardcan1 0CF00400#3E7D800000000F7D
(1357041641.41583496) ardcan1 18FEF100#FF0000FC33000000
(1357041641.41598880) ardcan1 18F00F00#FFFFFFFFFFFFFFFF
(1357041641.41611256) ardcan1 14FF0121#FFFFFFFFFFFFFCFF
(1357041641.41623656) ardcan1 18FECA00#07F3880E0F01FFFF
(1357041641.41636028) ardcan1 0CF00400#3E7D800000000F7D
(1357041641.41648400) ardcan1 14F00131#FFFFFFFF00FFFFFF
(1357041641.41660776) ardcan1 18FEF000#FFFFFF201CF0FFFF
(1357041641.41673160) ardcan1 18FD8C00#FFFF0000FFFFFFFF
(1357041641.41685528) ardcan1 18FEF100#FF0000FC33000000
(1357041641.41697892) ardcan1 18FD2000#4D3AFFFFFFFFFFFF
(1357041641.41713428) ardcan1 14FF0121#FFFFFFFFFFFFFCFF
(1357041641.41725820) ardcan1 18FEBF0B#00007D7D7D7DFFFF
(1357041641.41738192) ardcan1 14F00031#CFFFFFFFFFFFFFFF
(1357041641.41750588) ardcan1 1CEBFF28#01414D45544B2A46
(1357041641.41762972) ardcan1 0CF00300#D10006FFFF0F697D
(1357041641.41775356) ardcan1 0CF00400#3E7D800000000F7D
(1357041641.41787708) ardcan1 18FEF100#FF0000FC33000000
(1357041641.41800064) ardcan1 14FF2321#041CE1FFFFFFFFFF
(1357041641.41812416) ardcan1 0CFD9200#F0FFFFFFFFFFFFFF
(1357041641.41827936) ardcan1 18FEBF0B#00007D7D7D7DFFFF
(1357041641.41842292) ardcan1 14F00031#CFFFFFFFFFFFFFFF
(1357041641.41854660) ardcan1 1CEBFF28#0255454C204D4F4E
(1357041641.41867020) ardcan1 0CF00300#D10006FFFF0F697D
(1357041641.41879376) ardcan1 0CF00421#FFFFFFFFFFFFFFFF
(1357041641.41891724) ardcan1 10FF2121#32000FC0C0FFFFFA
(1357041641.41904092) ardcan1 18FEF200#000000006405FFFF
(1357041641.41916444) ardcan1 18EBFF00#05343439312A3632
(1357041641.41928816) ardcan1 0CF00400#3E7D800000000F7D
(1357041641.41944296) ardcan1 10FF2121#32000FC0C0FFFFFA
(1357041641.41956656) ardcan1 1CEBFF28#0349544F522A2A
(1357041641.41968920) ardcan1 0CF00400#3E7D800000000F7D
(1357041641.41981276) ardcan1 0CF00421#FFFFFFFFFFFFFFFF
(1357041641.41993620) ardcan1 18FCDC00#E0FEFEFFFFFFFFFF
(1357041642.42005976) ardcan1 18FEF200#000000006405FFFF
(1357041642.42018324) ardcan1 18F00E00#FFFFFFFFFFFFFFFF
(1357041642.42030692) ardcan1 0CF00400#3E7D800000000F7D
(1357041642.42043028) ardcan1 14FF3131#0030030000FFFFFF
(1357041642.42058548) ardcan1 0CF00400#3E7D800000000F7D
(1357041642.42070904) ardcan1 0CF00400#3E7D800000000F7D
(1357041642.42083268) ardcan1 0CF00300#D10006FFFF0F697D
(1357041642.42095632) ardcan1 18F00F00#FFFFFFFFFFFFFFFF
(1357041642.42108020) ardcan1 18FDB400#4D3A2D39FFFFFFFF
(1357041642.42120400) ardcan1 18FEE000#26DA0A00D55D5100
(1357041642.42132784) ardcan1 0CF00400#3E7D800000000F7D
(1357041642.42145140) ardcan1 14FF3131#0030030000FFFFFF
(1357041642.42157500) ardcan1 18FEF117#F7FFFFFFFFFFFFFF
(1357041642.42173028) ardcan1 0CF00400#3E7D800000000F7D
(1357041642.42185388) ardcan1 18FEF100#FF0000FC33000000
(1357041642.42197748) ardcan1 18FD2000#4D3AFFFFFFFFFFFF
(1357041642.42212244) ardcan1 14FF0121#FFFFFFFFFFFFFCFF
(1357041642.42224620) ardcan1 18FEBF0B#00007D7D7D7DFFFF
(1357041642.42237008) ardcan1 0CF00400#3E7D800000000F7D
(1357041642.42249368) ardcan1 0CF00400#3E7D800000000F7D
(1357041642.42261748) ardcan1 18FEF117#F7FFFFFFFFFFFFFF
(1357041642.42274128) ardcan1 0CF00400#3E7D800000000F7D
(1357041642.42289500) ardcan1 18FEF100#FF0000FC33000000
(1357041642.42301712) ardcan1 14FF2321#041CE1FFFFFFFFFF
(1357041642.42313956) ardcan1 0CFD9200#F0FFFFFFFFFFFFFF
(1357041642.42326188) ardcan1 18FEBF0B#00007D7D7D7DFFFF
(1357041642.42338428) ardcan1 14F00031#CFFFFFFFFFFFFFFF
(1357041642.42350672) ardcan1 0CF00400#3E7D800000000F7D
(1357041642.42362900) ardcan1 0CF00300#D10006FFFF0F697D
(1357041642.42375112) ardcan1 0CF00400#3E7D800000000F7D
(1357041642.42387336) ardcan1 18FEF100#FF0000FC33000000
(1357041642.42402556) ardcan1 18FEE400#007FFCFF007FFFFF
(1357041642.42414788) ardcan1 14FF0121#FFFFFFFFFFFFFCFF
(1357041642.42427024) ardcan1 18FEBF0B#00007D7D7D7DFFFF
(1357041642.42439264) ardcan1 14F00031#CFFFFFFFFFFFFFFF
(1357041642.42451500) ardcan1 18FEF117#F7FFFFFFFFFFFFFF
(1357041642.42463740) ardcan1 0CF00300#D10006FFFF0F697D
(1357041642.42475952) ardcan1 18E00019#00FFFFFFFFFFFFFF
(1357041642.42488196) ardcan1 14FDA421#FFFFFFFFFFFFFFFF
(1357041642.42500436) ardcan1 14FEF031#FFFFFFFFFFFC00FF
(1357041642.42515832) ardcan1 14FF0121#FFFFFFFFFFFFFCFF
(1357041642.42528196) ardcan1 18F00100#FFFFFFFFFFFFFFFF
(1357041642.42540580) ardcan1 14F00031#CFFFFFFFFFFFFFFF
(1357041642.42552952) ardcan1 18FEF117#F7FFFFFFFFFFFFFF
(1357041642.42565336) ardcan1 0CFD9200#F0FFFFFFFFFFFFFF
(1357041642.42577700) ardcan1 18FEDF00#80A0287DFBFFFFF0
(1357041642.42592112) ardcan1 0CF00400#3E7D800000000F7D
(1357041642.42604464) ardcan1 18FEF200#000000006505FFFF
(1357041642.42616824) ardcan1 14FF0121#FFFFFFFFFFFFFCFF
(1357041642.42632372) ardcan1 0CF00400#3E7D800000000F7D
(1357041642.42644748) ardcan1 1CECFF28#20170003FFEBFE00
(1357041642.42657108) ardcan1 1CECFF19#201C0004FFEBFE00
(1357041642.42669468) ardcan1 0CF00400#3E7D800000000F7D
(1357041642.42681804) ardcan1 0CF00421#FFFFFFFFFFFFFFFF
(1357041642.42694192) ardcan1 18EBFF00#01434D4D4E532A36
(1357041642.42706560) ardcan1 1CEBFF19#0146524748542A2A
(1357041642.42718936) ardcan1 18FEDF00#80A0287DFBFFFFF0
(1357041642.42731316) ardcan1 0CF00400#3E7D800000000F7D
(1357041642.42746836) ardcan1 18F00F00#FFFFFFFFFFFFFFFF
(1357041642.42759192) ardcan1 18FEDF00#80A0287DFBFFFFF0
(1357041642.42771560) ardcan1 0CF00400#3E7D800000000F7D
(1357041642.42783904) ardcan1 18FEF100#FF0000FC33000000
(1357041642.42796264) ardcan1 18FD3E00#083AFFDC38FFFFFF
(1357041642.42808620) ardcan1 18E00031#FFFFFFFFFFF3FFFF
(1357041642.42820984) ardcan1 14FF0221#FFFFFFFFFFFFFFFF
(1357041642.42833344) ardcan1 0CF00400#3E7D800000000F7D
(1357041642.42845696) ardcan1 18FEF117#F7FFFFFFFFFFFFFF
(1357041642.42861188) ardcan1 18FEDF00#80A0287DFBFFFFF0
(1357041642.42873548) ardcan1 1CEBFF19#04312D303634302A
(1357041642.42885908) ardcan1 18FEF100#FF0000FC33000000
(1357041642.42898256) ardcan1 0CF00A00#00000000FFFFFFFF
(1357041642.42910592) ardcan1 0CF00400#3E7D800000000F7D
(1357041642.42922944) ardcan1 0CF00300#D10006FFFF0F697D
(1357041642.42935312) ardcan1 18FF2421#C0F0FFFFFFFFFFFF
(1357041642.42947680) ardcan1 0CF00A00#00000000FFFFFFFF
(1357041642.42960020) ardcan1 18FEF000#FFFFFF201CF0FFFF
(1357041642.42977656) ardcan1 18FF1B19#FFFCFFFFFFFFFFFF
(1357041642.42990028) ardcan1 0CF00400#3E7D800000000F7D
(1357041643.43002388) ardcan1 0CF00300#D10006FFFF0F697D
(1357041643.43014752) ardcan1 14FF0121#FFFFFFFFFFFFFCFF
(1357041643.43027140) ardcan1 18EBFF00#07202AFFFFFFFFFF
(1357041643.43039520) ardcan1 14F00031#CFFFFFFFFFFFFFFF
(1357041643.43051896) ardcan1 0CF00400#3E7D800000000F7D
(1357041643.43064256) ardcan1 0CFD9200#F0FFFFFFFFFFFFFF
(1357041643.43076640) ardcan1 0CF00400#3E7D800000000F7D
(1357041643.43092164) ardcan1 0CF00400#3E7D800000000F7D
(1357041643.43104528) ardcan1 18FEF200#000000006405FFFF
(1357041643.43116888) ardcan1 14FF0121#FFFFFFFFFFFFFCFF
(1357041643.43129280) ardcan1 0CF00400#3E7D800000000F7D
(1357041643.43141632) ardcan1 10FF2121#32000FC0C0FFFFFA
(1357041643.43154008) ardcan1 18FDB200#FFFFFFFF0000FFFF
(1357041643.43166380) ardcan1 0CF00300#D10006FFFF0F697D
(1357041643.43178760) ardcan1 0CF00421#FFFFFFFFFFFFFFFF
(1357041643.43191136) ardcan1 10FF2121#32000FC0C0FFFFFA
(1357041643.43206528) ardcan1 18FEF200#000000006505FFFF
(1357041643.43218744) ardcan1 18F00E00#FFFFFFFFFFFFFFFF
(1357041643.43230984) ardcan1 0CF00400#3E7D800000000F7D
(1357041643.43243184) ardcan1 10FF2121#32000FC0C0FFFFFA
(1357041643.43255416) ardcan1 14FF3131#0030030000FFFFFF
(1357041643.43267632) ardcan1 18F00E00#FFFFFFFFFFFFFFFF
(1357041643.43279880) ardcan1 0CF00421#FFFFFFFFFFFFFFFF
(1357041643.43292100) ardcan1 10FF2121#32000FC0C0FFFFFA
(1357041643.43304332) ardcan1 18FEF200#000000006405FFFF
(1357041643.43314380) ardcan1 0CFD9200#F0FFFFFFFFFFFFFF
(1357041643.43326620) ardcan1 18F0010B#CFFFFCFFFF0FFF3F
(1357041643.43340880) ardcan1 14F00031#CFFFFFFFFFFFFFFF
(1357041643.43353112) ardcan1 18FEDD00#FF0000FFFFFFFFFF
(1357041643.43365340) ardcan1 0CF00300#D10006FFFF0F697D
(1357041643.43377572) ardcan1 18FEDF00#80A0287DFBFFFFF0
(1357041643.43389816) ardcan1 0CF00400#3E7D800000000F7D
(1357041643.43402036) ardcan1 14FF2321#041CE1FFFFFFFFFF
(1357041643.43417440) ardcan1 14FF0121#FFFFFFFFFFFFFCFF
(1357041643.43429804) ardcan1 0CF00400#3E7D800000000F7D
(1357041643.43442168) ardcan1 10FF2121#32000FC0C0FFFFFA
(1357041643.43454552) ardcan1 18FEF73A#FFFFFFFFFFFFF800
(1357041643.43466936) ardcan1 18FF1919#01030B06FFFFFFFF
(1357041643.43479304) ardcan1 0CF00421#FFFFFFFFFFFFFFFF
(1357041643.43491684) ardcan1 10FF2121#32000FC0C0FFFFFA
(1357041643.43504048) ardcan1 18FEF200#000000006505FFFF
(1357041643.43516416) ardcan1 14FF0121#FFFFFFFFFFFFFCFF
(1357041643.43531920) ardcan1 0CF00400#3E7D800000000F7D
(1357041643.43544280) ardcan1 14FF3131#0030030000FFFFFF
(1357041643.43556640) ardcan1 0CF00400#3E7D800000000F7D
(1357041643.43569012) ardcan1 0CF00400#3E7D800000000F7D
(1357041643.43581372) ardcan1 0CF00421#FFFFFFFFFFFFFFFF
(1357041643.43593760) ardcan1 18F00F00#FFFFFFFFFFFFFFFF
(1357041643.43606148) ardcan1 18FEF200#000000006405FFFF
(1357041643.43618524) ardcan1 18F00E00#FFFFFFFFFFFFFFFF
(1357041643.43630900) ardcan1 18FEBF0B#00007D7D7D7DFFFF
(1357041643.43646396) ardcan1 10FF2121#32000FC0C0FFFFFA
(1357041643.43658752) ardcan1 18FEF000#FFFFFF201CF0FFFF
(1357041643.43671104) ardcan1 0CF00400#3E7D800000000F7D
(1357041643.43683436) ardcan1 18FEF100#FF0000FC33000000
(1357041643.43695788) ardcan1 1CEBFF28#01414D45544B2A46
(1357041643.43708156) ardcan1 18FEF521#FFFFFF4024FFFFFF
(1357041643.43722624) ardcan1 18FEF621#FFFFFFFFFFFFFFFF
(1357041643.43734980) ardcan1 18FEF117#F7FFFFFFFFFFFFFF
(1357041643.43747356) ardcan1 0CF00A00#00000000FFFFFFFF
(1357041643.43762836) ardcan1 18FEF000#FFFFFF201CF0FFFF
(1357041643.43775208) ardcan1 0CF00400#3E7D800000000F7D
(1357041643.43787544) ardcan1 18FEF100#FF0000FC33000000
(1357041643.43799900) ardcan1 14FEF031#FFFFFFFFFFFC00FF
(1357041643.43812252) ardcan1 0CFD9200#F0FFFFFFFFFFFFFF
(1357041643.43824608) ardcan1 0CF00300#D10006FFFF0F697D
(1357041643.43836948) ardcan1 18FEBF0B#00007D7D7D7DFFFF
(1357041643.43849308) ardcan1 0CF00400#3E7D800000000F7D
(1357041643.43861652) ardcan1 18EBFF00#0430302A37393539
(1357041643.43877172) ardcan1 1CEBFF19#04312D303634302A
(1357041643.43889548) ardcan1 0CF00400#3E7D800000000F7D
(1357041643.43901928) ardcan1 14FF2321#041CE1FFFFFFFFFF
(1357041643.43914304) ardcan1 18EBFF00#05343439312A3632
(1357041643.43926680) ardcan1 18FEF117#F7FFFFFFFFFFFFFF
(1357041643.43939056) ardcan1 14F00031#CFFFFFFFFFFFFFFF
(1357041643.43951456) ardcan1 0CF00400#3E7D800000000F7D
(1357041643.43963812) ardcan1 0CF00300#D10006FFFF0F697D
(1357041643.43976160) ardcan1 18FF1B19#FFFCFFFFFFFFFFFF
(1357041643.43991688) ardcan1 14FDA421#FFFFFFFFFFFFFFFF
(1357041644.44004084) ardcan1 18FEF200#000000006405FFFF
(1357041644.44016448) ardcan1 14FF0121#FFFFFFFFFFFFFCFF
(1357041644.44028832) ardcan1 0CF00400#3E7D800000000F7D
(1357041644.44041192) ardcan1 14F00031#CFFFFFFFFFFFFFFF
(1357041644.44053592) ardcan1 0CF00400#3E7D800000000F7D
(1357041644.44065944) ardcan1 0CFD9200#F0FFFFFFFFFFFFFF
(1357041644.44078336) ardcan1 0CF00421#FFFFFFFFFFFFFFFF
(1357041644.44092832) ardcan1 0CF00400#3E7D800000000F7D
(1357041644.44108208) ardcan1 18FEF200#000000006505FFFF
(1357041644.44120412) ardcan1 18FEE000#26DA0A00D55D5100
(1357041644.44132632) ardcan1 18FEBF0B#00007D7D7D7DFFFF
(1357041644.44144864) ardcan1 14FF3131#0030030000FFFFFF
(1357041644.44157096) ardcan1 18FDB200#FFFFFFFF0000FFFF
(1357041644.44169324) ardcan1 0CF00400#3E7D800000000F7D
(1357041644.44181556) ardcan1 0CF00421#FFFFFFFFFFFFFFFF
(1357041644.44193792) ardcan1 18F00F00#FFFFFFFFFFFFFFFF
(1357041644.44206032) ardcan1 18FEF200#000000006405FFFF
(1357041644.44230052) ardcan1 18FEEF00#FFFFFF00007DFFFA
(1357041644.44242276) ardcan1 0CF00300#D10006FFFF0F697D
(1357041644.44254500) ardcan1 0CF00400#3E7D800000000F7D
(1357041644.44266728) ardcan1 18FEF600#FF0055FFFFFFFFFF
(1357041644.44278980) ardcan1 0CF00421#FFFFFFFFFFFFFFFF
(1357041644.44291220) ardcan1 10FF2121#32000FC0C0FFFFFA
(1357041644.44303460) ardcan1 18FEF200#000000006405FFFF
(1357041644.44315680) ardcan1 0CFD9200#F0FFFFFFFFFFFFFF
(1357041644.44327928) ardcan1 18F00100#FFFFFFFFFFFFFFFF
(1357041644.44343336) ardcan1 14F00031#CFFFFFFFFFFFFFFF
(1357041644.44355720) ardcan1 18FEDD00#FF0000FFFFFFFFFF
(1357041644.44368092) ardcan1 14FEF131#CFFFFFF300FFFFF0
(1357041644.44380480) ardcan1 18FEEE00#85FF6E2DFFFFFFFF
(1357041644.44392856) ardcan1 18F00F00#FFFFFFFFFFFFFFFF
(1357041644.44405228) ardcan1 18FEF200#000000006505FFFF
(1357041644.44417584) ardcan1 14FF0121#FFFFFFFFFFFFFCFF
(1357041644.44429968) ardcan1 0CF00400#3E7D800000000F7D
(1357041644.44442312) ardcan1 0CF00300#D10006FFFF0F697D
(1357041644.44459852) ardcan1 18FEF73A#FFFFFFFFFFFFF800
(1357041644.44472228) ardcan1 18FF1B19#FFFCFFFFFFFFFFFF
(1357041644.44484620) ardcan1 18FEF100#FF0000FC33000000
(1357041644.44496972) ardcan1 18F00F00#FFFFFFFFFFFFFFFF
(1357041644.44509356) ardcan1 18EBF900#0430302A37393539
(1357041644.44521736) ardcan1 14FF0221#FFFFFFFFFFFFFFFF
(1357041644.44534124) ardcan1 18FEBF0B#00007D7D7D7DFFFF
(1357041644.44546480) ardcan1 14FF3131#0030030000FFFFFF
(1357041644.44558836) ardcan1 18FEF000#FFFFFF201CF0FFFF
(1357041644.44574364) ardcan1 0CF00400#3E7D800000000F7D
(1357041644.44586708) ardcan1 18FEF100#FF0000FC33000000
(1357041644.44599040) ardcan1 14FEF031#FFFFFFFFFFFC00FF
(1357041644.44611396) ardcan1 14FF0121#FFFFFFFFFFFFFCFF
(1357041644.44623760) ardcan1 18FECA00#07F3880E0F01FFFF
(1357041644.44636116) ardcan1 18FEBF0B#00007D7D7D7DFFFF
(1357041644.44648476) ardcan1 14F00131#FFFFFFFF00FFFFFF
(1357041644.44660848) ardcan1 18FEF000#FFFFFF201CF0FFFF
(1357041644.44673216) ardcan1 18FD8C00#FFFF0000FFFFFFFF
(1357041644.44688696) ardcan1 18FEF100#FF0000FC33000000
(1357041644.44701028) ardcan1 14FF2321#041CE1FFFFFFFFFF
(1357041644.44713388) ardcan1 1CEBFF17#0144544E412A4943
(1357041644.44725740) ardcan1 0CF00300#D10006FFFF0F697D
(1357041644.44738084) ardcan1 18FEDF00#80A0287DFBFFFFF0
(1357041644.44750440) ardcan1 18EBFF00#0258317531304431
(1357041644.44762804) ardcan1 0CF00300#D10006FFFF0F697D
(1357041644.44775160) ardcan1 18EEFFF9#5F5F560100810000
(1357041644.44787500) ardcan1 18FEF100#FF0000FC33000000
(1357041644.44803004) ardcan1 14FEF031#FFFFFFFFFFFC00FF
(1357041644.44815396) ardcan1 1CEBFF19#0331323036323232
(1357041644.44827764) ardcan1 18F00100#FFFFFFFFFFFFFFFF
(1357041644.44842336) ardcan1 14F00031#CFFFFFFFFFFFFFFF
(1357041644.44854704) ardcan1 0CF00400#3E7D800000000F7D
(1357041644.44867076) ardcan1 0CF00300#D10006FFFF0F697D
(1357041644.44879436) ardcan1 0CF00421#FFFFFFFFFFFFFFFF
(1357041644.44891816) ardcan1 10FF2121#32000FC0C0FFFFFA
(1357041644.44904176) ardcan1 18FEF200#000000006405FFFF
(1357041644.44919696) ardcan1 18EBFF00#05343439312A3632
(1357041644.44932060) ardcan1 18FF2421#C0F0FFFFFFFFFFFF
(1357041644.44944452) ardcan1 14FF3131#0030030000FFFFFF
(1357041644.44956816) ardcan1 0CF00400#3E7D800000000F7D
(1357041644.44969192) ardcan1 0CF00400#3E7D800000000F7D
(1357041644.44981544) ardcan1 0CF00421#FFFFFFFFFFFFFFFF
(1357041644.44993920) ardcan1 18FCDC00#E0FEFEFFFFFFFFFF
(1357041645.45006288) ardcan1 18FEF200#000000006505FFFF
(1357041645.45018652) ardcan1 18F00E00#FFFFFFFFFFFFFFFF
(1357041645.45034036) ardcan1 18F0010B#CFFFFCFFFF0FFF3F
(1357041645.45046268) ardcan1 14FF3131#0030030000FFFFFF
(1357041645.45058488) ardcan1 14FEF121#F7FFFF0FFFFFFFFF
(1357041645.45070724) ardcan1 0CF00400#3E7D800000000F7D
(1357041645.45082920) ardcan1 0CF00300#D10006FFFF0F697D
(1357041645.45095144) ardcan1 18F00F00#FFFFFFFFFFFFFFFF
(1357041645.45107384) ardcan1 18EFF900#440000025858FFFF
(1357041645.45119612) ardcan1 18FEE000#26DA0A00D55D5100
(1357041645.45131832) ardcan1 18F0010B#CFFFFCFFFF0FFF3F
(1357041645.45147184) ardcan1 18F00F00#FFFFFFFFFFFFFFFF
(1357041645.45159412) ardcan1 18FEF000#FFFFFF201CF0FFFF
(1357041645.45171652) ardcan1 0CF00400#3E7D800000000F7D
(1357041645.45183868) ardcan1 18FEF100#FF0000FC33000000
(1357041645.45196096) ardcan1 18F00F00#FFFFFFFFFFFFFFFF
(1357041645.45208324) ardcan1 18FEF117#F7FFFFFFFFFFFFFF
(1357041645.45222572) ardcan1 18FEE000#26DA0A00D55D5100
(1357041645.45234788) ardcan1 18F0010B#CFFFFCFFFF0FFF3F
(1357041645.45247024) ardcan1 18F00F00#FFFFFFFFFFFFFFFF
(1357041645.45262416) ardcan1 18FEF000#FFFFFF201CF0FFFF
(1357041645.45274784) ardcan1 0CF00400#3E7D800000000F7D
(1357041645.45287132) ardcan1 18FEF100#FF0000FC33000000
(1357041645.45299500) ardcan1 14FEF031#FFFFFFFFFFFC00FF
(1357041645.45311868) ardcan1 14FF0121#FFFFFFFFFFFFFCFF
(1357041645.45324252) ardcan1 0CF00300#D10006FFFF0F697D
(1357041645.45336620) ardcan1 18FEBF0B#00007D7D7D7DFFFF
(1357041645.45349008) ardcan1 18F0000F#F07D7DFF0FFFFFFF
(1357041645.45361376) ardcan1 18FEF000#FFFFFF201CF0FFFF
(1357041645.45376896) ardcan1 0CF00400#3E7D800000000F7D
(1357041645.45389236) ardcan1 0CF00400#3E7D800000000F7D
(1357041645.45401596) ardcan1 18FEF117#F7FFFFFFFFFFFFFF
(1357041645.45413964) ardcan1 14FF0121#FFFFFFFFFFFFFCFF
(1357041645.45426344) ardcan1 18FEBD00#00F0FFFFFFFFFFFF
(1357041645.45438716) ardcan1 14F00031#CFFFFFFFFFFFFFFF
(1357041645.45451096) ardcan1 18FEF73A#FFFFFFFFFFFFF800
(1357041645.45463460) ardcan1 0CF00300#D10006FFFF0F697D
(1357041645.45475824) ardcan1 18E00019#00FFFFFFFFFFFFFF
(1357041645.45491348) ardcan1 14FDA421#FFFFFFFFFFFFFFFF
(1357041645.45503720) ardcan1 18FEF200#000000006505FFFF
(1357041645.45516052) ardcan1 14FF0121#FFFFFFFFFFFFFCFF
(1357041645.45528420) ardcan1 18F00100#FFFFFFFFFFFFFFFF
(1357041645.45540776) ardcan1 14F00031#CFFFFFFFFFFFFFFF
(1357041645.45553132) ardcan1 0CF00400#3E7D800000000F7D
(1357041645.45565468) ardcan1 0CFD9200#F0FFFFFFFFFFFFFF
(1357041645.45577828) ardcan1 18FEDF00#80A0287DFBFFFFF0
(1357041645.45592300) ardcan1 0CF00400#3E7D800000000F7D
(1357041645.45607764) ardcan1 18FEF200#000000006405FFFF
(1357041645.45620096) ardcan1 18FEE000#26DA0A00D55D5100
(1357041645.45632456) ardcan1 18F0010B#CFFFFCFFFF0FFF3F
(1357041645.45644824) ardcan1 1CECFF28#20170003FFEBFE00
(1357041645.45657180) ardcan1 1CECFF19#201C0004FFEBFE00
(1357041645.45669524) ardcan1 0CF00400#3E7D800000000F7D
(1357041645.45681876) ardcan1 18FEDF00#80A0287DFBFFFFF0
(1357041645.45694236) ardcan1 18EBFF00#01434D4D4E532A36
(1357041645.45706592) ardcan1 1CEBFF19#0146524748542A2A
(1357041645.45722092) ardcan1 18FEEF00#FFFFFF00007DFFFA
(1357041645.45734472) ardcan1 18F0010B#CFFFFCFFFF0FFF3F
(1357041645.45746836) ardcan1 18ECFF0F#20130003FFE1FE00
(1357041645.45759204) ardcan1 18FEF000#FFFFFF201CF0FFFF
(1357041645.45771572) ardcan1 0CF00400#3E7D800000000F7D
(1357041645.45783944) ardcan1 18FEF100#FF0000FC33000000
(1357041645.45796304) ardcan1 18FEF117#F7FFFFFFFFFFFFFF
(1357041645.45808696) ardcan1 18E00031#FFFFFFFFFFF3FFFF
(1357041645.45821076) ardcan1 18FEE000#26DA0A00D55D5100
(1357041645.45836620) ardcan1 18F0010B#CFFFFCFFFF0FFF3F
(1357041645.45848984) ardcan1 18F0000F#F07D7DFF0FFFFFFF
(1357041645.45861352) ardcan1 18EBFF00#0430302A37393539
(1357041645.45873716) ardcan1 1CEBFF19#04312D303634302A
(1357041645.45886100) ardcan1 18FEF100#FF0000FC33000000
(1357041645.45898456) ardcan1 0CF00A00#00000000FFFFFFFF
(1357041645.45910816) ardcan1 0CF00400#3E7D800000000F7D
(1357041645.45923176) ardcan1 0CF00300#D10006FFFF0F697D
(1357041645.45935548) ardcan1 18FF2421#C0F0FFFFFFFFFFFF
(1357041645.45950940) ardcan1 0CF00A00#00000000FFFFFFFF
(1357041645.45965276) ardcan1 0CF00300#D10006FFFF0F697D
(1357041645.45977492) ardcan1 18FEDF00#80A0287DFBFFFFF0
(1357041645.45989736) ardcan1 0CF00400#3E7D800000000F7D
(1357041646.46001944) ardcan1 0CF00A00#00000000FFFFFFFF
(1357041646.46014184) ardcan1 14FF0121#FFFFFFFFFFFFFCFF
(1357041646.46026428) ardcan1 18ECFF00#20220005FFE3FE00
(1357041646.46038656) ardcan1 18FEDF00#80A0287DFBFFFFF0
(1357041646.46050872) ardcan1 0CF00400#3E7D800000000F7D
(1357041646.46066092) ardcan1 0CFD9200#F0FFFFFFFFFFFFFF
(1357041646.46078324) ardcan1 18FEDF00#80A0287DFBFFFFF0
(1357041646.46090560) ardcan1 0CF00400#3E7D800000000F7D
(1357041646.46102764) ardcan1 18FEF200#000000006505FFFF
(1357041646.46115000) ardcan1 14FF0121#FFFFFFFFFFFFFCFF
(1357041646.46127244) ardcan1 18FDB300#FFFF4E38FFFFFFFF
(1357041646.46139488) ardcan1 18FEDF00#80A0287DFBFFFFF0
(1357041646.46151724) ardcan1 0CF00400#3E7D800000000F7D
(1357041646.46163936) ardcan1 0CF00300#D10006FFFF0F697D
(1357041646.46179320) ardcan1 18FD8C00#FFFF0000FFFFFFFF
(1357041646.46191704) ardcan1 18FEC117#D129F207FFFFFFFF
(1357041646.46204084) ardcan1 18FEF200#000000006405FFFF
(1357041646.46216460) ardcan1 14FF0121#FFFFFFFFFFFFFCFF
(1357041646.46228848) ardcan1 0CF00400#3E7D800000000F7D
(1357041646.46241192) ardcan1 14F00031#CFFFFFFFFFFFFFFF
(1357041646.46253556) ardcan1 0CF00400#3E7D800000000F7D
(1357041646.46265916) ardcan1 18FEF600#FF0055FFFFFFFFFF
(1357041646.46278280) ardcan1 18FEDF00#80A0287DFBFFFFF0
(1357041646.46293816) ardcan1 0CF00400#3E7D800000000F7D
(1357041646.46306176) ardcan1 18FEF200#000000006405FFFF
(1357041646.46318552) ardcan1 18F00E00#FFFFFFFFFFFFFFFF
(1357041646.46330932) ardcan1 0CF00400#3E7D800000000F7D
(1357041646.46345320) ardcan1 18F00F00#FFFFFFFFFFFFFFFF
(1357041646.46357696) ardcan1 18FEDF00#80A0287DFBFFFFF0
(1357041646.46370084) ardcan1 0CF00400#3E7D800000000F7D
(1357041646.46382428) ardcan1 0CF00300#D10006FFFF0F697D
(1357041646.46394792) ardcan1 18F00F00#FFFFFFFFFFFFFFFF
(1357041646.46410300) ardcan1 18FEF200#000000006505FFFF
(1357041646.46422648) ardcan1 0CF00300#D10006FFFF0F697D
(1357041646.46434984) ardcan1 18F0010B#CFFFFCFFFF0FFF3F
(1357041646.46447348) ardcan1 0CF00A00#00000000FFFFFFFF
(1357041646.46459692) ardcan1 14FEF121#F7FFFF0FFFFFFFFF
(1357041646.46472060) ardcan1 18FF1B19#FFFCFFFFFFFFFFFF
(1357041646.46484420) ardcan1 18FEF117#F7FFFFFFFFFFFFFF
(1357041646.46496796) ardcan1 18F00F00#FFFFFFFFFFFFFFFF
(1357041646.46509168) ardcan1 0CF00400#3E7D800000000F7D
(1357041646.46524660) ardcan1 18FEE000#26DA0A00D55D5100
(1357041646.46537004) ardcan1 18F0010B#CFFFFCFFFF0FFF3F
(1357041646.46549364) ardcan1 0CF00400#3E7D800000000F7D
(1357041646.46561700) ardcan1 14FEF121#F7FFFF0FFFFFFFFF
(1357041646.46574044) ardcan1 0CF00400#3E7D800000000F7D
(1357041646.46586380) ardcan1 18FEF100#FF0000FC33000000
(1357041646.46598720) ardcan1 0CF00A00#00000000FFFFFFFF
(1357041646.46611068) ardcan1 0CF00400#3E7D800000000F7D
(1357041646.46623412) ardcan1 18FECA00#07F3880E0F01FFFF
(1357041646.46638912) ardcan1 18F0010B#CFFFFCFFFF0FFF3F
(1357041646.46651296) ardcan1 14F00131#FFFFFFFF00FFFFFF
(1357041646.46663668) ardcan1 0CF00300#D10006FFFF0F697D
(1357041646.46676040) ardcan1 18FD8C00#FFFF0000FFFFFFFF
(1357041646.46688416) ardcan1 18FEF100#FF0000FC33000000
(1357041646.46700796) ardcan1 14FEF031#FFFFFFFFFFFC00FF
(1357041646.46713168) ardcan1 14FF0121#FFFFFFFFFFFFFCFF
(1357041646.46727636) ardcan1 14FF0221#FFFFFFFFFFFFFFFF
(1357041646.46740008) ardcan1 14F00031#CFFFFFFFFFFFFFFF
(1357041646.46755556) ardcan1 18EBFF00#0258317531304431
(1357041646.46767920) ardcan1 18F00E00#FFFFFFFFFFFFFFFF
(1357041646.46780300) ardcan1 0CF00421#FFFFFFFFFFFFFFFF
(1357041646.46792688) ardcan1 18F00F00#FFFFFFFFFFFFFFFF
(1357041646.46805088) ardcan1 18FEF200#000000006405FFFF
(1357041646.46817448) ardcan1 1CEBFF19#0331323036323232
(1357041646.46829824) ardcan1 0CF00400#3E7D800000000F7D
(1357041646.46842188) ardcan1 10FF2121#32000FC0C0FFFFFA
(1357041646.46854556) ardcan1 0CF00400#3E7D800000000F7D
(1357041646.46869916) ardcan1 0CF00300#D10006FFFF0F697D
(1357041646.46882144) ardcan1 0CF00300#D10006FFFF0F697D
(1357041646.46894364) ardcan1 18F00F00#FFFFFFFFFFFFFFFF
(1357041646.46906600) ardcan1 18EC00F9#10090002FF00EF00
(1357041646.46918812) ardcan1 18FEDF00#80A0287DFBFFFFF0
(1357041646.46931052) ardcan1 18EB00F9#0200000000000000
(1357041646.46943272) ardcan1 1CEBF900#0181000301010102
(1357041646.46955484) ardcan1 18EB00F9#06F23585B857DA82
(1357041646.46967716) ardcan1 18F00E00#FFFFFFFFFFFFFFFF
(1357041646.46982948) ardcan1 0CF00421#FFFFFFFFFFFFFFFF
(1357041646.46995188) ardcan1 18FCDC00#E0FEFEFFFFFFFFFF
(1357041647.47007436) ardcan1 18FEF200#000000006505FFFF
(1357041647.47019652) ardcan1 18FEE000#26DA0A00D55D5100
(1357041647.47031888) ardcan1 0CF00400#3E7D800000000F7D
(1357041647.47044108) ardcan1 14FF3131#0030030000FFFFFF
(1357041647.47056324) ardcan1 0CF00400#3E7D800000000F7D
(1357041647.47068548) ardcan1 14FEF131#CFFFFFF300FFFFF0
(1357041647.47080784) ardcan1 0CF00421#FFFFFFFFFFFFFFFF
(1357041647.47098208) ardcan1 18F00F00#FFFFFFFFFFFFFFFF
(1357041647.47110568) ardcan1 0CF00400#3E7D800000000F7D
(1357041647.47122904) ardcan1 14FF0221#FFFFFFFFFFFFFFFF
(1357041647.47135280) ardcan1 0CF00400#3E7D800000000F7D
(1357041647.47147636) ardcan1 0CF00A00#00000000FFFFFFFF
(1357041647.47159992) ardcan1 14FEF121#F7FFFF0FFFFFFFFF
(1357041647.47172368) ardcan1 18FD0517#C30CFFFFFFFFFFFF
(1357041647.47184748) ardcan1 18FEF100#FF0000FC33000000
(1357041647.47197104) ardcan1 18F00F00#FFFFFFFFFFFFFFFF
(1357041647.47212640) ardcan1 0CF00400#3E7D800000000F7D
(1357041647.47225000) ardcan1 14FF0221#FFFFFFFFFFFFFFFF
(1357041647.47237388) ardcan1 18F0010B#CFFFFCFFFF0FFF3F
(1357041647.47249756) ardcan1 0CF00400#3E7D800000000F7D
(1357041647.47262108) ardcan1 14FEF121#F7FFFF0FFFFFFFFF
(1357041647.47274472) ardcan1 0CF00400#3E7D800000000F7D
(1357041647.47314112) ardcan1 18FEF100#FF0000FC33000000
(1357041647.47327504) ardcan1 14FF0221#FFFFFFFFFFFFFFFF
(1357041647.47339884) ardcan1 14F00031#CFFFFFFFFFFFFFFF
(1357041647.47355568) ardcan1 18FEDD00#FF0000FFFFFFFFFF
(1357041647.47367936) ardcan1 18F00E00#FFFFFFFFFFFFFFFF
(1357041647.47380296) ardcan1 0CF00421#FFFFFFFFFFFFFFFF
(1357041647.47392664) ardcan1 18F00F00#FFFFFFFFFFFFFFFF
(1357041647.47405036) ardcan1 18FEF200#000000006405FFFF
(1357041647.47417396) ardcan1 14FF0121#FFFFFFFFFFFFFCFF
(1357041647.47429756) ardcan1 0CF00400#3E7D800000000F7D
(1357041647.47442104) ardcan1 18FF3A3A#02300B00FFFFFFFF
(1357041647.47454472) ardcan1 14F00131#FFFFFFFF00FFFFFF
(1357041647.47469992) ardcan1 1CEBF900#075F8A60D4A56C09
(1357041647.47482332) ardcan1 0CF00300#D10006FFFF0F697D
(1357041647.47494692) ardcan1 18F00F00#FFFFFFFFFFFFFFFF
(1357041647.47510696) ardcan1 18FEF200#000000006505FFFF
(1357041647.47523048) ardcan1 14FF0221#FFFFFFFFFFFFFFFF
(1357041647.47535412) ardcan1 18EB00F9#0400138001002160
(1357041647.47547756) ardcan1 0CF00A00#00000000FFFFFFFF
(1357041647.47560104) ardcan1 14FEF121#F7FFFF0FFFFFFFFF
(1357041647.47572448) ardcan1 0CF00400#3E7D800000000F7D
(1357041647.47587940) ardcan1 18FEF100#FF0000FC33000000
(1357041647.47600316) ardcan1 1CEC00F9#110801FFFF00EF00
(1357041647.47612676) ardcan1 14FF0121#FFFFFFFFFFFFFCFF
(1357041647.47625056) ardcan1 18FECA00#07F3880E0F01FFFF
(1357041647.47637412) ardcan1 0CF00400#3E7D800000000F7D
(1357041647.47649784) ardcan1 18FE5600#9F34FFFF1FFF00FF
(1357041647.47662176) ardcan1 14FEF121#F7FFFF0FFFFFFFFF
(1357041647.47674560) ardcan1 18FD8C00#FFFF0000FFFFFFFF
(1357041647.47686940) ardcan1 18EC00F9#10100003FF00EF00
(1357041647.47702472) ardcan1 18FEDF00#80A0287DFBFFFFF0
(1357041647.47714848) ardcan1 14FF0121#FFFFFFFFFFFFFCFF
(1357041647.47727240) ardcan1 18EC00F9#10090002FF00EF00
(1357041647.47739604) ardcan1 18F0010B#CFFFFCFFFF0FFF3F
(1357041647.47751992) ardcan1 18EBFF00#0258317531304431
(1357041647.47764376) ardcan1 18FEF600#FF0055FFFFFFFFFF
(1357041647.47776776) ardcan1 0CF00400#3E7D800000000F7D
(1357041647.47789156) ardcan1 0CF00400#3E7D800000000F7D
(1357041647.47801532) ardcan1 14FEF031#FFFFFFFFFFFC00FF
(1357041647.47816932) ardcan1 14FF0121#FFFFFFFFFFFFFCFF
(1357041647.47829180) ardcan1 0CF00400#3E7D800000000F7D
(1357041647.47841416) ardcan1 18F0010B#CFFFFCFFFF0FFF3F
(1357041647.47853668) ardcan1 0CF00400#3E7D800000000F7D
(1357041647.47865896) ardcan1 0CF00300#D10006FFFF0F697D
(1357041647.47880240) ardcan1 18FEDF00#80A0287DFBFFFFF0
(1357041647.47892496) ardcan1 18F00F00#FFFFFFFFFFFFFFFF
(1357041647.47904736) ardcan1 18FEF200#000000006405FFFF
(1357041647.47916960) ardcan1 18EBFF00#05343439312A3632
(1357041647.47932192) ardcan1 0CF00400#3E7D800000000F7D
(1357041647.47944416) ardcan1 14FF3131#0030030000FFFFFF
(1357041647.47956648) ardcan1 0CF00400#3E7D800000000F7D
(1357041647.47968872) ardcan1 14FEF131#CFFFFFF300FFFFF0
(1357041647.47981116) ardcan1 0CF00421#FFFFFFFFFFFFFFFF
(1357041647.47993364) ardcan1 18FCDC00#E0FEFEFFFFFFFFFF
(1357041648.48005608) ardcan1 18FEF200#000000006405FFFF
(1357041648.48017836) ardcan1 18FEDF00#80A0287DFBFFFFF0
(1357041648.48030072) ardcan1 0CF00400#3E7D800000000F7D
(1357041648.48045464) ardcan1 0CF00300#D10006FFFF0F697D
(1357041648.48057824) ardcan1 18FEDF00#80A0287DFBFFFFF0
(1357041648.48070208) ardcan1 0CF00400#3E7D800000000F7D
(1357041648.48082592) ardcan1 18FD0700#07FFFFFFFFFFFFFF
(1357041648.48094976) ardcan1 10FF2121#32000FC0C0FFFFFA
(1357041648.48107348) ardcan1 18FDB400#423A2D39FFFFFFFF
(1357041648.48119732) ardcan1 18FEE000#26DA0A00D55D5100
(1357041648.48132124) ardcan1 0CF00400#3E7D800000000F7D
(1357041648.48144500) ardcan1 14FF3131#0030030000FFFFFF
(1357041648.48160040) ardcan1 18FEF117#F7FFFFFFFFFFFFFF
(1357041648.48172424) ardcan1 18FD8C00#FFFF0000FFFFFFFF
(1357041648.48184804) ardcan1 18FEF100#FF0000FC33000000
(1357041648.48197160) ardcan1 10FF2121#32000FC0C0FFFFFA
(1357041648.48209540) ardcan1 0CF00400#3E7D800000000F7D
(1357041648.48221912) ardcan1 18FEE000#26DA0A00D55D5100
(1357041648.48234292) ardcan1 0CF00400#3E7D800000000F7D
(1357041648.48246656) ardcan1 18FEBF0B#00007D7D7D7DFFFF
(1357041648.48261056) ardcan1 14FEF121#F7FFFF0FFFFFFFFF
(1357041648.48276596) ardcan1 0CF00400#3E7D800000000F7D
(1357041648.48288948) ardcan1 14FDA421#FFFFFFFFFFFFFFFF
(1357041648.48301312) ardcan1 14FEF031#FFFFFFFFFFFC00FF
(1357041648.48313676) ardcan1 14FF0121#FFFFFFFFFFFFFCFF
(1357041648.48326044) ardcan1 14FF0221#FFFFFFFFFFFFFFFF
(1357041648.48338404) ardcan1 18FEDF00#80A0287DFBFFFFF0
(1357041648.48350740) ardcan1 18EA0017#E5FE00
(1357041648.48362676) ardcan1 0CF00300#D10006FFFF0F697D
(1357041648.48375044) ardcan1 0CF00400#3E7D800000000F7D
(1357041648.48390528) ardcan1 18FEF100#FF0000FC33000000
(1357041648.48402852) ardcan1 14FF2321#041CE1FFFFFFFFFF
(1357041648.48415208) ardcan1 14FF0121#FFFFFFFFFFFFFCFF
(1357041648.48427572) ardcan1 18F00100#FFFFFFFFFFFFFFFF
(1357041648.48439936) ardcan1 14F00031#CFFFFFFFFFFFFFFF
(1357041648.48452300) ardcan1 18FEF73A#FFFFFFFFFFFFF800
(1357041648.48464664) ardcan1 18FF1919#01030B06FFFFFFFF
(1357041648.48477024) ardcan1 18E00019#00FFFFFFFFFFFFFF
(1357041648.48489384) ardcan1 0CF00400#3E7D800000000F7D
(1357041648.48504896) ardcan1 14FEF031#FFFFFFFFFFFC00FF
(1357041648.48517288) ardcan1 14FF0121#FFFFFFFFFFFFFCFF
(1357041648.48529676) ardcan1 0CF00400#3E7D800000000F7D
(1357041648.48542040) ardcan1 18F0010B#CFFFFCFFFF0FFF3F
(1357041648.48554408) ardcan1 18FEF117#F7FFFFFFFFFFFFFF
(1357041648.48566796) ardcan1 0CFD9200#F0FFFFFFFFFFFFFF
(1357041648.48579180) ardcan1 0CF00421#FFFFFFFFFFFFFFFF
(1357041648.48591544) ardcan1 0CF00400#3E7D800000000F7D
(1357041648.48603908) ardcan1 18FEF200#000000006405FFFF
(1357041648.48619440) ardcan1 14FF0121#FFFFFFFFFFFFFCFF
(1357041648.48633944) ardcan1 0CF00400#3E7D800000000F7D
(1357041648.48646312) ardcan1 18FEF117#F7FFFFFFFFFFFFFF
(1357041648.48658700) ardcan1 18FEF000#FFFFFF201CF0FFFF
(1357041648.48671096) ardcan1 0CF00400#3E7D800000000F7D
(1357041648.48683452) ardcan1 18FEF100#FF0000FC33000000
(1357041648.48695796) ardcan1 18EBFF00#01434D4D4E532A36
(1357041648.48708180) ardcan1 1CEBFF19#0146524748542A2A
(1357041648.48720564) ardcan1 18FEE000#26DA0A00D55D5100
(1357041648.48735952) ardcan1 0CF00400#3E7D800000000F7D
(1357041648.48748180) ardcan1 18F0000F#F07D7DFF0FFFFFFF
(1357041648.48760424) ardcan1 1CEBFF19#02464C2D5033532D
(1357041648.48772660) ardcan1 0CF00400#3E7D800000000F7D
(1357041648.48784868) ardcan1 18FEF100#FF0000FC33000000
(1357041648.48797092) ardcan1 18FD3E00#003AFFD138FFFFFF
(1357041648.48809332) ardcan1 0CF00400#3E7D800000000F7D
(1357041648.48821548) ardcan1 18FEFF47#FFFFFFFFFFFFFFFF
(1357041648.48833788) ardcan1 0CF00400#3E7D800000000F7D
(1357041648.48849012) ardcan1 14FF3131#0030030000FFFFFF
(1357041648.48861248) ardcan1 18EBFF00#0430302A37393539
(1357041648.48873496) ardcan1 1CEBFF19#04312D303634302A
(1357041648.48885740) ardcan1 18FEF100#FF0000FC33000000
(1357041648.48897976) ardcan1 0CF00A00#00000000FFFFFFFF
(1357041648.48910216) ardcan1 0CF00400#3E7D800000000F7D
(1357041648.48922448) ardcan1 0CF00300#D10006FFFF0F697D
(1357041648.48934684) ardcan1 18FF2421#C0F0FFFFFFFFFFFF
(1357041648.48946924) ardcan1 18FF2221#0300C31701F7FFFF
(1357041648.48962324) ardcan1 14FEF121#F7FFFF0FFFFFFFFF
(1357041648.48974704) ardcan1 18FF1B19#FFFCFFFFFFFFFFFF
(1357041648.48987100) ardcan1 18FEF100#FF0000FC33000000
(1357041648.48999488) ardcan1 14FEF031#FFFFFFFFFFFC00FF
(1357041649.49013900) ardcan1 0CF00400#3E7D800000000F7D
(1357041649.49026268) ardcan1 18EBFF00#07202AFFFFFFFFFF
(1357041649.49038668) ardcan1 18FEF117#F7FFFFFFFFFFFFFF
(1357041649.49051060) ardcan1 14F00131#FFFFFFFF00FFFFFF
(1357041649.49063444) ardcan1 0CFD9200#F0FFFFFFFFFFFFFF
(1357041649.49078976) ardcan1 0CF00400#3E7D800000000F7D
(1357041649.49091340) ardcan1 0CF00400#3E7D800000000F7D
(1357041649.49103712) ardcan1 18FEF200#000000006405FFFF
(1357041649.49116072) ardcan1 14FF0121#FFFFFFFFFFFFFCFF
(1357041649.49128472) ardcan1 18F00100#FFFFFFFFFFFFFFFF
(1357041649.49140868) ardcan1 18FECA17#00FF00000000FFFF
(1357041649.49153244) ardcan1 18FDB200#FFFFFFFF0000FFFF
(1357041649.49165628) ardcan1 0CF00300#D10006FFFF0F697D
(1357041649.49177984) ardcan1 18FEDF00#80A0287DFBFFFFF0
(1357041649.49193508) ardcan1 0CF00400#3E7D800000000F7D
(1357041649.49205864) ardcan1 18FEF200#000000006405FFFF
(1357041649.49218216) ardcan1 18FEEF00#FFFFFF00007DFFFA
(1357041649.49230588) ardcan1 0CF00400#3E7D800000000F7D
(1357041649.49242952) ardcan1 10FF2121#32000FC0C0FFFFFA
(1357041649.49255312) ardcan1 18FEBF0B#00007D7D7D7DFFFF
(1357041649.49267676) ardcan1 18F00E00#FFFFFFFFFFFFFFFF
(1357041649.49280048) ardcan1 0CF00421#FFFFFFFFFFFFFFFF
(1357041649.49292428) ardcan1 18F00F00#FFFFFFFFFFFFFFFF
(1357041649.49307948) ardcan1 18FEF200#000000006505FFFF
(1357041649.49320292) ardcan1 18FEE000#26DA0A00D55D5100
(1357041649.49332656) ardcan1 18FEF700#FFFFFFFFFF00FFFF
(1357041649.49345024) ardcan1 14FF3131#0030030000FFFFFF
(1357041649.49357364) ardcan1 18FEDD00#FF0000FFFFFFFFFF
(1357041649.49369724) ardcan1 0CF00400#3E7D800000000F7D
(1357041649.49382072) ardcan1 0CF00421#FFFFFFFFFFFFFFFF
(1357041649.49396544) ardcan1 10FF2121#32000FC0C0FFFFFA
(1357041649.49408896) ardcan1 0CF00400#3E7D800000000F7D
(1357041649.49424424) ardcan1 18FEE000#26DA0A00D55D5100
(1357041649.49436816) ardcan1 18FF2421#C0F0FFFFFFFFFFFF
(1357041649.49449204) ardcan1 0CF00400#3E7D800000000F7D
(1357041649.49461568) ardcan1 14FEF121#F7FFFF0FFFFFFFFF
(1357041649.49473944) ardcan1 18FF1B19#FFFCFFFFFFFFFFFF
(1357041649.49486332) ardcan1 18FEF100#FF0000FC33000000
(1357041649.49498696) ardcan1 0CF00A00#00000000FFFFFFFF
(1357041649.49511056) ardcan1 0CF00400#3E7D800000000F7D
(1357041649.49523420) ardcan1 14FF0221#FFFFFFFFFFFFFFFF
(1357041649.49538976) ardcan1 18FE9A00#D527FFFFFFFFFFFF
(1357041649.49551368) ardcan1 18FEBF0B#00007D7D7D7DFFFF
(1357041649.49563744) ardcan1 0CFD9200#F0FFFFFFFFFFFFFF
(1357041649.49576128) ardcan1 0CF00400#3E7D800000000F7D
(1357041649.49588504) ardcan1 14FDA421#FFFFFFFFFFFFFFFF
(1357041649.49600892) ardcan1 14FEF031#FFFFFFFFFFFC00FF
(1357041649.49613260) ardcan1 14FF0121#FFFFFFFFFFFFFCFF
(1357041649.49625652) ardcan1 14FF0221#FFFFFFFFFFFFFFFF
(1357041649.49638036) ardcan1 18FEDF00#80A0287DFBFFFFF0
(1357041649.49653428) ardcan1 14F00131#FFFFFFFF00FFFFFF
(1357041649.49665664) ardcan1 0CF00300#D10006FFFF0F697D
(1357041649.49677892) ardcan1 18FEDF00#80A0287DFBFFFFF0
(1357041649.49690140) ardcan1 0CF00400#3E7D800000000F7D
(1357041649.49702364) ardcan1 0CF00300#D10006FFFF0F697D
(1357041649.49714600) ardcan1 14FF0121#FFFFFFFFFFFFFCFF
(1357041649.49726852) ardcan1 18FEF117#F7FFFFFFFFFFFFFF
(1357041649.49739088) ardcan1 14F00031#CFFFFFFFFFFFFFFF
(1357041649.49751328) ardcan1 18FEBF0B#00007D7D7D7DFFFF
(1357041649.49768656) ardcan1 18FEF600#FF0055FFFFFFFFFF
(1357041649.49780896) ardcan1 0CF00421#FFFFFFFFFFFFFFFF
(1357041649.49793140) ardcan1 10FF2121#32000FC0C0FFFFFA
(1357041649.49805388) ardcan1 18EBFF00#0335303030303030
(1357041649.49817632) ardcan1 18FEDF00#80A0287DFBFFFFF0
(1357041649.49829880) ardcan1 0CF00400#3E7D800000000F7D
(1357041649.49842108) ardcan1 0CF00300#D10006FFFF0F697D
(1357041649.49854344) ardcan1 18FEBF0B#00007D7D7D7DFFFF
(1357041649.49866584) ardcan1 0CF00300#D10006FFFF0F697D
(1357041649.49881976) ardcan1 0CF00421#FFFFFFFFFFFFFFFF
(1357041649.49894352) ardcan1 10FF2121#32000FC0C0FFFFFA
(1357041649.49906744) ardcan1 14FF2321#041CE1FFFFFFFFFF
(1357041649.49919140) ardcan1 18FEE000#26DA0A00D55D5100
(1357041649.49931520) ardcan1 0CF00400#3E7D800000000F7D
(1357041649.49943880) ardcan1 10FF2121#32000FC0C0FFFFFA
(1357041649.49956252) ardcan1 18FEBF0B#00007D7D7D7DFFFF
(1357041649.49968624) ardcan1 14FEF131#CFFFFFF300FFFFF0
(1357041649.49981000) ardcan1 0CF00421#FFFFFFFFFFFFFFFF
(1357041649.49996536) ardcan1 10FF2121#32000FC0C0FFFFFA
(1357041650.50008916) ardcan1 0CF00400#3E7D800000000F7D
(1357041650.50021292) ardcan1 18FEE000#26DA0A00D55D5100
(1357041650.50033672) ardcan1 0CF00400#3E7D800000000F7D
(1357041650.50046036) ardcan1 14FF3131#0030030000FFFFFF
(1357041650.50058420) ardcan1 18FEF000#FFFFFF201CF0FFFF
(1357041650.50070812) ardcan1 0CF00400#3E7D800000000F7D
(1357041650.50083180) ardcan1 0CF00300#D10006FFFF0F697D
(1357041650.50095532) ardcan1 10FF2121#32000FC0C0FFFFFA
(1357041650.50111044) ardcan1 18FDB400#3E3A2C39FFFFFFFF
(1357041650.50123412) ardcan1 18FD0417#C0FFFFFFFFFFFFFF
(1357041650.50137800) ardcan1 0CF00400#3E7D800000000F7D
(1357041650.50150140) ardcan1 14F00131#FFFFFFFF00FFFFFF
(1357041650.50162512) ardcan1 0CF00300#D10006FFFF0F697D
(1357041650.50174848) ardcan1 18FD8C00#FFFF0000FFFFFFFF
(1357041650.50187212) ardcan1 18FEF100#FF0000FC33000000
(1357041650.50199568) ardcan1 14FEF031#FFFFFFFFFFFC00FF
(1357041650.50211944) ardcan1 0CF00400#3E7D800000000F7D
(1357041650.50227424) ardcan1 14FF0221#FFFFFFFFFFFFFFFF
(1357041650.50239792) ardcan1 14F00031#CFFFFFFFFFFFFFFF
(1357041650.50252152) ardcan1 14F00131#FFFFFFFF00FFFFFF
(1357041650.50264516) ardcan1 18FEF600#FF0055FFFFFFFFFF
(1357041650.50276864) ardcan1 0CF00400#3E7D800000000F7D
(1357041650.50289204) ardcan1 0CF00400#3E7D800000000F7D
(1357041650.50301544) ardcan1 14FEF031#FFFFFFFFFFFC00FF
(1357041650.50313920) ardcan1 14FF0121#FFFFFFFFFFFFFCFF
(1357041650.50326272) ardcan1 14FF0221#FFFFFFFFFFFFFFFF
(1357041650.50341792) ardcan1 14F00031#CFFFFFFFFFFFFFFF
(1357041650.50354192) ardcan1 18FEBF0B#00007D7D7D7DFFFF
(1357041650.50366580) ardcan1 0CF00300#D10006FFFF0F697D
(1357041650.50378944) ardcan1 0CF00421#FFFFFFFFFFFFFFFF
(1357041650.50391340) ardcan1 0CF00400#3E7D800000000F7D
(1357041650.50403704) ardcan1 14FF2321#041CE1FFFFFFFFFF
(1357041650.50416080) ardcan1 18FEF117#F7FFFFFFFFFFFFFF
(1357041650.50428444) ardcan1 18F00100#FFFFFFFFFFFFFFFF
(1357041650.50440836) ardcan1 14F00031#CFFFFFFFFFFFFFFF
(1357041650.50456380) ardcan1 18F0010B#CFFFFCFFFF0FFF3F
(1357041650.50468760) ardcan1 14FEF131#CFFFFFF300FFFFF0
(1357041650.50481144) ardcan1 18FEF719#FFFFFFFFFFFFFA00
(1357041650.50493544) ardcan1 10FF2121#32000FC0C0FFFFFA
(1357041650.50505932) ardcan1 14FF2321#041CE1FFFFFFFFFF
(1357041650.50520408) ardcan1 18F00E00#FFFFFFFFFFFFFFFF
(1357041650.50532780) ardcan1 18FE9A00#D527FFFFFFFFFFFF
(1357041650.50545156) ardcan1 14FF3131#0030030000FFFFFF
(1357041650.50557524) ardcan1 18FEDF00#80A0287DFBFFFFF0
(1357041650.50572924) ardcan1 0CF00400#3E7D800000000F7D
(1357041650.50585140) ardcan1 18FEF100#FF0000FC33000000
(1357041650.50597368) ardcan1 10FF2121#32000FC0C0FFFFFA
(1357041650.50609600) ardcan1 0CF00400#3E7D800000000F7D
(1357041650.50621820) ardcan1 18FEE000#26DA0A00D55D5100
(1357041650.50634040) ardcan1 0CF00400#3E7D800000000F7D
(1357041650.50646268) ardcan1 14FF3131#0030030000FFFFFF
(1357041650.50658492) ardcan1 14FEF121#F7FFFF0FFFFFFFFF
(1357041650.50670736) ardcan1 0CF00400#3E7D800000000F7D
(1357041650.50685944) ardcan1 18FEF100#FF0000FC33000000
(1357041650.50698180) ardcan1 18FEDF00#80A0287DFBFFFFF0
(1357041650.50710420) ardcan1 18FEF117#F7FFFFFFFFFFFFFF
(1357041650.50722668) ardcan1 0CF00300#D10006FFFF0F697D
(1357041650.50734892) ardcan1 0CF00400#3E7D800000000F7D
(1357041650.50747124) ardcan1 0CF00A00#00000000FFFFFFFF
(1357041650.50759344) ardcan1 18FEFF00#FCFFFFFFFFFFFFFF
(1357041650.50771596) ardcan1 0CF00400#3E7D800000000F7D
(1357041650.50783808) ardcan1 18FEF100#FF0000FC33000000
(1357041650.50799192) ardcan1 18EBFF0F#010300E0155CC02B
(1357041650.50811552) ardcan1 0CF00400#3E7D800000000F7D
(1357041650.50823928) ardcan1 14FF0221#FFFFFFFFFFFFFFFF
(1357041650.50836316) ardcan1 0CF00400#3E7D800000000F7D
(1357041650.50848680) ardcan1 14F00131#FFFFFFFF00FFFFFF
(1357041650.50861064) ardcan1 18EBFF00#0430302A37393539
(1357041650.50873456) ardcan1 1CEBFF19#04312D303634302A
(1357041650.50885840) ardcan1 18FEF100#FF0000FC33000000
(1357041650.50900220) ardcan1 0CF00A00#00000000FFFFFFFF
(1357041650.50915740) ardcan1 18EBFF00#05343439312A3632
(1357041650.50928116) ardcan1 18F00100#FFFFFFFFFFFFFFFF
(1357041650.50940488) ardcan1 14F00031#CFFFFFFFFFFFFFFF
(1357041650.50952872) ardcan1 18F0010B#CFFFFCFFFF0FFF3F
(1357041650.50965248) ardcan1 18FF1919#01030B06FFFFFFFF
(1357041650.50977624) ardcan1 18FEDF00#80A0287DFBFFFFF0
(1357041650.50990004) ardcan1 0CF00400#3E7D800000000F7D
(1357041651.51002372) ardcan1 0CF00300#D10006FFFF0F697D
(1357041651.51014740) ardcan1 14FF0121#FFFFFFFFFFFFFCFF
(1357041651.51024924) ardcan1 18F00100#FFFFFFFFFFFFFFFF
(1357041651.51037284) ardcan1 0CF00400#3E7D800000000F7D
(1357041651.51049640) ardcan1 0CF00400#3E7D800000000F7D
(1357041651.51061976) ardcan1 14FEF121#F7FFFF0FFFFFFFFF
(1357041651.51074344) ardcan1 0CF00400#3E7D800000000F7D
(1357041651.51086688) ardcan1 18FEF100#FF0000FC33000000
(1357041651.51099032) ardcan1 14FEF031#FFFFFFFFFFFC00FF
(1357041651.51111368) ardcan1 0CF00400#3E7D800000000F7D
(1357041651.51126848) ardcan1 0CF00300#D10006FFFF0F697D
(1357041651.51139192) ardcan1 14F00031#CFFFFFFFFFFFFFFF
(1357041651.51151552) ardcan1 18F0010B#CFFFFCFFFF0FFF3F
(1357041651.51163904) ardcan1 0CF00300#D10006FFFF0F697D
(1357041651.51176264) ardcan1 18FD8C00#FFFF0000FFFFFFFF
(1357041651.51188620) ardcan1 14FDA421#FFFFFFFFFFFFFFFF
(1357041651.51200988) ardcan1 14FEF031#FFFFFFFFFFFC00FF
(1357041651.51213352) ardcan1 14FF0121#FFFFFFFFFFFFFCFF
(1357041651.51225724) ardcan1 14FF0221#FFFFFFFFFFFFFFFF
(1357041651.51241224) ardcan1 18FEDF00#80A0287DFBFFFFF0
(1357041651.51253608) ardcan1 18F0010B#CFFFFCFFFF0FFF3F
(1357041651.51268084) ardcan1 18FEF600#FF0055FFFFFFFFFF
(1357041651.51280452) ardcan1 0CF00421#FFFFFFFFFFFFFFFF
(1357041651.51292816) ardcan1 18FD3E00#FB39FFCD38FFFFFF
(1357041651.51305208) ardcan1 14FF2321#041CE1FFFFFFFFFF
(1357041651.51317580) ardcan1 14FF0121#FFFFFFFFFFFFFCFF
(1357041651.51329964) ardcan1 0CF00400#3E7D800000000F7D
(1357041651.51342324) ardcan1 0CF00300#D10006FFFF0F697D
(1357041651.51357864) ardcan1 18FEDD00#FF0000FFFFFFFFFF
(1357041651.51370244) ardcan1 0CF00400#3E7D800000000F7D
(1357041651.51382612) ardcan1 0CF00300#D10006FFFF0F697D
(1357041651.51394960) ardcan1 10FF2121#32000FC0C0FFFFFA
(1357041651.51407324) ardcan1 14FF2321#041CE1FFFFFFFFFF
(1357041651.51419696) ardcan1 18FEE000#26DA0A00D55D5100
(1357041651.51432068) ardcan1 0CF00400#3E7D800000000F7D
(1357041651.51444424) ardcan1 18F00F00#FFFFFFFFFFFFFFFF
(1357041651.51456800) ardcan1 18F0010B#CFFFFCFFFF0FFF3F
(1357041651.51472176) ardcan1 14FEF131#CFFFFFF300FFFFF0
(1357041651.51484412) ardcan1 18FEF100#FF0000FC33000000
(1357041651.51496620) ardcan1 18FEF117#F7FFFFFFFFFFFFFF
(1357041651.51508864) ardcan1 0CF00400#3E7D800000000F7D
(1357041651.51521072) ardcan1 18FEE000#26DA0A00D55D5100
(1357041651.51533300) ardcan1 18FE9A00#D527FFFFFFFFFFFF
(1357041651.51545524) ardcan1 14FF3131#0030030000FFFFFF
(1357041651.51557752) ardcan1 18FEBF0B#00007D7D7D7DFFFF
(1357041651.51569976) ardcan1 0CF00400#3E7D800000000F7D
(1357041651.51594128) ardcan1 18FD0700#03FFFFFFFFFFFFFF
(1357041651.51606376) ardcan1 14FF2321#041CE1FFFFFFFFFF
(1357041651.51618616) ardcan1 18FEE000#26DA0A00D55D5100
(1357041651.51630852) ardcan1 0CF00400#3E7D800000000F7D
(1357041651.51645112) ardcan1 18F00F00#FFFFFFFFFFFFFFFF
(1357041651.51657368) ardcan1 18FEDF00#80A0287DFBFFFFF0
(1357041651.51669608) ardcan1 0CF00400#3E7D800000000F7D
(1357041651.51681820) ardcan1 1CEBFF28#01414D45544B2A46
(1357041651.51694052) ardcan1 18EBFF00#01434D4D4E532A36
(1357041651.51709428) ardcan1 1CEBFF19#0146524748542A2A
(1357041651.51721784) ardcan1 18FEF621#FFFFFFFFFFFFFFFF
(1357041651.51734164) ardcan1 0CF00400#3E7D800000000F7D
(1357041651.51746524) ardcan1 10FF2121#32000FC0C0FFFFFA
(1357041651.51758900) ardcan1 14FEF121#F7FFFF0FFFFFFFFF
(1357041651.51771268) ardcan1 0CF00400#3E7D800000000F7D
(1357041651.51783628) ardcan1 18FEF100#FF0000FC33000000
(1357041651.51796000) ardcan1 10FF2121#32000FC0C0FFFFFA
(1357041651.51808384) ardcan1 18E00031#FFFFFFFFFFF3FFFF
(1357041651.51823924) ardcan1 18FEE000#26DA0A00D55D5100
(1357041651.51836292) ardcan1 0CF00400#3E7D800000000F7D
(1357041651.51848652) ardcan1 14F00131#FFFFFFFF00FFFFFF
(1357041651.51861028) ardcan1 18EBFF00#0430302A37393539
(1357041651.51873400) ardcan1 1CEBFF19#04312D303634302A
(1357041651.51885772) ardcan1 18FEF100#FF0000FC33000000
(1357041651.51898140) ardcan1 0CF00A00#00000000FFFFFFFF
(1357041651.51910508) ardcan1 0CF00400#3E7D800000000F7D
(1357041651.51922864) ardcan1 0CF00300#D10006FFFF0F697D
(1357041651.51938352) ardcan1 18FF2421#C0F0FFFFFFFFFFFF
(1357041651.51950716) ardcan1 14F00131#FFFFFFFF00FFFFFF
